 (1.3860)  can1  8100302   [5]  00 00 0A 00 F8
 (1.4010)  can1  89A0C02   [8]  CC 0B 00 00 00 00 00 00
 (1.4020)  can1  8030C02   [8]  00 00 2A 68 2A 68 92 17
 (1.4020)  can1  8580C02   [8]  00 00 00 00 00 00 00 00
 (1.4020)  can1  595FF71   [8]  00 80 60 09 60 09 FD 76
 (1.4030)  can1  5807202   [8]  00 80 00 00 E0 01 04 43
 (1.4030)  can1  5817202   [8]  01 00 10 27 10 27 0B E3
 (1.4030)  can1  5907102   [8]  00 80 00 00 E0 01 04 43
 (1.4040)  can1  595FF71   [8]  00 80 60 09 60 09 FF 76
 (1.4040)  can1  5827202   [8]  FA 00 00 00 00 00 04 D4
 (1.4040)  can1  5917102   [8]  01 00 10 27 10 27 0B E3
 (1.4050)  can1  5927102   [8]  FA 00 00 00 00 00 04 D4
 (1.4050)  can1  5837202   [8]  2C 41 06 00 00 00 04 E0
 (1.4050)  can1  4100209   [8]  C3 CF 12 00 00 00 00 00
 (1.4050)  can1  5937102   [8]  2C 41 06 00 00 00 04 E0
 (1.4060)  can1  596FF71   [8]  00 80 FF FF FF FF FF CB
 (1.4060)  can1  5847270   [8]  00 00 00 00 00 00 04 9F
 (1.4060)  can1  4100208   [8]  F8 94 12 00 00 00 00 00
 (1.4070)  can1  5947102   [8]  00 00 00 00 00 00 04 9F
 (1.4070)  can1  8580C02   [8]  00 00 00 00 00 00 00 00
 (1.4070)  can1  89A0C02   [8]  00 00 00 00 00 00 00 00
 (1.4070)  can1  8030C02   [8]  00 00 2A 68 2A 68 92 17
 (1.4080)  can1  585FF72   [8]  00 80 60 09 60 09 F0 76
 (1.4080)  can1  586FF72   [8]  01 80 FF FF FF FF F0 9F
 (1.4080)  can1  589FF72   [8]  1A D0 02 81 02 00 F7 87
 (1.4090)  can1  8041001   [8]  C0 02 B0 58 E6 56 3B 00
 (1.4090)  can1  18800401   [8]  16 71 94 86 94 A3 94 00
 (1.4090)  can1  18840401   [8]  16 83 94 90 94 B4 94 00
 (1.4090)  can1  18C00401   [8]  16 5C 2D 6E 2D 00 2D 00
 (1.4100)  can1  4100209   [8]  C3 CF 12 00 00 00 00 00
 (1.4100)  can1  4100208   [8]  F8 94 12 00 00 00 00 00
 (1.4110)  can1  8100302   [5]  00 00 0A 00 F8
 (1.4110)  can1  8580C02   [8]  00 00 00 00 00 00 00 00
 (1.4120)  can1  89A0C02   [8]  00 00 00 00 CC 0B 00 00
 (1.4120)  can1  595FF71   [8]  00 80 60 09 60 09 F0 76
 (1.4120)  can1  596FF71   [8]  00 80 FF FF FF FF F0 CB
 (1.4130)  can1  8030C02   [8]  00 00 2A 68 2A 68 92 17
 (1.4130)  can1  4100209   [8]  C3 CF 12 00 00 00 00 00
 (1.4130)  can1  4100208   [8]  F8 94 12 00 00 00 00 00
 (1.4150)  can1  585FF72   [8]  00 80 60 09 60 09 F1 76
 (1.4160)  can1  586FF72   [8]  01 80 FF FF FF FF F1 9F
 (1.4160)  can1  587FF72   [8]  02 08 97 10 FF FF F7 1B
 (1.4170)  can1  588FF72   [8]  10 01 5D FF FF FF F7 F7
 (1.4210)  can1  599FF71   [8]  1A D0 02 81 02 00 F7 87
 (1.4220)  can1  4100209   [8]  C3 CF 12 00 00 00 00 00
 (1.4230)  can1  4100208   [8]  F8 94 12 00 00 00 00 00
 (1.4300)  can1  89A0C02   [8]  00 00 00 00 CC 0B 00 00
 (1.4300)  can1  8030C02   [8]  00 00 2A 68 2A 68 92 17
 (1.4310)  can1  8580C02   [8]  00 00 00 00 00 00 00 00
 (1.4310)  can1  595FF71   [8]  00 80 60 09 60 09 F1 76
 (1.4320)  can1  596FF71   [8]  FE 7F FF FF FF FF F1 4D
 (1.4320)  can1  597FF71   [8]  02 08 B6 10 FF FF F7 42
 (1.4330)  can1  598FF71   [8]  F0 00 7D FF FF FF F7 78
 (1.4330)  can1  4100209   [8]  C3 CF 12 00 00 00 00 00
 (1.4330)  can1  4100208   [8]  F8 94 12 00 00 00 00 00
 (1.4350)  can1  585FF72   [8]  00 80 60 09 60 09 F2 76
 (1.4350)  can1  586FF72   [8]  02 80 FF FF FF FF F2 63
 (1.4360)  can1  8100302   [5]  00 00 0A 00 F8
 (1.4400)  can1  1948FF72   [8]  00 C0 00 55 FF FF 56 69
 (1.4410)  can1  1949FF72   [8]  0D 80 00 0D 90 00 57 81
 (1.4420)  can1  1948FF71   [8]  00 C0 00 55 FF FF 56 69
 (1.4420)  can1  1949FF71   [8]  0C 80 00 0D B0 00 57 A0
 (1.4430)  can1  194AFF71   [8]  09 67 58 88 15 59 58 16
 (1.4430)  can1  194AFF72   [8]  1B 67 58 7D 65 58 58 6C
 (1.4440)  can1  194BFF71   [8]  94 F5 FF FF FF FF 59 DE
 (1.4450)  can1  194BFF72   [8]  7D F5 FF FF FF FF 59 C7
 (1.4450)  can1  4100209   [8]  C3 CF 12 00 00 00 00 00
 (1.4460)  can1  8010C01   [8]  6B 67 00 00 00 00 00 00
 (1.4460)  can1  8101201   [8]  EB 67 EF 94 85 92 36 00
 (1.4460)  can1  194CFF71   [8]  FF FF FF FF FF FF 5A 54
 (1.4460)  can1  4100208   [8]  F8 94 12 00 00 00 00 00
 (1.4470)  can1  194CFF72   [8]  FF FF FF FF FF FF 5A 54
 (1.4470)  can1  18800401   [8]  17 9A 94 00 00 00 00 00
 (1.4470)  can1  18840401   [8]  17 AB 94 00 00 00 00 00
 (1.4470)  can1  18C00401   [8]  17 F1 2C 10 27 10 27 00
 (1.4500)  can1  5807202   [8]  00 80 00 00 E0 01 05 43
 (1.4500)  can1  5817202   [8]  01 00 10 27 10 27 0C E3
 (1.4510)  can1  5907102   [8]  00 80 00 00 E0 01 05 43
 (1.4510)  can1  595FF71   [8]  00 80 60 09 60 09 F2 76
 (1.4520)  can1  5827202   [8]  FA 00 00 00 00 00 05 D4
 (1.4520)  can1  5917102   [8]  01 00 10 27 10 27 0C E3
 (1.4530)  can1  5927102   [8]  FA 00 00 00 00 00 05 D4
 (1.4540)  can1  5837202   [8]  2C 41 06 00 00 00 05 E0
 (1.4540)  can1  4100209   [8]  C3 CF 12 00 00 00 00 00
 (1.4550)  can1  5937102   [8]  2C 41 06 00 00 00 05 E0
 (1.4550)  can1  596FF71   [8]  01 80 FF FF FF FF F2 9F
 (1.4560)  can1  5847270   [8]  00 00 00 00 00 00 05 9F
 (1.4560)  can1  4100208   [8]  F8 94 12 00 00 00 00 00
 (1.4560)  can1  5947102   [8]  00 00 00 00 00 00 05 9F
 (1.4570)  can1  8580C02   [8]  FF FF 01 00 00 00 00 00
 (1.4570)  can1  89A0C02   [8]  00 00 00 00 99 17 00 00
 (1.4570)  can1  8030C02   [8]  00 00 2A 68 2A 68 92 17
 (1.4570)  can1  585FF72   [8]  00 80 60 09 60 09 F3 76
 (1.4580)  can1  586FF72   [8]  01 80 FF FF FF FF F3 9F
 (1.4600)  can1  8100302   [5]  00 00 0A 00 F8
 (1.4620)  can1  4100209   [8]  C3 CF 12 00 00 00 00 00
 (1.4630)  can1  4100208   [8]  F8 94 12 00 00 00 00 00
 (1.4700)  can1  89A0C02   [8]  CC 0B 00 00 CC 0B 00 00
 (1.4710)  can1  8030C02   [8]  00 00 2A 68 2A 68 92 17
 (1.4710)  can1  8580C02   [8]  00 00 00 00 00 00 00 00
 (1.4720)  can1  595FF71   [8]  00 80 60 09 60 09 F3 76
 (1.4720)  can1  596FF71   [8]  02 80 FF FF FF FF F3 63
 (1.4730)  can1  4100209   [8]  C3 CF 12 00 00 00 00 00
 (1.4730)  can1  4100208   [8]  F8 94 12 00 00 00 00 00
 (1.4750)  can1  585FF72   [8]  00 80 60 09 60 09 F4 76
 (1.4750)  can1  586FF72   [8]  00 80 FF FF FF FF F4 CB
 (1.4820)  can1  4100209   [8]  C3 CF 12 00 00 00 00 00
 (1.4830)  can1  4100208   [8]  F8 94 12 00 00 00 00 00
 (1.4850)  can1  8100302   [5]  00 00 0A 00 F8
 (1.4900)  can1  89A0C02   [8]  99 17 00 00 00 00 00 00
 (1.4910)  can1  8030C02   [8]  00 00 2A 68 2A 68 92 17
 (1.4920)  can1  8580C02   [8]  01 00 00 00 00 00 00 00
 (1.4920)  can1  595FF71   [8]  00 80 60 09 60 09 F4 76
 (1.4920)  can1  596FF71   [8]  00 80 FF FF FF FF F4 CB
 (1.4920)  can1  4100209   [8]  C3 CF 12 00 00 00 00 00
 (1.4930)  can1  4100208   [8]  F8 94 12 00 00 00 00 00
 (1.4950)  can1  585FF72   [8]  00 80 60 09 60 09 F5 76
 (1.4950)  can1  586FF72   [8]  FE 7F FF FF FF FF F5 4D
 (1.4960)  can1  589FF72   [8]  1A D0 02 81 02 00 F8 87
 (1.4960)  can1  8041001   [8]  C0 02 B0 58 E6 56 3B 00
 (1.4970)  can1  18800401   [8]  00 EB 94 16 94 28 94 00
 (1.4970)  can1  18840401   [8]  00 FF 94 28 94 2A 94 00
 (1.4980)  can1  18C00401   [8]  00 96 2D 77 2D CD 2D 00
 (1.5020)  can1  4100209   [8]  C3 CF 12 00 00 00 00 00
 (1.5030)  can1  4100208   [8]  F8 94 12 00 00 00 00 00
 (1.5100)  can1  5807202   [8]  00 80 00 00 E0 01 06 43
 (1.5110)  can1  5817202   [8]  01 00 10 27 10 27 0D E3
 (1.5120)  can1  5907102   [8]  00 80 00 00 E0 01 06 43
 (1.5130)  can1  595FF71   [8]  00 80 60 09 60 09 F5 76
 (1.5130)  can1  5827202   [8]  FA 00 00 00 00 00 06 D4
 (1.5140)  can1  5917102   [8]  01 00 10 27 10 27 0D E3
 (1.5140)  can1  5927102   [8]  FA 00 00 00 00 00 06 D4
 (1.5150)  can1  5837202   [8]  2C 41 06 00 00 00 06 E0
 (1.5160)  can1  4100209   [8]  C3 CF 12 00 00 00 00 00
 (1.5160)  can1  5937102   [8]  2C 41 06 00 00 00 06 E0
 (1.5160)  can1  596FF71   [8]  FF 7F FF FF FF FF F5 19
 (1.5170)  can1  5847270   [8]  00 00 00 00 00 00 06 9F
 (1.5170)  can1  4100208   [8]  F8 94 12 00 00 00 00 00
 (1.5170)  can1  5947102   [8]  00 00 00 00 00 00 06 9F
 (1.5180)  can1  8100302   [5]  00 00 0A 00 F8
 (1.5180)  can1  89A0C02   [8]  00 00 00 00 00 00 00 00
 (1.5180)  can1  8580C02   [8]  00 00 FF FF 00 00 00 00
 (1.5180)  can1  585FF72   [8]  00 80 60 09 60 09 F6 76
 (1.5180)  can1  586FF72   [8]  00 80 FF FF FF FF F6 CB
 (1.5190)  can1  587FF72   [8]  00 08 9A 10 FF FF F8 B7
 (1.5190)  can1  588FF72   [8]  10 01 5D FF FF FF F8 F7
 (1.5190)  can1  8030C02   [8]  00 00 2A 68 2A 68 92 17
 (1.5210)  can1  599FF71   [8]  1A D0 02 81 02 00 F8 87
 (1.5220)  can1  4100209   [8]  C3 CF 12 00 00 00 00 00
 (1.5230)  can1  4100208   [8]  F8 94 12 00 00 00 00 00
 (1.5300)  can1  89A0C02   [8]  00 00 00 00 00 00 00 00
 (1.5310)  can1  8030C02   [8]  00 00 2A 68 2A 68 92 17
 (1.5320)  can1  8580C02   [8]  00 00 00 00 00 00 00 00
 (1.5320)  can1  595FF71   [8]  00 80 60 09 60 09 F6 76
 (1.5330)  can1  596FF71   [8]  FC 7F FF FF FF FF F6 E5
 (1.5330)  can1  597FF71   [8]  01 08 B4 10 FF FF F8 FB
 (1.5340)  can1  598FF71   [8]  F0 00 7D FF FF FF F8 78
 (1.5340)  can1  4100209   [8]  C3 CF 12 00 00 00 00 00
 (1.5340)  can1  4100208   [8]  F8 94 12 00 00 00 00 00
 (1.5350)  can1  8100302   [5]  00 00 0A 00 F8
 (1.5350)  can1  585FF72   [8]  00 80 60 09 60 09 F7 76
 (1.5360)  can1  586FF72   [8]  00 80 FF FF FF FF F7 CB
 (1.5420)  can1  4100209   [8]  C3 CF 12 00 00 00 00 00
 (1.5430)  can1  4100208   [8]  F8 94 12 00 00 00 00 00
 (1.5440)  can1  8010C01   [8]  69 67 00 00 00 00 00 00
 (1.5450)  can1  8101201   [8]  E9 67 EB 94 84 92 48 00
 (1.5450)  can1  18800401   [8]  01 11 94 11 94 18 94 00
 (1.5460)  can1  18840401   [8]  01 20 94 26 94 2A 94 00
 (1.5460)  can1  18C00401   [8]  01 A5 2D F2 2D B7 2D 00
 (1.5500)  can1  89A0C02   [8]  00 00 00 00 00 00 00 00
 (1.5510)  can1  8030C02   [8]  00 00 2A 68 2A 68 92 17
 (1.5510)  can1  8580C02   [8]  FE FF 00 00 00 00 00 00
 (1.5510)  can1  595FF71   [8]  00 80 60 09 60 09 F7 76
 (1.5520)  can1  596FF71   [8]  FD 7F FF FF FF FF F7 B1
 (1.5520)  can1  4100209   [8]  C3 CF 12 00 00 00 00 00
 (1.5530)  can1  4100208   [8]  F8 94 12 00 00 00 00 00
 (1.5550)  can1  585FF72   [8]  00 80 60 09 60 09 F8 76
 (1.5550)  can1  586FF72   [8]  00 80 FF FF FF FF F8 CB
 (1.5600)  can1  8100302   [5]  00 00 0A 00 F8
 (1.5620)  can1  4100209   [8]  C3 CF 12 00 00 00 00 00
 (1.5630)  can1  4100208   [8]  F8 94 12 00 00 00 00 00
 (1.5700)  can1  5807202   [8]  00 80 00 00 E0 01 07 43
 (1.5710)  can1  5817202   [8]  01 00 10 27 10 27 0E E3
 (1.5720)  can1  5907102   [8]  00 80 00 00 E0 01 07 43
 (1.5730)  can1  595FF71   [8]  00 80 60 09 60 09 F8 76
 (1.5730)  can1  5827202   [8]  FA 00 00 00 00 00 07 D4
 (1.5740)  can1  5917102   [8]  01 00 10 27 10 27 0E E3
 (1.5740)  can1  5927102   [8]  FA 00 00 00 00 00 07 D4
 (1.5750)  can1  5837202   [8]  2C 41 06 00 00 00 07 E0
 (1.5760)  can1  4100209   [8]  C3 CF 12 00 00 00 00 00
 (1.5760)  can1  5937102   [8]  2C 41 06 00 00 00 07 E0
 (1.5760)  can1  596FF71   [8]  01 80 FF FF FF FF F8 9F
 (1.5770)  can1  5847270   [8]  00 00 00 00 00 00 07 9F
 (1.5770)  can1  4100208   [8]  F8 94 12 00 00 00 00 00
 (1.5770)  can1  5947102   [8]  00 00 00 00 00 00 07 9F
 (1.5780)  can1  8580C02   [8]  FE FF 00 00 00 00 00 00
 (1.5780)  can1  89A0C02   [8]  00 00 00 00 00 00 00 00
 (1.5780)  can1  8030C02   [8]  00 00 2A 68 2A 68 92 17
 (1.5780)  can1  585FF72   [8]  00 80 60 09 60 09 F9 76
 (1.5790)  can1  586FF72   [8]  00 80 FF FF FF FF F9 CB
 (1.5820)  can1  4100209   [8]  C3 CF 12 00 00 00 00 00
 (1.5830)  can1  4100208   [8]  F8 94 12 00 00 00 00 00
 (1.5850)  can1  8100302   [5]  00 00 0A 00 F8
 (1.5900)  can1  89A0C02   [8]  CC 0B 00 00 00 00 00 00
 (1.5900)  can1  8030C02   [8]  00 00 2A 68 2A 68 92 17
 (1.5910)  can1  8580C02   [8]  00 00 00 00 00 00 00 00
 (1.5910)  can1  595FF71   [8]  00 80 60 09 60 09 F9 76
 (1.5920)  can1  596FF71   [8]  02 80 FF FF FF FF F9 63
 (1.5920)  can1  4100209   [8]  C3 CF 12 00 00 00 00 00
 (1.5930)  can1  4100208   [8]  F8 94 12 00 00 00 00 00
 (1.5950)  can1  585FF72   [8]  00 80 60 09 60 09 FA 76
 (1.5960)  can1  586FF72   [8]  00 80 FF FF FF FF FA CB
 (1.5970)  can1  589FF72   [8]  1A D0 02 81 02 00 F9 87
 (1.5970)  can1  8041001   [8]  C0 02 B0 58 E6 56 3B 00
 (1.5970)  can1  18800401   [8]  02 3C 94 92 94 7F 94 00
 (1.5980)  can1  18840401   [8]  02 4E 94 A4 94 91 94 00
 (1.5980)  can1  18C00401   [8]  02 D5 2D B4 2D B3 2D 00
 (1.6020)  can1  4100209   [8]  C3 CF 12 00 00 00 00 00
 (1.6030)  can1  4100208   [8]  F8 94 12 00 00 00 00 00
 (1.6100)  can1  8100302   [5]  00 00 0A 00 F8
 (1.6100)  can1  8580C02   [8]  01 00 00 00 00 00 00 00
 (1.6110)  can1  89A0C02   [8]  99 17 00 00 00 00 00 00
 (1.6120)  can1  595FF71   [8]  00 80 60 09 60 09 FA 76
 (1.6120)  can1  596FF71   [8]  FE 7F FF FF FF FF FA 4D
 (1.6130)  can1  8030C02   [8]  00 00 2A 68 2A 68 92 17
 (1.6130)  can1  4100209   [8]  C3 CF 12 00 00 00 00 00
 (1.6140)  can1  4100208   [8]  F8 94 12 00 00 00 00 00
 (1.6150)  can1  585FF72   [8]  00 80 60 09 60 09 FB 76
 (1.6150)  can1  586FF72   [8]  FF 7F FF FF FF FF FB 19
 (1.6160)  can1  528FF72   [8]  00 00 FC FF 00 00 00 00
 (1.6170)  can1  529FF72   [8]  F7 FF 01 00 01 00 00 00
 (1.6170)  can1  52AFF72   [8]  0F 0F 0F 0F 0F 0F 11 00
 (1.6180)  can1  52BFF72   [8]  0D 10 0D 0F 00 FF 00 00
 (1.6180)  can1  52CFF72   [8]  00 00 EF FF EF FF 3A 00
 (1.6180)  can1  587FF72   [8]  03 08 9A 10 FF FF F9 4B
 (1.6180)  can1  588FF72   [8]  10 01 5D FF FF FF F9 F7
 (1.6210)  can1  599FF71   [8]  1A D0 02 81 02 00 F9 87
 (1.6210)  can1  528FF71   [8]  03 00 04 00 00 00 00 00
 (1.6220)  can1  529FF71   [8]  07 00 FC FF 01 00 00 00
 (1.6230)  can1  52AFF71   [8]  0F 0F 0F 0F 0F 0F 0F 00
 (1.6230)  can1  52BFF71   [8]  0C 0E 0C 0F 00 FF 00 00
 (1.6240)  can1  52CFF71   [8]  00 00 EF FF EF FF 3A 00
 (1.6240)  can1  4100209   [8]  C3 CF 12 00 00 00 00 00
 (1.6240)  can1  4100208   [8]  F8 94 12 00 00 00 00 00
 (1.6300)  can1  5807202   [8]  00 80 00 00 E0 01 08 43
 (1.6310)  can1  5817202   [8]  01 00 10 27 10 27 0F E3
 (1.6310)  can1  5907102   [8]  00 80 00 00 E0 01 08 43
 (1.6320)  can1  595FF71   [8]  00 80 60 09 60 09 FB 76
 (1.6320)  can1  5827202   [8]  FA 00 00 00 00 00 08 D4
 (1.6330)  can1  5917102   [8]  01 00 10 27 10 27 0F E3
 (1.6330)  can1  5927102   [8]  FA 00 00 00 00 00 08 D4
 (1.6340)  can1  5837202   [8]  2C 41 06 00 00 00 08 E0
 (1.6350)  can1  5937102   [8]  2C 41 06 00 00 00 08 E0
 (1.6360)  can1  4100209   [8]  C3 CF 12 00 00 00 00 00
 (1.6360)  can1  596FF71   [8]  00 80 FF FF FF FF FB CB
 (1.6360)  can1  5847270   [8]  00 00 00 00 00 00 08 9F
 (1.6370)  can1  4100208   [8]  F8 94 12 00 00 00 00 00
 (1.6370)  can1  5947102   [8]  00 00 00 00 00 00 08 9F
 (1.6370)  can1  597FF71   [8]  01 08 B4 10 FF FF F9 FB
 (1.6380)  can1  598FF71   [8]  F0 00 7D FF FF FF F9 78
 (1.6380)  can1  8580C02   [8]  FF FF 00 00 00 00 00 00
 (1.6380)  can1  89A0C02   [8]  00 00 00 00 00 00 00 00
 (1.6380)  can1  585FF72   [8]  00 80 60 09 60 09 FC 76
 (1.6390)  can1  586FF72   [8]  00 80 FF FF FF FF FC CB
 (1.6390)  can1  8030C02   [8]  00 00 2A 68 2A 68 92 17
 (1.6390)  can1  8100302   [5]  00 00 0A 00 F8
 (1.6420)  can1  4100209   [8]  C3 CF 12 00 00 00 00 00
 (1.6430)  can1  4100208   [8]  F8 94 12 00 00 00 00 00
 (1.6440)  can1  18101203   [4]  6D 2D E9 07
 (1.6450)  can1  8010C01   [8]  6B 67 00 00 00 00 00 00
 (1.6450)  can1  8101201   [8]  EC 67 F1 94 87 92 4B 00
 (1.6460)  can1  18800401   [8]  03 79 94 6F 94 7F 94 00
 (1.6460)  can1  18840401   [8]  03 8B 94 80 94 8D 94 00
 (1.6470)  can1  18C00401   [8]  03 9A 2D 76 2D 57 2D 00
 (1.6500)  can1  89A0C02   [8]  00 00 00 00 00 00 00 00
 (1.6500)  can1  8030C02   [8]  00 00 2A 68 2A 68 92 17
 (1.6510)  can1  8580C02   [8]  00 00 00 00 00 00 00 00
 (1.6510)  can1  595FF71   [8]  00 80 60 09 60 09 FC 76
 (1.6520)  can1  596FF71   [8]  FE 7F FF FF FF FF FC 4D
 (1.6520)  can1  4100209   [8]  C3 CF 12 00 00 00 00 00
 (1.6530)  can1  4100208   [8]  F8 94 12 00 00 00 00 00
 (1.6550)  can1  585FF72   [8]  00 80 60 09 60 09 FD 76
 (1.6560)  can1  586FF72   [8]  02 80 FF FF FF FF FD 63
 (1.6600)  can1  8100302   [5]  00 00 0A 00 F8
 (1.6620)  can1  4100209   [8]  C3 CF 12 00 00 00 00 00
 (1.6630)  can1  4100208   [8]  F8 94 12 00 00 00 00 00
 (1.6700)  can1  89A0C02   [8]  00 00 00 00 99 17 00 00
 (1.6710)  can1  8030C02   [8]  00 00 2A 68 2A 68 92 17
 (1.6710)  can1  8580C02   [8]  FF FF 01 00 00 00 00 00
 (1.6710)  can1  595FF71   [8]  00 80 60 09 60 09 FD 76
 (1.6710)  can1  596FF71   [8]  FE 7F FF FF FF FF FD 4D
 (1.6720)  can1  4100209   [8]  C3 CF 12 00 00 00 00 00
 (1.6730)  can1  4100208   [8]  F8 94 12 00 00 00 00 00
 (1.6750)  can1  585FF72   [8]  00 80 60 09 60 09 FE 76
 (1.6750)  can1  586FF72   [8]  00 80 FF FF FF FF FE CB
 (1.6820)  can1  4100209   [8]  C3 CF 12 00 00 00 00 00
 (1.6830)  can1  4100208   [8]  F8 94 12 00 00 00 00 00
 (1.6850)  can1  8100302   [5]  00 00 0A 00 F8
 (1.6900)  can1  5807202   [8]  00 80 00 00 E0 01 09 43
 (1.6910)  can1  5817202   [8]  01 00 10 27 10 27 00 E3
 (1.6920)  can1  5907102   [8]  00 80 00 00 E0 01 09 43
 (1.6920)  can1  595FF71   [8]  00 80 60 09 60 09 FE 76
 (1.6920)  can1  5827202   [8]  FA 00 00 00 00 00 09 D4
 (1.6930)  can1  5917102   [8]  01 00 10 27 10 27 00 E3
 (1.6940)  can1  5927102   [8]  FA 00 00 00 00 00 09 D4
 (1.6950)  can1  5837202   [8]  2C 41 06 00 00 00 09 E0
 (1.6950)  can1  5937102   [8]  2C 41 06 00 00 00 09 E0
 (1.6960)  can1  4100209   [8]  C3 CF 12 00 00 00 00 00
 (1.6960)  can1  596FF71   [8]  01 80 FF FF FF FF FE 9F
 (1.6970)  can1  5847270   [8]  00 00 00 00 00 00 09 9F
 (1.6970)  can1  4100208   [8]  F8 94 12 00 00 00 00 00
 (1.6980)  can1  5947102   [8]  00 00 00 00 00 00 09 9F
 (1.6990)  can1  8580C02   [8]  FF FF 00 00 00 00 00 00
 (1.6990)  can1  89A0C02   [8]  00 00 00 00 00 00 00 00
 (1.7000)  can1  8030C02   [8]  00 00 2A 68 2A 68 92 17
 (1.7010)  can1  585FF72   [8]  00 80 60 09 60 09 FF 76
 (1.7010)  can1  586FF72   [8]  FE 7F FF FF FF FF FF 4D
 (1.7010)  can1  589FF72   [8]  1A D0 02 81 02 00 FA 87
 (1.7010)  can1  1948FF71   [8]  00 C0 00 55 FF FF 5B 6E
 (1.7020)  can1  8041001   [8]  C0 02 B0 58 E6 56 3B 00
 (1.7020)  can1  18800401   [8]  04 9A 94 87 94 72 92 00
 (1.7020)  can1  18840401   [8]  04 B0 94 9C 94 88 92 00
 (1.7030)  can1  1948FF72   [8]  00 C0 00 55 FF FF 5B 6E
 (1.7030)  can1  1949FF71   [8]  0D 80 00 0D A0 00 5C 96
 (1.7040)  can1  18C00401   [8]  04 03 2D 02 2D FF 2D 00
 (1.7040)  can1  1949FF72   [8]  0D 90 00 0D A0 00 5C A6
 (1.7050)  can1  194AFF71   [8]  09 67 58 86 65 58 5D 68
 (1.7050)  can1  194AFF72   [8]  1B 07 58 80 75 57 5D 23
 (1.7050)  can1  194BFF71   [8]  94 F5 FF FF FF FF 5E E3
 (1.7060)  can1  194BFF72   [8]  77 F5 FF FF FF FF 5E C6
 (1.7060)  can1  194CFF71   [8]  FF FF FF FF FF FF 5F 59
 (1.7060)  can1  194CFF72   [8]  FF FF FF FF FF FF 5F 59
 (1.7070)  can1  4100209   [8]  C3 CF 12 00 00 00 00 00
 (1.7070)  can1  4100208   [8]  F8 94 12 00 00 00 00 00
 (1.7100)  can1  8100302   [5]  00 00 0A 00 F8
 (1.7110)  can1  8580C02   [8]  00 00 FF FF 00 00 00 00
 (1.7120)  can1  89A0C02   [8]  CC 0B 00 00 00 00 00 00
 (1.7120)  can1  595FF71   [8]  00 80 60 09 60 09 FF 76
 (1.7130)  can1  596FF71   [8]  00 80 FF FF FF FF FF CB
 (1.7130)  can1  8030C02   [8]  00 00 2A 68 2A 68 92 17
 (1.7130)  can1  4100209   [8]  C3 CF 12 00 00 00 00 00
 (1.7140)  can1  4100208   [8]  F8 94 12 00 00 00 00 00
 (1.7150)  can1  585FF72   [8]  00 80 60 09 60 09 F0 76
 (1.7150)  can1  586FF72   [8]  00 80 FF FF FF FF F0 CB
 (1.7160)  can1  587FF72   [8]  02 08 97 10 FF FF FA 1B
 (1.7160)  can1  588FF72   [8]  10 01 5D FF FF FF FA F7
 (1.7210)  can1  599FF71   [8]  1A D0 02 81 02 00 FA 87
 (1.7220)  can1  4100209   [8]  C3 CF 12 00 00 00 00 00
 (1.7230)  can1  4100208   [8]  F8 94 12 00 00 00 00 00
 (1.7300)  can1  89A0C02   [8]  00 00 00 00 00 00 00 00
 (1.7310)  can1  8030C02   [8]  00 00 2A 68 2A 68 92 17
 (1.7320)  can1  8580C02   [8]  00 00 00 00 00 00 00 00
 (1.7320)  can1  595FF71   [8]  00 80 60 09 60 09 F0 76
 (1.7330)  can1  596FF71   [8]  FD 7F FF FF FF FF F0 B1
 (1.7330)  can1  597FF71   [8]  01 08 B4 10 FF FF FA FB
 (1.7340)  can1  598FF71   [8]  F0 00 7D FF FF FF FA 78
 (1.7340)  can1  4100209   [8]  C3 CF 12 00 00 00 00 00
 (1.7340)  can1  4100208   [8]  F8 94 12 00 00 00 00 00
 (1.7350)  can1  8100302   [5]  00 00 0A 00 F8
 (1.7350)  can1  585FF72   [8]  00 80 60 09 60 09 F1 76
 (1.7360)  can1  586FF72   [8]  FE 7F FF FF FF FF F1 4D
 (1.7420)  can1  4100209   [8]  C3 CF 12 00 00 00 00 00
 (1.7430)  can1  4100208   [8]  F8 94 12 00 00 00 00 00
 (1.7450)  can1  18800401   [8]  05 6B 94 54 94 64 94 00
 (1.7450)  can1  18840401   [8]  05 80 94 77 94 79 94 00
 (1.7460)  can1  18C00401   [8]  05 E7 2D 2C 2E 2F 2E 00
 (1.7460)  can1  8101201   [8]  E9 67 E7 94 88 92 4C 00
 (1.7470)  can1  8010C01   [8]  6B 67 00 00 00 00 00 00
 (1.7500)  can1  5807202   [8]  00 80 00 00 E0 01 0A 43
 (1.7500)  can1  5817202   [8]  01 00 10 27 10 27 01 E3
 (1.7510)  can1  5907102   [8]  00 80 00 00 E0 01 0A 43
 (1.7510)  can1  595FF71   [8]  00 80 60 09 60 09 F1 76
 (1.7520)  can1  5827202   [8]  FA 00 00 00 00 00 0A D4
 (1.7520)  can1  5917102   [8]  01 00 10 27 10 27 01 E3
 (1.7530)  can1  5927102   [8]  FA 00 00 00 00 00 0A D4
 (1.7540)  can1  5837202   [8]  2C 41 06 00 00 00 0A E0
 (1.7550)  can1  5937102   [8]  2C 41 06 00 00 00 0A E0
 (1.7550)  can1  4100209   [8]  C3 CF 12 00 00 00 00 00
 (1.7550)  can1  596FF71   [8]  FF 7F FF FF FF FF F1 19
 (1.7560)  can1  5847270   [8]  00 00 00 00 00 00 0A 9F
 (1.7560)  can1  5947102   [8]  00 00 00 00 00 00 0A 9F
 (1.7560)  can1  4100208   [8]  F8 94 12 00 00 00 00 00
 (1.7570)  can1  8030C02   [8]  00 00 2A 68 2A 68 92 17
 (1.7570)  can1  8580C02   [8]  FE FF FF FF 00 00 00 00
 (1.7570)  can1  89A0C02   [8]  00 00 00 00 00 00 00 00
 (1.7570)  can1  585FF72   [8]  00 80 60 09 60 09 F2 76
 (1.7580)  can1  586FF72   [8]  FE 7F FF FF FF FF F2 4D
 (1.7600)  can1  8100302   [5]  00 00 0A 00 F8
 (1.7620)  can1  4100209   [8]  C3 CF 12 00 00 00 00 00
 (1.7630)  can1  4100208   [8]  F8 94 12 00 00 00 00 00
 (1.7700)  can1  89A0C02   [8]  00 00 00 00 00 00 00 00
 (1.7710)  can1  8030C02   [8]  00 00 2A 68 2A 68 92 17
 (1.7710)  can1  8580C02   [8]  00 00 FF FF 00 00 00 00
 (1.7720)  can1  595FF71   [8]  00 80 60 09 60 09 F2 76
 (1.7720)  can1  596FF71   [8]  00 80 FF FF FF FF F2 CB
 (1.7730)  can1  4100209   [8]  C3 CF 12 00 00 00 00 00
 (1.7730)  can1  4100208   [8]  F8 94 12 00 00 00 00 00
 (1.7750)  can1  585FF72   [8]  00 80 60 09 60 09 F3 76
 (1.7750)  can1  586FF72   [8]  00 80 FF FF FF FF F3 CB
 (1.7820)  can1  4100209   [8]  C3 CF 12 00 00 00 00 00
 (1.7830)  can1  4100208   [8]  F8 94 12 00 00 00 00 00
 (1.7850)  can1  8100302   [5]  00 00 0A 00 F8
 (1.7900)  can1  89A0C02   [8]  00 00 00 00 00 00 00 00
 (1.7900)  can1  8030C02   [8]  00 00 2A 68 2A 68 92 17
 (1.7910)  can1  8580C02   [8]  00 00 00 00 00 00 00 00
 (1.7920)  can1  595FF71   [8]  00 80 60 09 60 09 F3 76
 (1.7930)  can1  596FF71   [8]  FF 7F FF FF FF FF F3 19
 (1.7930)  can1  4100209   [8]  C3 CF 12 00 00 00 00 00
 (1.7930)  can1  4100208   [8]  F8 94 12 00 00 00 00 00
 (1.7950)  can1  585FF72   [8]  00 80 60 09 60 09 F4 76
 (1.7950)  can1  586FF72   [8]  00 80 FF FF FF FF F4 CB
 (1.7960)  can1  589FF72   [8]  1A D0 02 81 02 00 FB 87
 (1.7970)  can1  8041001   [8]  C0 02 B0 58 E6 56 3B 00
 (1.7970)  can1  18800401   [8]  06 65 94 A1 94 AC 94 00
 (1.7970)  can1  18840401   [8]  06 79 94 B6 94 BF 94 00
 (1.7980)  can1  18C00401   [8]  06 33 2E 72 2E 47 2E 00
 (1.8020)  can1  4100209   [8]  C3 CF 12 00 00 00 00 00
 (1.8030)  can1  4100208   [8]  F8 94 12 00 00 00 00 00
 (1.8100)  can1  5807202   [8]  00 80 00 00 E0 01 0B 43
 (1.8100)  can1  5817202   [8]  01 00 10 27 10 27 02 E3
 (1.8110)  can1  5907102   [8]  00 80 00 00 E0 01 0B 43
 (1.8120)  can1  595FF71   [8]  00 80 60 09 60 09 F4 76
 (1.8130)  can1  5827202   [8]  FA 00 00 00 00 00 0B D4
 (1.8130)  can1  5917102   [8]  01 00 10 27 10 27 02 E3
 (1.8140)  can1  5927102   [8]  FA 00 00 00 00 00 0B D4
 (1.8140)  can1  5837202   [8]  2C 41 06 00 00 00 0B E0
 (1.8150)  can1  5937102   [8]  2C 41 06 00 00 00 0B E0
 (1.8160)  can1  4100209   [8]  C3 CF 12 00 00 00 00 00
 (1.8170)  can1  596FF71   [8]  02 80 FF FF FF FF F4 63
 (1.8170)  can1  5847270   [8]  00 00 00 00 00 00 0B 9F
 (1.8170)  can1  4100208   [8]  F8 94 12 00 00 00 00 00
 (1.8180)  can1  5947102   [8]  00 00 00 00 00 00 0B 9F
 (1.8180)  can1  8100302   [5]  00 00 0A 00 F8
 (1.8180)  can1  89A0C02   [8]  00 00 00 00 00 00 00 00
 (1.8190)  can1  8580C02   [8]  00 00 00 00 00 00 00 00
 (1.8190)  can1  585FF72   [8]  00 80 60 09 60 09 F5 76
 (1.8190)  can1  586FF72   [8]  00 80 FF FF FF FF F5 CB
 (1.8190)  can1  587FF72   [8]  00 08 9A 10 FF FF FB B7
 (1.8190)  can1  588FF72   [8]  10 01 5D FF FF FF FB F7
 (1.8200)  can1  8030C02   [8]  00 00 2A 68 2A 68 92 17
 (1.8210)  can1  599FF71   [8]  1A D0 02 81 02 00 FB 87
 (1.8220)  can1  4100209   [8]  C3 CF 12 00 00 00 00 00
 (1.8230)  can1  4100208   [8]  F8 94 12 00 00 00 00 00
 (1.8300)  can1  89A0C02   [8]  99 17 00 00 00 00 00 00
 (1.8300)  can1  8030C02   [8]  00 00 2A 68 2A 68 92 17
 (1.8310)  can1  8580C02   [8]  01 00 00 00 00 00 00 00
 (1.8310)  can1  595FF71   [8]  00 80 60 09 60 09 F5 76
 (1.8320)  can1  596FF71   [8]  FE 7F FF FF FF FF F5 4D
 (1.8330)  can1  597FF71   [8]  00 08 B6 10 FF FF FB EA
 (1.8330)  can1  598FF71   [8]  F0 00 7D FF FF FF FB 78
 (1.8340)  can1  4100209   [8]  C3 CF 12 00 00 00 00 00
 (1.8340)  can1  4100208   [8]  F8 94 12 00 00 00 00 00
 (1.8350)  can1  8100302   [5]  00 00 0A 00 F8
 (1.8360)  can1  585FF72   [8]  00 80 60 09 60 09 F6 76
 (1.8360)  can1  586FF72   [8]  02 80 FF FF FF FF F6 63
 (1.8420)  can1  4100209   [8]  C3 CF 12 00 00 00 00 00
 (1.8430)  can1  4100208   [8]  F8 94 12 00 00 00 00 00
 (1.8450)  can1  18800401   [8]  07 98 94 8F 94 7D 94 00
 (1.8450)  can1  18840401   [8]  07 AE 94 A4 94 91 94 00
 (1.8450)  can1  18C00401   [8]  07 76 2E 1E 2E 5E 2E 00
 (1.8470)  can1  8101201   [8]  E8 67 F1 94 89 92 43 00
 (1.8470)  can1  8010C01   [8]  69 67 00 00 00 00 00 00
 (1.8500)  can1  89A0C02   [8]  00 00 00 00 99 17 00 00
 (1.8510)  can1  8030C02   [8]  00 00 2A 68 2A 68 92 17
 (1.8520)  can1  595FF71   [8]  00 80 60 09 60 09 F6 76
 (1.8520)  can1  596FF71   [8]  00 80 FF FF FF FF F6 CB
 (1.8520)  can1  8580C02   [8]  FF FF 01 00 00 00 00 00
 (1.8530)  can1  4100209   [8]  C3 CF 12 00 00 00 00 00
 (1.8530)  can1  4100208   [8]  F8 94 12 00 00 00 00 00
 (1.8550)  can1  585FF72   [8]  00 80 60 09 60 09 F7 76
 (1.8550)  can1  586FF72   [8]  01 80 FF FF FF FF F7 9F
 (1.8600)  can1  8100302   [5]  00 00 0A 00 F8
 (1.8620)  can1  4100209   [8]  C3 CF 12 00 00 00 00 00
 (1.8630)  can1  4100208   [8]  F8 94 12 00 00 00 00 00
 (1.8700)  can1  5807202   [8]  00 80 00 00 E0 01 0C 43
 (1.8700)  can1  5817202   [8]  01 00 10 27 10 27 03 E3
 (1.8710)  can1  5907102   [8]  00 80 00 00 E0 01 0C 43
 (1.8720)  can1  595FF71   [8]  00 80 60 09 60 09 F7 76
 (1.8720)  can1  5827202   [8]  FA 00 00 00 00 00 0C D4
 (1.8730)  can1  5917102   [8]  01 00 10 27 10 27 03 E3
 (1.8730)  can1  5927102   [8]  FA 00 00 00 00 00 0C D4
 (1.8740)  can1  5837202   [8]  2C 41 06 00 00 00 0C E0
 (1.8740)  can1  5937102   [8]  2C 41 06 00 00 00 0C E0
 (1.8750)  can1  4100209   [8]  C3 CF 12 00 00 00 00 00
 (1.8760)  can1  596FF71   [8]  00 80 FF FF FF FF F7 CB
 (1.8760)  can1  5847270   [8]  00 00 00 00 00 00 0C 9F
 (1.8770)  can1  4100208   [8]  F8 94 12 00 00 00 00 00
 (1.8770)  can1  5947102   [8]  00 00 00 00 00 00 0C 9F
 (1.8770)  can1  8580C02   [8]  00 00 00 00 00 00 00 00
 (1.8770)  can1  89A0C02   [8]  00 00 00 00 CC 0B 00 00
 (1.8780)  can1  8030C02   [8]  00 00 2A 68 2A 68 92 17
 (1.8780)  can1  585FF72   [8]  00 80 60 09 60 09 F8 76
 (1.8780)  can1  586FF72   [8]  FF 7F FF FF FF FF F8 19
 (1.8820)  can1  4100209   [8]  C3 CF 12 00 00 00 00 00
 (1.8830)  can1  4100208   [8]  F8 94 12 00 00 00 00 00
 (1.8850)  can1  8100302   [5]  00 00 0A 00 F8
 (1.8900)  can1  89A0C02   [8]  00 00 00 00 00 00 00 00
 (1.8910)  can1  8030C02   [8]  00 00 2A 68 2A 68 92 17
 (1.8910)  can1  8580C02   [8]  00 00 00 00 00 00 00 00
 (1.8910)  can1  595FF71   [8]  00 80 60 09 60 09 F8 76
 (1.8920)  can1  596FF71   [8]  00 80 FF FF FF FF F8 CB
 (1.8920)  can1  4100209   [8]  C3 CF 12 00 00 00 00 00
 (1.8930)  can1  4100208   [8]  F8 94 12 00 00 00 00 00
 (1.8950)  can1  585FF72   [8]  00 80 60 09 60 09 F9 76
 (1.8960)  can1  586FF72   [8]  01 80 FF FF FF FF F9 9F
 (1.8970)  can1  589FF72   [8]  1A D0 02 81 02 00 FC 87
 (1.8970)  can1  8041001   [8]  C0 02 B0 58 E6 56 3B 00
 (1.8970)  can1  18800401   [8]  08 72 94 96 92 BD 94 00
 (1.8980)  can1  18840401   [8]  08 88 94 AD 92 D0 94 00
 (1.8980)  can1  18C00401   [8]  08 E9 2D 16 2E 96 2D 00
 (1.9020)  can1  4100209   [8]  C3 CF 12 00 00 00 00 00
 (1.9030)  can1  4100208   [8]  F8 94 12 00 00 00 00 00
 (1.9100)  can1  8100302   [5]  00 00 0A 00 F8
 (1.9110)  can1  8580C02   [8]  00 00 00 00 00 00 00 00
 (1.9110)  can1  89A0C02   [8]  00 00 00 00 CC 0B 00 00
 (1.9120)  can1  595FF71   [8]  00 80 60 09 60 09 F9 76
 (1.9120)  can1  596FF71   [8]  02 80 FF FF FF FF F9 63
 (1.9130)  can1  8030C02   [8]  00 00 2A 68 2A 68 92 17
 (1.9130)  can1  4100209   [8]  C3 CF 12 00 00 00 00 00
 (1.9140)  can1  4100208   [8]  F8 94 12 00 00 00 00 00
 (1.9150)  can1  585FF72   [8]  00 80 60 09 60 09 FA 76
 (1.9150)  can1  586FF72   [8]  FE 7F FF FF FF FF FA 4D
 (1.9160)  can1  587FF72   [8]  00 08 97 10 FF FF FC B3
 (1.9160)  can1  588FF72   [8]  10 01 5D FF FF FF FC F7
 (1.9200)  can1  599FF71   [8]  1A D0 02 81 02 00 FC 87
 (1.9220)  can1  4100209   [8]  C3 CF 12 00 00 00 00 00
 (1.9230)  can1  4100208   [8]  F8 94 12 00 00 00 00 00
 (1.9300)  can1  5807202   [8]  00 80 00 00 E0 01 0D 43
 (1.9310)  can1  5817202   [8]  01 00 10 27 10 27 04 E3
 (1.9310)  can1  5907102   [8]  00 80 00 00 E0 01 0D 43
 (1.9320)  can1  595FF71   [8]  00 80 60 09 60 09 FA 76
 (1.9330)  can1  5827202   [8]  FA 00 00 00 00 00 0D D4
 (1.9340)  can1  5917102   [8]  01 00 10 27 10 27 04 E3
 (1.9340)  can1  5927102   [8]  FA 00 00 00 00 00 0D D4
 (1.9350)  can1  5837202   [8]  2C 41 06 00 00 00 0D E0
 (1.9350)  can1  5937102   [8]  2C 41 06 00 00 00 0D E0
 (1.9360)  can1  4100209   [8]  C3 CF 12 00 00 00 00 00
 (1.9370)  can1  596FF71   [8]  FE 7F FF FF FF FF FA 4D
 (1.9370)  can1  5847270   [8]  00 00 00 00 00 00 0D 9F
 (1.9370)  can1  5947102   [8]  00 00 00 00 00 00 0D 9F
 (1.9380)  can1  4100208   [8]  F8 94 12 00 00 00 00 00
 (1.9380)  can1  597FF71   [8]  00 08 B1 10 FF FF FC 90
 (1.9380)  can1  598FF71   [8]  F0 00 7D FF FF FF FC 78
 (1.9380)  can1  8030C02   [8]  00 00 2A 68 2A 68 92 17
 (1.9390)  can1  8580C02   [8]  01 00 FF FF 00 00 00 00
 (1.9390)  can1  585FF72   [8]  00 80 60 09 60 09 FB 76
 (1.9390)  can1  586FF72   [8]  FE 7F FF FF FF FF FB 4D
 (1.9400)  can1  8100302   [5]  00 00 0A 00 F8
 (1.9400)  can1  89A0C02   [8]  99 17 00 00 00 00 00 00
 (1.9420)  can1  4100209   [8]  C3 CF 12 00 00 00 00 00
 (1.9430)  can1  4100208   [8]  F8 94 12 00 00 00 00 00
 (1.9450)  can1  18800401   [8]  09 A7 94 71 94 62 94 00
 (1.9450)  can1  18840401   [8]  09 BB 94 86 94 76 94 00
 (1.9450)  can1  18C00401   [8]  09 9A 2D 10 2E 1B 2E 00
 (1.9480)  can1  8101201   [8]  E9 67 EA 94 86 92 50 00
 (1.9480)  can1  8010C01   [8]  67 67 00 00 00 00 00 00
 (1.9500)  can1  89A0C02   [8]  00 00 00 00 00 00 00 00
 (1.9500)  can1  8030C02   [8]  00 00 2A 68 2A 68 92 17
 (1.9510)  can1  8580C02   [8]  FF FF FF FF 00 00 00 00
 (1.9520)  can1  595FF71   [8]  00 80 60 09 60 09 FB 76
 (1.9530)  can1  596FF71   [8]  FF 7F FF FF FF FF FB 19
 (1.9530)  can1  1948FF71   [8]  00 C0 00 55 FF FF 60 73
 (1.9540)  can1  1948FF72   [8]  00 C0 00 55 FF FF 60 73
 (1.9540)  can1  1949FF71   [8]  0D 80 00 0D 80 00 61 7B
 (1.9550)  can1  1949FF72   [8]  0D 80 00 0D 90 00 61 8B
 (1.9550)  can1  4100209   [8]  C3 CF 12 00 00 00 00 00
 (1.9560)  can1  194AFF71   [8]  09 67 58 88 15 59 62 20
 (1.9570)  can1  194AFF72   [8]  1B 67 58 7D 75 57 62 85
 (1.9570)  can1  194BFF71   [8]  94 F5 FF FF FF FF 63 E8
 (1.9570)  can1  4100208   [8]  F8 94 12 00 00 00 00 00
 (1.9570)  can1  194BFF72   [8]  7A F5 FF FF FF FF 63 CE
 (1.9580)  can1  194CFF71   [8]  FF FF FF FF FF FF 64 5E
 (1.9580)  can1  194CFF72   [8]  FF FF FF FF FF FF 64 5E
 (1.9580)  can1  585FF72   [8]  00 80 60 09 60 09 FC 76
 (1.9590)  can1  586FF72   [8]  00 80 FF FF FF FF FC CB
 (1.9600)  can1  8100302   [5]  00 00 0A 00 F8
 (1.9620)  can1  4100209   [8]  C3 CF 12 00 00 00 00 00
 (1.9630)  can1  4100208   [8]  F8 94 12 00 00 00 00 00
 (1.9700)  can1  89A0C02   [8]  00 00 00 00 00 00 00 00
 (1.9700)  can1  8030C02   [8]  00 00 2A 68 2A 68 92 17
 (1.9710)  can1  8580C02   [8]  00 00 00 00 00 00 00 00
 (1.9710)  can1  595FF71   [8]  00 80 60 09 60 09 FC 76
 (1.9720)  can1  596FF71   [8]  02 80 FF FF FF FF FC 63
 (1.9720)  can1  4100209   [8]  C3 CF 12 00 00 00 00 00
 (1.9730)  can1  4100208   [8]  F8 94 12 00 00 00 00 00
 (1.9750)  can1  585FF72   [8]  00 80 60 09 60 09 FD 76
 (1.9750)  can1  586FF72   [8]  02 80 FF FF FF FF FD 63
 (1.9820)  can1  4100209   [8]  C3 CF 12 00 00 00 00 00
 (1.9830)  can1  4100208   [8]  F8 94 12 00 00 00 00 00
 (1.9930)  can1  8100302   [5]  00 00 0A 00 F8
 (1.9940)  can1  5807202   [8]  00 80 00 00 E0 01 0E 43
 (1.9950)  can1  5817202   [8]  01 00 10 27 10 27 05 E3
 (1.9950)  can1  5907102   [8]  00 80 00 00 E0 01 0E 43
 (1.9960)  can1  595FF71   [8]  00 80 60 09 60 09 FD 76
 (1.9960)  can1  5827202   [8]  FA 00 00 00 00 00 0E D4
 (1.9970)  can1  5917102   [8]  01 00 10 27 10 27 05 E3
 (1.9970)  can1  5927102   [8]  FA 00 00 00 00 00 0E D4
 (1.9970)  can1  5837202   [8]  2C 41 06 00 00 00 0E E0
 (1.9980)  can1  5937102   [8]  2C 41 06 00 00 00 0E E0
 (1.9980)  can1  4100209   [8]  C3 CF 12 00 00 00 00 00
 (1.9980)  can1  596FF71   [8]  FF 7F FF FF FF FF FD 19
 (1.9990)  can1  5847270   [8]  00 00 00 00 00 00 0E 9F
 (1.9990)  can1  5947102   [8]  00 00 00 00 00 00 0E 9F
 (1.9990)  can1  4100208   [8]  F8 94 12 00 00 00 00 00
 (2.0000)  can1  8030C02   [8]  00 00 2A 68 2A 68 92 17
 (2.0000)  can1  8580C02   [8]  01 00 01 00 00 00 00 00
 (2.0000)  can1  89A0C02   [8]  99 17 00 00 99 17 00 00
 (2.0010)  can1  585FF72   [8]  00 80 60 09 60 09 FE 76
 (2.0010)  can1  586FF72   [8]  FF 7F FF FF FF FF FE 19
 (2.0020)  can1  589FF72   [8]  1A D0 02 81 02 00 FD 87
 (2.0020)  can1  8041001   [8]  C0 02 B0 58 E6 56 3B 00
 (2.0030)  can1  18800401   [8]  0A 57 94 58 94 68 94 00
 (2.0030)  can1  18840401   [8]  0A 66 94 6C 94 7A 94 00
 (2.0030)  can1  18C00401   [8]  0A 4D 2E 77 2E 5C 2E 00
 (2.0030)  can1  4100209   [8]  C3 CF 12 00 00 00 00 00
 (2.0040)  can1  4100208   [8]  F8 94 12 00 00 00 00 00
 (2.0100)  can1  8100302   [5]  00 00 0A 00 F8
 (2.0110)  can1  8580C02   [8]  00 00 00 00 00 00 00 00
 (2.0110)  can1  89A0C02   [8]  00 00 00 00 00 00 00 00
 (2.0120)  can1  595FF71   [8]  00 80 60 09 60 09 FE 76
 (2.0120)  can1  596FF71   [8]  FE 7F FF FF FF FF FE 4D
 (2.0130)  can1  8030C02   [8]  00 00 2A 68 2A 68 92 17
 (2.0130)  can1  4100209   [8]  C3 CF 12 00 00 00 00 00
 (2.0140)  can1  4100208   [8]  F8 94 12 00 00 00 00 00
 (2.0150)  can1  585FF72   [8]  00 80 60 09 60 09 FF 76
 (2.0150)  can1  586FF72   [8]  02 80 FF FF FF FF FF 63
 (2.0160)  can1  587FF72   [8]  FD 07 97 10 FF FF FD B2
 (2.0160)  can1  588FF72   [8]  10 01 5D FF FF FF FD F7
 (2.0210)  can1  599FF71   [8]  1A D0 02 81 02 00 FD 87
 (2.0220)  can1  4100209   [8]  C3 CF 12 00 00 00 00 00
 (2.0230)  can1  4100208   [8]  F8 94 12 00 00 00 00 00
 (2.0300)  can1  89A0C02   [8]  00 00 00 00 99 17 00 00
 (2.0310)  can1  8030C02   [8]  00 00 2A 68 2A 68 92 17
 (2.0310)  can1  8580C02   [8]  FF FF 01 00 00 00 00 00
 (2.0320)  can1  595FF71   [8]  00 80 60 09 60 09 FF 76
 (2.0320)  can1  596FF71   [8]  FF 7F FF FF FF FF FF 19
 (2.0330)  can1  597FF71   [8]  01 08 B6 10 FF FF FD BE
 (2.0330)  can1  598FF71   [8]  F0 00 7D FF FF FF FD 78
 (2.0330)  can1  4100209   [8]  C3 CF 12 00 00 00 00 00
 (2.0340)  can1  4100208   [8]  F8 94 12 00 00 00 00 00
 (2.0350)  can1  8100302   [5]  00 00 0A 00 F8
 (2.0350)  can1  585FF72   [8]  00 80 60 09 60 09 F0 76
 (2.0360)  can1  586FF72   [8]  00 80 FF FF FF FF F0 CB
 (2.0420)  can1  4100209   [8]  C3 CF 12 00 00 00 00 00
 (2.0430)  can1  4100208   [8]  F8 94 12 00 00 00 00 00
 (2.0440)  can1  404FF03   [1]  00
 (2.0450)  can1  18800401   [8]  0B 96 94 91 94 94 94 00
 (2.0450)  can1  18840401   [8]  0B AA 94 A5 94 A5 94 00
 (2.0460)  can1  18C00401   [8]  0B A5 2E 65 2E 91 2E 00
 (2.0470)  can1  8250C03   [8]  51 00 F9 00 00 00 31 00
 (2.0470)  can1  8840C03   [8]  37 00 16 00 27 00 07 00
 (2.0470)  can1  88D0C03   [8]  2C 00 00 00 6B 00 7B 00
 (2.0490)  can1  8101201   [8]  E9 67 EE 94 86 92 44 00
 (2.0490)  can1  8010C01   [8]  69 67 00 00 00 00 00 00
 (2.0500)  can1  5807202   [8]  00 80 00 00 E0 01 0F 43
 (2.0500)  can1  5817202   [8]  01 00 10 27 10 27 06 E3
 (2.0510)  can1  5907102   [8]  00 80 00 00 E0 01 0F 43
 (2.0510)  can1  595FF71   [8]  00 80 60 09 60 09 F0 76
 (2.0520)  can1  5827202   [8]  FA 00 00 00 00 00 0F D4
 (2.0530)  can1  5917102   [8]  01 00 10 27 10 27 06 E3
 (2.0540)  can1  5927102   [8]  FA 00 00 00 00 00 0F D4
 (2.0540)  can1  5837202   [8]  2C 41 06 00 00 00 0F E0
 (2.0550)  can1  5937102   [8]  2C 41 06 00 00 00 0F E0
 (2.0550)  can1  4100209   [8]  C3 CF 12 00 00 00 00 00
 (2.0560)  can1  596FF71   [8]  00 80 FF FF FF FF F0 CB
 (2.0570)  can1  5847270   [8]  00 00 00 00 00 00 0F 9F
 (2.0570)  can1  5947102   [8]  00 00 00 00 00 00 0F 9F
 (2.0570)  can1  4100208   [8]  F8 94 12 00 00 00 00 00
 (2.0570)  can1  8030C02   [8]  00 00 2A 68 2A 68 92 17
 (2.0570)  can1  8580C02   [8]  00 00 00 00 00 00 00 00
 (2.0580)  can1  89A0C02   [8]  00 00 00 00 00 00 00 00
 (2.0580)  can1  585FF72   [8]  00 80 60 09 60 09 F1 76
 (2.0580)  can1  586FF72   [8]  FD 7F FF FF FF FF F1 B1
 (2.0600)  can1  8100302   [5]  00 00 0A 00 F8
 (2.0620)  can1  4100209   [8]  C3 CF 12 00 00 00 00 00
 (2.0630)  can1  4100208   [8]  F8 94 12 00 00 00 00 00
 (2.0700)  can1  89A0C02   [8]  00 00 00 00 00 00 00 00
 (2.0700)  can1  8030C02   [8]  00 00 2A 68 2A 68 92 17
 (2.0710)  can1  8580C02   [8]  00 00 FE FF 00 00 00 00
 (2.0710)  can1  595FF71   [8]  00 80 60 09 60 09 F1 76
 (2.0720)  can1  596FF71   [8]  FD 7F FF FF FF FF F1 B1
 (2.0720)  can1  4100209   [8]  C3 CF 12 00 00 00 00 00
 (2.0730)  can1  4100208   [8]  F8 94 12 00 00 00 00 00
 (2.0750)  can1  585FF72   [8]  00 80 60 09 60 09 F2 76
 (2.0760)  can1  586FF72   [8]  FE 7F FF FF FF FF F2 4D
 (2.0760)  can1  404FF07   [1]  00
 (2.0820)  can1  4100209   [8]  C3 CF 12 00 00 00 00 00
 (2.0830)  can1  4100208   [8]  F8 94 12 00 00 00 00 00
 (2.0850)  can1  8100302   [5]  00 00 0A 00 F8
 (2.0900)  can1  89A0C02   [8]  00 00 00 00 00 00 00 00
 (2.0900)  can1  8030C02   [8]  00 00 2A 68 2A 68 92 17
 (2.0910)  can1  8580C02   [8]  FE FF FF FF 00 00 00 00
 (2.0920)  can1  595FF71   [8]  00 80 60 09 60 09 F2 76
 (2.0920)  can1  596FF71   [8]  FF 7F FF FF FF FF F2 19
 (2.0920)  can1  4100209   [8]  C3 CF 12 00 00 00 00 00
 (2.0930)  can1  404FF01   [1]  00
 (2.0930)  can1  4100208   [8]  F8 94 12 00 00 00 00 00
 (2.0950)  can1  585FF72   [8]  00 80 60 09 60 09 F3 76
 (2.0950)  can1  586FF72   [8]  FF 7F FF FF FF FF F3 19
 (2.0960)  can1  589FF72   [8]  1A D0 02 81 02 00 FE 87
 (2.0970)  can1  8041001   [8]  C0 02 B0 58 E6 56 3B 00
 (2.0980)  can1  80F1201   [4]  BE 0F 00 00
 (2.0980)  can1  8120C01   [8]  90 00 00 00 00 00 00 00
 (2.0980)  can1  18800401   [8]  0C 86 94 79 94 77 94 00
 (2.0990)  can1  18840401   [8]  0C 9B 94 8F 94 8B 94 00
 (2.0990)  can1  18C00401   [8]  0C 41 2E 4D 2E D5 2D 00
 (2.1020)  can1  4100209   [8]  C3 CF 12 00 00 00 00 00
 (2.1030)  can1  4100208   [8]  F8 94 12 00 00 00 00 00
 (2.1100)  can1  5807202   [8]  00 80 00 00 E0 01 00 43
 (2.1110)  can1  5817202   [8]  01 00 10 27 10 27 07 E3
 (2.1110)  can1  5907102   [8]  00 80 00 00 E0 01 00 43
 (2.1120)  can1  595FF71   [8]  00 80 60 09 60 09 F3 76
 (2.1130)  can1  5827202   [8]  FA 00 00 00 00 00 00 D4
 (2.1140)  can1  5917102   [8]  01 00 10 27 10 27 07 E3
 (2.1140)  can1  5927102   [8]  FA 00 00 00 00 00 00 D4
 (2.1150)  can1  5837202   [8]  2C 41 06 00 00 00 00 E0
 (2.1150)  can1  5937102   [8]  2C 41 06 00 00 00 00 E0
 (2.1160)  can1  4100209   [8]  C3 CF 12 00 00 00 00 00
 (2.1170)  can1  596FF71   [8]  01 80 FF FF FF FF F3 9F
 (2.1170)  can1  404FF02   [1]  00
 (2.1180)  can1  5847270   [8]  00 00 00 00 00 00 00 9F
 (2.1180)  can1  4100208   [8]  F8 94 12 00 00 00 00 00
 (2.1180)  can1  5947102   [8]  00 00 00 00 00 00 00 9F
 (2.1180)  can1  8100302   [5]  00 00 0A 00 F8
 (2.1190)  can1  89A0C02   [8]  00 00 00 00 00 00 00 00
 (2.1190)  can1  585FF72   [8]  00 80 60 09 60 09 F4 76
 (2.1190)  can1  586FF72   [8]  00 80 FF FF FF FF F4 CB
 (2.1200)  can1  528FF72   [8]  0C 00 FF FF 00 00 00 00
 (2.1200)  can1  529FF72   [8]  F5 FF 01 00 01 00 00 00
 (2.1210)  can1  52CFF72   [8]  00 00 EF FF EF FF 3A 00
 (2.1210)  can1  587FF72   [8]  FF 07 9A 10 FF FF FE 1E
 (2.1210)  can1  588FF72   [8]  10 01 5D FF FF FF FE F7
 (2.1220)  can1  8030C02   [8]  00 00 2A 68 2A 68 92 17
 (2.1220)  can1  8580C02   [8]  00 00 00 00 00 00 00 00
 (2.1230)  can1  599FF71   [8]  1A D0 02 81 02 00 FE 87
 (2.1230)  can1  528FF71   [8]  FC FF FF FF 00 00 00 00
 (2.1230)  can1  529FF71   [8]  08 00 FD FF 01 00 00 00
 (2.1240)  can1  52CFF71   [8]  00 00 EF FF EF FF 3A 00
 (2.1240)  can1  4100209   [8]  C3 CF 12 00 00 00 00 00
 (2.1240)  can1  4100208   [8]  F8 94 12 00 00 00 00 00
 (2.1300)  can1  89A0C02   [8]  CC 0B 00 00 00 00 00 00
 (2.1310)  can1  8030C02   [8]  00 00 2A 68 2A 68 92 17
 (2.1320)  can1  8580C02   [8]  00 00 00 00 00 00 00 00
 (2.1320)  can1  595FF71   [8]  00 80 60 09 60 09 F4 76
 (2.1330)  can1  596FF71   [8]  02 80 FF FF FF FF F4 63
 (2.1330)  can1  597FF71   [8]  08 08 B4 10 FF FF FE 51
 (2.1340)  can1  598FF71   [8]  F0 00 7D FF FF FF FE 78
 (2.1340)  can1  4100209   [8]  C3 CF 12 00 00 00 00 00
 (2.1340)  can1  4100208   [8]  F8 94 12 00 00 00 00 00
 (2.1350)  can1  8100302   [5]  00 00 0A 00 F8
 (2.1350)  can1  585FF72   [8]  00 80 60 09 60 09 F5 76
 (2.1360)  can1  586FF72   [8]  02 80 FF FF FF FF F5 63
 (2.1420)  can1  4100209   [8]  C3 CF 12 00 00 00 00 00
 (2.1430)  can1  4100208   [8]  F8 94 12 00 00 00 00 00
 (2.1440)  can1  18101203   [4]  77 2D 3B 07
 (2.1450)  can1  18800401   [8]  0D 7B 94 A1 94 93 94 00
 (2.1460)  can1  18840401   [8]  0D 8C 94 B6 94 A8 94 00
 (2.1460)  can1  18C00401   [8]  0D DC 2D 5B 2D 52 2D 00
 (2.1500)  can1  8101201   [8]  EB 67 EB 94 85 92 53 00
 (2.1500)  can1  8010C01   [8]  67 67 00 00 00 00 00 00
 (2.1510)  can1  8030C02   [8]  00 00 2A 68 2A 68 92 17
 (2.1510)  can1  8580C02   [8]  01 00 01 00 00 00 00 00
 (2.1520)  can1  89A0C02   [8]  99 17 00 00 99 17 00 00
 (2.1520)  can1  595FF71   [8]  00 80 60 09 60 09 F5 76
 (2.1530)  can1  596FF71   [8]  FC 7F FF FF FF FF F5 E5
 (2.1530)  can1  4100209   [8]  C3 CF 12 00 00 00 00 00
 (2.1530)  can1  4100208   [8]  F8 94 12 00 00 00 00 00
 (2.1550)  can1  585FF72   [8]  00 80 60 09 60 09 F6 76
 (2.1560)  can1  586FF72   [8]  00 80 FF FF FF FF F6 CB
 (2.1600)  can1  8100302   [5]  00 00 0A 00 F8
 (2.1620)  can1  4100209   [8]  C3 CF 12 00 00 00 00 00
 (2.1640)  can1  4100208   [8]  F8 94 12 00 00 00 00 00
 (2.1700)  can1  5807202   [8]  00 80 00 00 E0 01 01 43
 (2.1700)  can1  5817202   [8]  01 00 10 27 10 27 08 E3
 (2.1710)  can1  5907102   [8]  00 80 00 00 E0 01 01 43
 (2.1710)  can1  595FF71   [8]  00 80 60 09 60 09 F6 76
 (2.1720)  can1  5827202   [8]  FA 00 00 00 00 00 01 D4
 (2.1730)  can1  5917102   [8]  01 00 10 27 10 27 08 E3
 (2.1730)  can1  5927102   [8]  FA 00 00 00 00 00 01 D4
 (2.1740)  can1  5837202   [8]  2C 41 06 00 00 00 01 E0
 (2.1750)  can1  5937102   [8]  2C 41 06 00 00 00 01 E0
 (2.1750)  can1  4100209   [8]  C3 CF 12 00 00 00 00 00
 (2.1760)  can1  596FF71   [8]  00 80 FF FF FF FF F6 CB
 (2.1760)  can1  5847270   [8]  00 00 00 00 00 00 01 9F
 (2.1760)  can1  5947102   [8]  00 00 00 00 00 00 01 9F
 (2.1770)  can1  4100208   [8]  F8 94 12 00 00 00 00 00
 (2.1770)  can1  8030C02   [8]  00 00 2A 68 2A 68 92 17
 (2.1770)  can1  8580C02   [8]  FE FF 00 00 00 00 00 00
 (2.1770)  can1  89A0C02   [8]  00 00 00 00 00 00 00 00
 (2.1780)  can1  585FF72   [8]  00 80 60 09 60 09 F7 76
 (2.1780)  can1  586FF72   [8]  FE 7F FF FF FF FF F7 4D
 (2.1820)  can1  4100209   [8]  C3 CF 12 00 00 00 00 00
 (2.1830)  can1  4100208   [8]  F8 94 12 00 00 00 00 00
 (2.1850)  can1  8100302   [5]  00 00 0A 00 F8
 (2.1900)  can1  89A0C02   [8]  00 00 00 00 00 00 00 00
 (2.1900)  can1  8030C02   [8]  00 00 2A 68 2A 68 92 17
 (2.1910)  can1  8580C02   [8]  00 00 FF FF 00 00 00 00
 (2.1920)  can1  595FF71   [8]  00 80 60 09 60 09 F7 76
 (2.1920)  can1  596FF71   [8]  FF 7F FF FF FF FF F7 19
 (2.1930)  can1  4100209   [8]  C3 CF 12 00 00 00 00 00
 (2.1940)  can1  4100208   [8]  F8 94 12 00 00 00 00 00
 (2.1950)  can1  585FF72   [8]  00 80 60 09 60 09 F8 76
 (2.1950)  can1  586FF72   [8]  FE 7F FF FF FF FF F8 4D
 (2.1960)  can1  589FF72   [8]  1A D0 02 81 02 00 FF 87
 (2.1960)  can1  8041001   [8]  C0 02 B0 58 E6 56 3B 00
 (2.1970)  can1  18800401   [8]  0E 67 94 62 94 48 94 00
 (2.1970)  can1  18840401   [8]  0E 77 94 72 94 5E 94 00
 (2.1980)  can1  18C00401   [8]  0E CE 2D E4 2D 0E 2E 00
 (2.2020)  can1  4100209   [8]  C3 CF 12 00 00 00 00 00
 (2.2030)  can1  4100208   [8]  F8 94 12 00 00 00 00 00
 (2.2050)  can1  1948FF72   [8]  00 C0 00 55 FF FF 65 78
 (2.2060)  can1  1949FF72   [8]  0D 80 00 0D 80 00 66 80
 (2.2060)  can1  194AFF72   [8]  1B 77 57 77 75 57 67 93
 (2.2070)  can1  194BFF72   [8]  7D F5 FF FF FF FF 68 D6
 (2.2070)  can1  194CFF72   [8]  FF FF FF FF FF FF 69 63
 (2.2080)  can1  1948FF71   [8]  00 C0 00 55 FF FF 65 78
 (2.2090)  can1  1949FF71   [8]  0D 80 00 0C B0 00 66 AF
 (2.2090)  can1  194AFF71   [8]  09 67 58 8B 85 58 67 97
 (2.2090)  can1  194BFF71   [8]  86 F5 FF FF FF FF 68 DF
 (2.2100)  can1  194CFF71   [8]  FF FF FF FF FF FF 69 63
 (2.2100)  can1  8100302   [5]  00 00 0A 00 F8
 (2.2110)  can1  8580C02   [8]  00 00 FF FF 00 00 00 00
 (2.2110)  can1  89A0C02   [8]  00 00 00 00 00 00 00 00
 (2.2120)  can1  595FF71   [8]  00 80 60 09 60 09 F8 76
 (2.2120)  can1  596FF71   [8]  FD 7F FF FF FF FF F8 B1
 (2.2120)  can1  8030C02   [8]  00 00 2A 68 2A 68 92 17
 (2.2130)  can1  4100209   [8]  C3 CF 12 00 00 00 00 00
 (2.2140)  can1  4100208   [8]  F8 94 12 00 00 00 00 00
 (2.2150)  can1  585FF72   [8]  00 80 60 09 60 09 F9 76
 (2.2160)  can1  586FF72   [8]  FD 7F FF FF FF FF F9 B1
 (2.2160)  can1  587FF72   [8]  FE 07 9A 10 FF FF FF 4A
 (2.2170)  can1  588FF72   [8]  10 01 5D FF FF FF FF F7
 (2.2210)  can1  599FF71   [8]  1A D0 02 81 02 00 FF 87
 (2.2220)  can1  4100209   [8]  C3 CF 12 00 00 00 00 00
 (2.2230)  can1  4100208   [8]  F8 94 12 00 00 00 00 00
 (2.2300)  can1  5807202   [8]  00 80 00 00 E0 01 02 43
 (2.2300)  can1  5817202   [8]  01 00 10 27 10 27 09 E3
 (2.2310)  can1  5907102   [8]  00 80 00 00 E0 01 02 43
 (2.2310)  can1  595FF71   [8]  00 80 60 09 60 09 F9 76
 (2.2320)  can1  5827202   [8]  FA 00 00 00 00 00 02 D4
 (2.2330)  can1  5917102   [8]  01 00 10 27 10 27 09 E3
 (2.2340)  can1  5927102   [8]  FA 00 00 00 00 00 02 D4
 (2.2340)  can1  5837202   [8]  2C 41 06 00 00 00 02 E0
 (2.2350)  can1  5937102   [8]  2C 41 06 00 00 00 02 E0
 (2.2350)  can1  4100209   [8]  C3 CF 12 00 00 00 00 00
 (2.2360)  can1  596FF71   [8]  FE 7F FF FF FF FF F9 4D
 (2.2370)  can1  5847270   [8]  00 00 00 00 00 00 02 9F
 (2.2370)  can1  5947102   [8]  00 00 00 00 00 00 02 9F
 (2.2380)  can1  4100208   [8]  F8 94 12 00 00 00 00 00
 (2.2380)  can1  597FF71   [8]  04 08 B4 10 FF FF FF D0
 (2.2380)  can1  598FF71   [8]  F0 00 7D FF FF FF FF 78
 (2.2380)  can1  8030C02   [8]  00 00 2A 68 2A 68 92 17
 (2.2380)  can1  8580C02   [8]  FE FF FE FF 00 00 00 00
 (2.2390)  can1  585FF72   [8]  00 80 60 09 60 09 FA 76
 (2.2390)  can1  586FF72   [8]  02 80 FF FF FF FF FA 63
 (2.2390)  can1  8100302   [5]  00 00 0A 00 F8
 (2.2400)  can1  89A0C02   [8]  00 00 00 00 00 00 00 00
 (2.2420)  can1  4100209   [8]  C3 CF 12 00 00 00 00 00
 (2.2430)  can1  4100208   [8]  F8 94 12 00 00 00 00 00
 (2.2450)  can1  18800401   [8]  0F 2B 94 6A 94 9A 94 00
 (2.2450)  can1  18840401   [8]  0F 3D 94 7B 94 AB 94 00
 (2.2450)  can1  18C00401   [8]  0F 27 2E 3E 2E 72 2E 00
 (2.2500)  can1  89A0C02   [8]  00 00 00 00 99 17 00 00
 (2.2500)  can1  8030C02   [8]  00 00 2A 68 2A 68 92 17
 (2.2510)  can1  8580C02   [8]  FF FF 01 00 00 00 00 00
 (2.2520)  can1  595FF71   [8]  00 80 60 09 60 09 FA 76
 (2.2530)  can1  596FF71   [8]  01 80 FF FF FF FF FA 9F
 (2.2530)  can1  8010C01   [8]  69 67 00 00 00 00 00 00
 (2.2540)  can1  8101201   [8]  E9 67 F0 94 84 92 4D 00
 (2.2540)  can1  4100209   [8]  C3 CF 12 00 00 00 00 00
 (2.2540)  can1  4100208   [8]  F8 94 12 00 00 00 00 00
 (2.2550)  can1  585FF72   [8]  00 80 60 09 60 09 FB 76
 (2.2560)  can1  586FF72   [8]  FF 7F FF FF FF FF FB 19
 (2.2600)  can1  8100302   [5]  00 00 0A 00 F8
 (2.2620)  can1  4100209   [8]  C3 CF 12 00 00 00 00 00
 (2.2630)  can1  4100208   [8]  F8 94 12 00 00 00 00 00
 (2.2700)  can1  89A0C02   [8]  CC 0B 00 00 00 00 00 00
 (2.2700)  can1  8030C02   [8]  00 00 2A 68 2A 68 92 17
 (2.2710)  can1  8580C02   [8]  00 00 00 00 00 00 00 00
 (2.2710)  can1  595FF71   [8]  00 80 60 09 60 09 FB 76
 (2.2720)  can1  596FF71   [8]  00 80 FF FF FF FF FB CB
 (2.2720)  can1  4100209   [8]  C3 CF 12 00 00 00 00 00
 (2.2730)  can1  4100208   [8]  F8 94 12 00 00 00 00 00
 (2.2750)  can1  585FF72   [8]  00 80 60 09 60 09 FC 76
 (2.2760)  can1  586FF72   [8]  02 80 FF FF FF FF FC 63
 (2.2820)  can1  4100209   [8]  C3 CF 12 00 00 00 00 00
 (2.2830)  can1  4100208   [8]  F8 94 12 00 00 00 00 00
 (2.2850)  can1  8100302   [5]  00 00 0A 00 F8
 (2.2900)  can1  5807202   [8]  00 80 00 00 E0 01 03 43
 (2.2910)  can1  5817202   [8]  01 00 10 27 10 27 0A E3
 (2.2910)  can1  5907102   [8]  00 80 00 00 E0 01 03 43
 (2.2910)  can1  595FF71   [8]  00 80 60 09 60 09 FC 76
 (2.2920)  can1  5827202   [8]  FA 00 00 00 00 00 03 D4
 (2.2920)  can1  5917102   [8]  01 00 10 27 10 27 0A E3
 (2.2930)  can1  5927102   [8]  FA 00 00 00 00 00 03 D4
 (2.2940)  can1  5837202   [8]  2C 41 06 00 00 00 03 E0
 (2.2940)  can1  5937102   [8]  2C 41 06 00 00 00 03 E0
 (2.2940)  can1  4100209   [8]  C3 CF 12 00 00 00 00 00
 (2.2950)  can1  596FF71   [8]  FE 7F FF FF FF FF FC 4D
 (2.2950)  can1  5847270   [8]  00 00 00 00 00 00 03 9F
 (2.2960)  can1  5947102   [8]  00 00 00 00 00 00 03 9F
 (2.2960)  can1  4100208   [8]  F8 94 12 00 00 00 00 00
 (2.2970)  can1  8030C02   [8]  00 00 2A 68 2A 68 92 17
 (2.2980)  can1  8580C02   [8]  00 00 01 00 00 00 00 00
 (2.2980)  can1  89A0C02   [8]  00 00 00 00 99 17 00 00
 (2.2980)  can1  585FF72   [8]  00 80 60 09 60 09 FD 76
 (2.2990)  can1  586FF72   [8]  02 80 FF FF FF FF FD 63
 (2.2990)  can1  589FF72   [8]  1A D0 02 81 02 00 F0 87
 (2.2990)  can1  8041001   [8]  C0 02 B0 58 E6 56 3B 00
 (2.2990)  can1  18800401   [8]  10 8E 94 8D 94 81 94 00
 (2.3000)  can1  18840401   [8]  10 A2 94 A0 94 94 94 00
 (2.3000)  can1  18C00401   [8]  10 49 2E 76 2E 11 2E 00
 (2.3020)  can1  4100209   [8]  C3 CF 12 00 00 00 00 00
 (2.3030)  can1  4100208   [8]  F8 94 12 00 00 00 00 00
 (2.3100)  can1  8100302   [5]  00 00 0A 00 F8
 (2.3100)  can1  8580C02   [8]  FF FF 01 00 00 00 00 00
 (2.3110)  can1  89A0C02   [8]  00 00 00 00 99 17 00 00
 (2.3110)  can1  595FF71   [8]  00 80 60 09 60 09 FD 76
 (2.3110)  can1  596FF71   [8]  FE 7F FF FF FF FF FD 4D
 (2.3120)  can1  8030C02   [8]  00 00 2A 68 2A 68 92 17
 (2.3120)  can1  4100209   [8]  C3 CF 12 00 00 00 00 00
 (2.3130)  can1  4100208   [8]  F8 94 12 00 00 00 00 00
 (2.3150)  can1  585FF72   [8]  00 80 60 09 60 09 FE 76
 (2.3150)  can1  586FF72   [8]  FE 7F FF FF FF FF FE 4D
 (2.3160)  can1  587FF72   [8]  FF 07 97 10 FF FF F0 1A
 (2.3170)  can1  588FF72   [8]  10 01 5D FF FF FF F0 F7
 (2.3210)  can1  599FF71   [8]  1A D0 02 81 02 00 F0 87
 (2.3220)  can1  4100209   [8]  C3 CF 12 00 00 00 00 00
 (2.3230)  can1  4100208   [8]  F8 94 12 00 00 00 00 00
 (2.3300)  can1  89A0C02   [8]  00 00 00 00 00 00 00 00
 (2.3310)  can1  8030C02   [8]  00 00 2A 68 2A 68 92 17
 (2.3310)  can1  8580C02   [8]  FF FF FF FF 00 00 00 00
 (2.3320)  can1  595FF71   [8]  00 80 60 09 60 09 FE 76
 (2.3320)  can1  596FF71   [8]  FF 7F FF FF FF FF FE 19
 (2.3330)  can1  597FF71   [8]  00 08 B4 10 FF FF F0 AF
 (2.3330)  can1  598FF71   [8]  F0 00 7D FF FF FF F0 78
 (2.3340)  can1  4100209   [8]  C3 CF 12 00 00 00 00 00
 (2.3340)  can1  4100208   [8]  F8 94 12 00 00 00 00 00
 (2.3350)  can1  8100302   [5]  00 00 0A 00 F8
 (2.3360)  can1  585FF72   [8]  00 80 60 09 60 09 FF 76
 (2.3360)  can1  586FF72   [8]  01 80 FF FF FF FF FF 9F
 (2.3420)  can1  4100209   [8]  C3 CF 12 00 00 00 00 00
 (2.3430)  can1  4100208   [8]  F8 94 12 00 00 00 00 00
 (2.3450)  can1  18800401   [8]  11 76 94 73 94 76 94 00
 (2.3450)  can1  18840401   [8]  11 89 94 86 94 8D 94 00
 (2.3460)  can1  18C00401   [8]  11 47 2E C5 2D FE 2D 00
 (2.3500)  can1  5807202   [8]  00 80 00 00 E0 01 04 43
 (2.3500)  can1  5817202   [8]  01 00 10 27 10 27 0B E3
 (2.3510)  can1  5907102   [8]  00 80 00 00 E0 01 04 43
 (2.3510)  can1  595FF71   [8]  00 80 60 09 60 09 FF 76
 (2.3520)  can1  5827202   [8]  FA 00 00 00 00 00 04 D4
 (2.3530)  can1  5917102   [8]  01 00 10 27 10 27 0B E3
 (2.3540)  can1  5927102   [8]  FA 00 00 00 00 00 04 D4
 (2.3540)  can1  5837202   [8]  2C 41 06 00 00 00 04 E0
 (2.3550)  can1  5937102   [8]  2C 41 06 00 00 00 04 E0
 (2.3550)  can1  4100209   [8]  C3 CF 12 00 00 00 00 00
 (2.3560)  can1  596FF71   [8]  FF 7F FF FF FF FF FF 19
 (2.3570)  can1  5847270   [8]  00 00 00 00 00 00 04 9F
 (2.3570)  can1  5947102   [8]  00 00 00 00 00 00 04 9F
 (2.3570)  can1  4100208   [8]  F8 94 12 00 00 00 00 00
 (2.3580)  can1  8010C01   [8]  68 67 00 00 00 00 00 00
 (2.3580)  can1  8030C02   [8]  00 00 2A 68 2A 68 92 17
 (2.3580)  can1  8101201   [8]  E9 67 EF 94 85 92 3D 00
 (2.3580)  can1  8580C02   [8]  00 00 00 00 00 00 00 00
 (2.3590)  can1  585FF72   [8]  00 80 60 09 60 09 F0 76
 (2.3590)  can1  586FF72   [8]  FD 7F FF FF FF FF F0 B1
 (2.3590)  can1  89A0C02   [8]  00 00 00 00 CC 0B 00 00
 (2.3600)  can1  8100302   [5]  00 00 0A 00 F8
 (2.3620)  can1  4100209   [8]  C3 CF 12 00 00 00 00 00
 (2.3630)  can1  4100208   [8]  F8 94 12 00 00 00 00 00
 (2.3700)  can1  89A0C02   [8]  00 00 00 00 00 00 00 00
 (2.3710)  can1  8030C02   [8]  00 00 2A 68 2A 68 92 17
 (2.3710)  can1  8580C02   [8]  00 00 FE FF 00 00 00 00
 (2.3720)  can1  595FF71   [8]  00 80 60 09 60 09 F0 76
 (2.3720)  can1  596FF71   [8]  FE 7F FF FF FF FF F0 4D
 (2.3720)  can1  4100209   [8]  C3 CF 12 00 00 00 00 00
 (2.3730)  can1  4100208   [8]  F8 94 12 00 00 00 00 00
 (2.3750)  can1  585FF72   [8]  00 80 60 09 60 09 F1 76
 (2.3760)  can1  586FF72   [8]  FC 7F FF FF FF FF F1 E5
 (2.3820)  can1  4100209   [8]  C3 CF 12 00 00 00 00 00
 (2.3830)  can1  4100208   [8]  F8 94 12 00 00 00 00 00
 (2.3850)  can1  8100302   [5]  00 00 0A 00 F8
 (2.3900)  can1  89A0C02   [8]  00 00 00 00 00 00 00 00
 (2.3910)  can1  8030C02   [8]  00 00 2A 68 2A 68 92 17
 (2.3920)  can1  8580C02   [8]  FF FF FE FF 00 00 00 00
 (2.3920)  can1  595FF71   [8]  00 80 60 09 60 09 F1 76
 (2.3930)  can1  596FF71   [8]  FF 7F FF FF FF FF F1 19
 (2.3930)  can1  4100209   [8]  C3 CF 12 00 00 00 00 00
 (2.3940)  can1  4100208   [8]  F8 94 12 00 00 00 00 00
 (2.3950)  can1  585FF72   [8]  00 80 60 09 60 09 F2 76
 (2.3960)  can1  586FF72   [8]  FF 7F FF FF FF FF F2 19
 (2.3960)  can1  589FF72   [8]  1A D0 02 81 02 00 F1 87
 (2.3970)  can1  8041001   [8]  C0 02 B0 58 E6 56 3B 00
 (2.3980)  can1  18800401   [8]  12 AE 94 9F 94 5C 94 00
 (2.3980)  can1  18840401   [8]  12 C1 94 B3 94 71 94 00
 (2.3980)  can1  18C00401   [8]  12 94 2D 67 2D 68 2D 00
 (2.4020)  can1  4100209   [8]  C3 CF 12 00 00 00 00 00
 (2.4030)  can1  4100208   [8]  F8 94 12 00 00 00 00 00
 (2.4100)  can1  5807202   [8]  00 80 00 00 E0 01 05 43
 (2.4100)  can1  5817202   [8]  01 00 10 27 10 27 0C E3
 (2.4110)  can1  5907102   [8]  00 80 00 00 E0 01 05 43
 (2.4110)  can1  595FF71   [8]  00 80 60 09 60 09 F2 76
 (2.4120)  can1  5827202   [8]  FA 00 00 00 00 00 05 D4
 (2.4130)  can1  5917102   [8]  01 00 10 27 10 27 0C E3
 (2.4140)  can1  5927102   [8]  FA 00 00 00 00 00 05 D4
 (2.4140)  can1  5837202   [8]  2C 41 06 00 00 00 05 E0
 (2.4150)  can1  5937102   [8]  2C 41 06 00 00 00 05 E0
 (2.4160)  can1  4100209   [8]  C3 CF 12 00 00 00 00 00
 (2.4160)  can1  596FF71   [8]  FE 7F FF FF FF FF F2 4D
 (2.4170)  can1  5847270   [8]  00 00 00 00 00 00 05 9F
 (2.4170)  can1  5947102   [8]  00 00 00 00 00 00 05 9F
 (2.4170)  can1  4100208   [8]  F8 94 12 00 00 00 00 00
 (2.4180)  can1  8100302   [5]  00 00 0A 00 F8
 (2.4180)  can1  8580C02   [8]  00 00 00 00 00 00 00 00
 (2.4180)  can1  89A0C02   [8]  00 00 00 00 00 00 00 00
 (2.4190)  can1  8030C02   [8]  00 00 2A 68 2A 68 92 17
 (2.4190)  can1  585FF72   [8]  00 80 60 09 60 09 F3 76
 (2.4190)  can1  586FF72   [8]  FF 7F FF FF FF FF F3 19
 (2.4190)  can1  587FF72   [8]  03 08 97 10 FF FF F1 4F
 (2.4190)  can1  588FF72   [8]  10 01 5D FF FF FF F1 F7
 (2.4210)  can1  599FF71   [8]  1A D0 02 81 02 00 F1 87
 (2.4220)  can1  4100209   [8]  C3 CF 12 00 00 00 00 00
 (2.4230)  can1  4100208   [8]  F8 94 12 00 00 00 00 00
 (2.4300)  can1  89A0C02   [8]  00 00 00 00 00 00 00 00
 (2.4310)  can1  8030C02   [8]  00 00 2A 68 2A 68 92 17
 (2.4310)  can1  8580C02   [8]  FF FF 00 00 00 00 00 00
 (2.4320)  can1  595FF71   [8]  00 80 60 09 60 09 F3 76
 (2.4320)  can1  596FF71   [8]  FF 7F FF FF FF FF F3 19
 (2.4330)  can1  597FF71   [8]  FE 07 B4 10 FF FF F1 52
 (2.4330)  can1  598FF71   [8]  F0 00 7D FF FF FF F1 78
 (2.4330)  can1  4100209   [8]  C3 CF 12 00 00 00 00 00
 (2.4340)  can1  4100208   [8]  F8 94 12 00 00 00 00 00
 (2.4350)  can1  8100302   [5]  00 00 0A 00 F8
 (2.4350)  can1  585FF72   [8]  00 80 60 09 60 09 F4 76
 (2.4360)  can1  586FF72   [8]  01 80 FF FF FF FF F4 9F
 (2.4420)  can1  4100209   [8]  C3 CF 12 00 00 00 00 00
 (2.4430)  can1  4100208   [8]  F8 94 12 00 00 00 00 00
 (2.4450)  can1  18800401   [8]  13 53 94 66 94 57 94 00
 (2.4450)  can1  18840401   [8]  13 66 94 69 94 6C 94 00
 (2.4460)  can1  18C00401   [8]  13 7E 2D A2 2D BF 2D 00
 (2.4500)  can1  89A0C02   [8]  00 00 00 00 CC 0B 00 00
 (2.4500)  can1  8030C02   [8]  00 00 2A 68 2A 68 92 17
 (2.4510)  can1  8580C02   [8]  00 00 00 00 00 00 00 00
 (2.4510)  can1  595FF71   [8]  00 80 60 09 60 09 F4 76
 (2.4520)  can1  596FF71   [8]  02 80 FF FF FF FF F4 63
 (2.4520)  can1  4100209   [8]  C3 CF 12 00 00 00 00 00
 (2.4530)  can1  8010C01   [8]  6B 67 00 00 00 00 00 00
 (2.4540)  can1  8101201   [8]  EB 67 ED 94 86 92 4A 00
 (2.4540)  can1  4100208   [8]  F8 94 12 00 00 00 00 00
 (2.4550)  can1  585FF72   [8]  00 80 60 09 60 09 F5 76
 (2.4560)  can1  586FF72   [8]  FE 7F FF FF FF FF F5 4D
 (2.4600)  can1  8100302   [5]  00 00 0A 00 F8
 (2.4610)  can1  1948FF72   [8]  00 C0 00 55 FF FF 6A 7D
 (2.4610)  can1  1949FF72   [8]  0D 80 00 0C 80 00 6B 84
 (2.4620)  can1  194AFF72   [8]  1B 77 57 7A 75 57 6C 9B
 (2.4620)  can1  1948FF71   [8]  00 C0 00 55 FF FF 6A 7D
 (2.4630)  can1  1949FF71   [8]  0D 80 00 0D A0 00 6B A5
 (2.4630)  can1  194AFF71   [8]  09 67 58 86 65 58 6C 77
 (2.4640)  can1  194BFF71   [8]  86 F5 FF FF FF FF 6D E4
 (2.4640)  can1  194BFF72   [8]  7A F5 FF FF FF FF 6D D8
 (2.4640)  can1  4100209   [8]  C3 CF 12 00 00 00 00 00
 (2.4650)  can1  194CFF71   [8]  FF FF FF FF FF FF 6E 68
 (2.4650)  can1  194CFF72   [8]  FF FF FF FF FF FF 6E 68
 (2.4650)  can1  4100208   [8]  F8 94 12 00 00 00 00 00
 (2.4700)  can1  5807202   [8]  00 80 00 00 E0 01 06 43
 (2.4710)  can1  5817202   [8]  01 00 10 27 10 27 0D E3
 (2.4720)  can1  5907102   [8]  00 80 00 00 E0 01 06 43
 (2.4730)  can1  595FF71   [8]  00 80 60 09 60 09 F5 76
 (2.4730)  can1  5827202   [8]  FA 00 00 00 00 00 06 D4
 (2.4730)  can1  5917102   [8]  01 00 10 27 10 27 0D E3
 (2.4740)  can1  5927102   [8]  FA 00 00 00 00 00 06 D4
 (2.4750)  can1  5837202   [8]  2C 41 06 00 00 00 06 E0
 (2.4760)  can1  5937102   [8]  2C 41 06 00 00 00 06 E0
 (2.4760)  can1  4100209   [8]  C3 CF 12 00 00 00 00 00
 (2.4760)  can1  596FF71   [8]  00 80 FF FF FF FF F5 CB
 (2.4770)  can1  5847270   [8]  00 00 00 00 00 00 06 9F
 (2.4770)  can1  5947102   [8]  00 00 00 00 00 00 06 9F
 (2.4770)  can1  4100208   [8]  F8 94 12 00 00 00 00 00
 (2.4780)  can1  8030C02   [8]  00 00 2A 68 2A 68 92 17
 (2.4780)  can1  8580C02   [8]  01 00 FF FF 00 00 00 00
 (2.4780)  can1  89A0C02   [8]  99 17 00 00 00 00 00 00
 (2.4790)  can1  585FF72   [8]  00 80 60 09 60 09 F6 76
 (2.4790)  can1  586FF72   [8]  FF 7F FF FF FF FF F6 19
 (2.4820)  can1  4100209   [8]  C3 CF 12 00 00 00 00 00
 (2.4830)  can1  4100208   [8]  F8 94 12 00 00 00 00 00
 (2.4850)  can1  8100302   [5]  00 00 0A 00 F8
 (2.4900)  can1  89A0C02   [8]  00 00 00 00 00 00 00 00
 (2.4900)  can1  8030C02   [8]  00 00 2A 68 2A 68 92 17
 (2.4910)  can1  8580C02   [8]  00 00 00 00 00 00 00 00
 (2.4910)  can1  595FF71   [8]  00 80 60 09 60 09 F6 76
 (2.4920)  can1  596FF71   [8]  00 80 FF FF FF FF F6 CB
 (2.4920)  can1  4100209   [8]  C3 CF 12 00 00 00 00 00
 (2.4930)  can1  4100208   [8]  F8 94 12 00 00 00 00 00
 (2.4950)  can1  585FF72   [8]  00 80 60 09 60 09 F7 76
 (2.4960)  can1  586FF72   [8]  00 80 FF FF FF FF F7 CB
 (2.4960)  can1  589FF72   [8]  1A D0 02 81 02 00 F2 87
 (2.4970)  can1  8041001   [8]  C0 02 B0 58 E6 56 3B 00
 (2.4970)  can1  18800401   [8]  14 5F 94 8D 94 88 94 00
 (2.4980)  can1  18840401   [8]  14 71 94 9E 94 99 94 00
 (2.4980)  can1  18C00401   [8]  14 B3 2D D3 2D B0 2D 00
 (2.5020)  can1  4100209   [8]  C3 CF 12 00 00 00 00 00
 (2.5030)  can1  4100208   [8]  F8 94 12 00 00 00 00 00
 (2.5100)  can1  8100302   [5]  00 00 0A 00 F8
 (2.5110)  can1  8580C02   [8]  00 00 00 00 00 00 00 00
 (2.5120)  can1  89A0C02   [8]  00 00 00 00 00 00 00 00
 (2.5120)  can1  595FF71   [8]  00 80 60 09 60 09 F7 76
 (2.5130)  can1  596FF71   [8]  00 80 FF FF FF FF F7 CB
 (2.5130)  can1  8030C02   [8]  00 00 2A 68 2A 68 92 17
 (2.5140)  can1  4100209   [8]  C3 CF 12 00 00 00 00 00
 (2.5140)  can1  4100208   [8]  F8 94 12 00 00 00 00 00
 (2.5150)  can1  585FF72   [8]  00 80 60 09 60 09 F8 76
 (2.5160)  can1  586FF72   [8]  01 80 FF FF FF FF F8 9F
 (2.5160)  can1  587FF72   [8]  00 08 9A 10 FF FF F2 B7
 (2.5160)  can1  588FF72   [8]  10 01 5D FF FF FF F2 F7
 (2.5210)  can1  599FF71   [8]  1A D0 02 81 02 00 F2 87
 (2.5220)  can1  4100209   [8]  C3 CF 12 00 00 00 00 00
 (2.5230)  can1  4100208   [8]  F8 94 12 00 00 00 00 00
 (2.5300)  can1  5807202   [8]  00 80 00 00 E0 01 07 43
 (2.5310)  can1  5817202   [8]  01 00 10 27 10 27 0E E3
 (2.5320)  can1  5907102   [8]  00 80 00 00 E0 01 07 43
 (2.5330)  can1  5917102   [8]  01 00 10 27 10 27 0E E3
 (2.5330)  can1  5827202   [8]  FA 00 00 00 00 00 07 D4
 (2.5340)  can1  5927102   [8]  FA 00 00 00 00 00 07 D4
 (2.5340)  can1  5837202   [8]  2C 41 06 00 00 00 07 E0
 (2.5350)  can1  5847270   [8]  00 00 00 00 00 00 07 9F
 (2.5350)  can1  4100209   [8]  C3 CF 12 00 00 00 00 00
 (2.5360)  can1  5937102   [8]  2C 41 06 00 00 00 07 E0
 (2.5370)  can1  5947102   [8]  00 00 00 00 00 00 07 9F
 (2.5370)  can1  89A0C02   [8]  00 00 00 00 CC 0B 00 00
 (2.5380)  can1  4100208   [8]  F8 94 12 00 00 00 00 00
 (2.5380)  can1  8030C02   [8]  00 00 2A 68 2A 68 92 17
 (2.5380)  can1  8580C02   [8]  00 00 00 00 00 00 00 00
 (2.5380)  can1  8100302   [5]  00 00 0A 00 F8
 (2.5390)  can1  585FF72   [8]  00 80 60 09 60 09 F9 76
 (2.5390)  can1  586FF72   [8]  FE 7F FF FF FF FF F9 4D
 (2.5390)  can1  595FF71   [8]  00 80 60 09 60 09 F8 76
 (2.5400)  can1  596FF71   [8]  00 80 FF FF FF FF F8 CB
 (2.5400)  can1  597FF71   [8]  03 08 B6 10 FF FF F2 16
 (2.5400)  can1  598FF71   [8]  F0 00 7D FF FF FF F2 78
 (2.5420)  can1  4100209   [8]  C3 CF 12 00 00 00 00 00
 (2.5430)  can1  4100208   [8]  F8 94 12 00 00 00 00 00
 (2.5450)  can1  18800401   [8]  15 8A 94 80 94 73 94 00
 (2.5450)  can1  18840401   [8]  15 9E 94 93 94 88 94 00
 (2.5450)  can1  18C00401   [8]  15 DB 2D 87 2D B2 2D 00
 (2.5500)  can1  89A0C02   [8]  00 00 00 00 00 00 00 00
 (2.5510)  can1  8030C02   [8]  00 00 2A 68 2A 68 92 17
 (2.5510)  can1  8580C02   [8]  00 00 FF FF 00 00 00 00
 (2.5520)  can1  4100209   [8]  C3 CF 12 00 00 00 00 00
 (2.5530)  can1  4100208   [8]  F8 94 12 00 00 00 00 00
 (2.5540)  can1  8010C01   [8]  68 67 00 00 00 00 00 00
 (2.5550)  can1  8101201   [8]  EB 67 EE 94 86 92 43 00
 (2.5560)  can1  585FF72   [8]  00 80 60 09 60 09 FA 76
 (2.5560)  can1  586FF72   [8]  00 80 FF FF FF FF FA CB
 (2.5570)  can1  595FF71   [8]  00 80 60 09 60 09 F9 76
 (2.5570)  can1  596FF71   [8]  02 80 FF FF FF FF F9 63
 (2.5600)  can1  8100302   [5]  00 00 0A 00 F8
 (2.5620)  can1  4100209   [8]  C3 CF 12 00 00 00 00 00
 (2.5630)  can1  4100208   [8]  F8 94 12 00 00 00 00 00
 (2.5700)  can1  89A0C02   [8]  99 17 00 00 00 00 00 00
 (2.5710)  can1  8030C02   [8]  00 00 2A 68 2A 68 92 17
 (2.5710)  can1  8580C02   [8]  01 00 00 00 00 00 00 00
 (2.5720)  can1  4100209   [8]  C3 CF 12 00 00 00 00 00
 (2.5730)  can1  4100208   [8]  F8 94 12 00 00 00 00 00
 (2.5750)  can1  585FF72   [8]  00 80 60 09 60 09 FB 76
 (2.5760)  can1  586FF72   [8]  FE 7F FF FF FF FF FB 4D
 (2.5760)  can1  595FF71   [8]  00 80 60 09 60 09 FA 76
 (2.5760)  can1  596FF71   [8]  FD 7F FF FF FF FF FA B1
 (2.5820)  can1  4100209   [8]  C3 CF 12 00 00 00 00 00
 (2.5830)  can1  4100208   [8]  F8 94 12 00 00 00 00 00
 (2.5850)  can1  8100302   [5]  00 00 0A 00 F8
 (2.5900)  can1  5807202   [8]  00 80 00 00 E0 01 08 43
 (2.5910)  can1  5817202   [8]  01 00 10 27 10 27 0F E3
 (2.5910)  can1  5907102   [8]  00 80 00 00 E0 01 08 43
 (2.5920)  can1  5917102   [8]  01 00 10 27 10 27 0F E3
 (2.5930)  can1  5827202   [8]  FA 00 00 00 00 00 08 D4
 (2.5930)  can1  5927102   [8]  FA 00 00 00 00 00 08 D4
 (2.5940)  can1  5837202   [8]  2C 41 06 00 00 00 08 E0
 (2.5940)  can1  5847270   [8]  00 00 00 00 00 00 08 9F
 (2.5950)  can1  4100209   [8]  C3 CF 12 00 00 00 00 00
 (2.6070)  can1  5937102   [8]  2C 41 06 00 00 00 08 E0
 (2.6080)  can1  5947102   [8]  00 00 00 00 00 00 08 9F
 (2.6080)  can1  89A0C02   [8]  00 00 00 00 00 00 00 00
 (2.6090)  can1  4100208   [8]  F8 94 12 00 00 00 00 00
 (2.6090)  can1  8580C02   [8]  FE FF FF FF 00 00 00 00
 (2.6090)  can1  8030C02   [8]  00 00 2A 68 2A 68 92 17
 (2.6100)  can1  585FF72   [8]  00 80 60 09 60 09 FC 76
 (2.6100)  can1  586FF72   [8]  FD 7F FF FF FF FF FC B1
 (2.6110)  can1  589FF72   [8]  1A D0 02 81 02 00 F3 87
 (2.6110)  can1  595FF71   [8]  00 80 60 09 60 09 FB 76
 (2.6110)  can1  596FF71   [8]  00 80 FF FF FF FF FB CB
 (2.6120)  can1  8041001   [8]  C0 02 B0 58 E6 56 3B 00
 (2.6120)  can1  18800401   [8]  16 71 94 70 94 A1 94 00
 (2.6120)  can1  18840401   [8]  16 84 94 8A 94 B5 94 00
 (2.6130)  can1  18C00401   [8]  16 5C 2D 6D 2D 00 2D 00
 (2.6130)  can1  4100209   [8]  C3 CF 12 00 00 00 00 00
 (2.6140)  can1  4100208   [8]  F8 94 12 00 00 00 00 00
 (2.6140)  can1  8100302   [5]  00 00 0A 00 F8
 (2.6140)  can1  8580C02   [8]  00 00 FE FF 00 00 00 00
 (2.6150)  can1  89A0C02   [8]  00 00 00 00 00 00 00 00
 (2.6150)  can1  8030C02   [8]  00 00 2A 68 2A 68 92 17
 (2.6160)  can1  4100209   [8]  C3 CF 12 00 00 00 00 00
 (2.6170)  can1  4100208   [8]  F8 94 12 00 00 00 00 00
 (2.6170)  can1  585FF72   [8]  00 80 60 09 60 09 FD 76
 (2.6180)  can1  528FF72   [8]  FE FF 00 00 00 00 00 00
 (2.6180)  can1  529FF72   [8]  F7 FF 01 00 01 00 00 00
 (2.6190)  can1  52AFF72   [8]  0F 0F 0F 0F 0F 0F 11 00
 (2.6190)  can1  52BFF72   [8]  0D 10 0D 0F 00 FF 00 00
 (2.6190)  can1  52CFF72   [8]  00 00 EF FF EF FF 3A 00
 (2.6200)  can1  586FF72   [8]  02 80 FF FF FF FF FD 63
 (2.6200)  can1  587FF72   [8]  FE 07 97 10 FF FF F3 4E
 (2.6200)  can1  588FF72   [8]  10 01 5D FF FF FF F3 F7
 (2.6210)  can1  595FF71   [8]  00 80 60 09 60 09 FC 76
 (2.6210)  can1  596FF71   [8]  FE 7F FF FF FF FF FC 4D
 (2.6220)  can1  599FF71   [8]  1A D0 02 81 02 00 F3 87
 (2.6230)  can1  528FF71   [8]  01 00 F8 FF 00 00 00 00
 (2.6230)  can1  529FF71   [8]  08 00 FE FF 01 00 00 00
 (2.6230)  can1  52AFF71   [8]  0F 0F 0F 0F 0F 0F 0F 00
 (2.6240)  can1  52BFF71   [8]  0C 0E 0C 0F 00 FF 00 00
 (2.6240)  can1  52CFF71   [8]  00 00 EF FF EF FF 3A 00
 (2.6250)  can1  4100209   [8]  C3 CF 12 00 00 00 00 00
 (2.6250)  can1  4100208   [8]  F8 94 12 00 00 00 00 00
 (2.6300)  can1  89A0C02   [8]  00 00 00 00 99 17 00 00
 (2.6310)  can1  8030C02   [8]  00 00 2A 68 2A 68 92 17
 (2.6310)  can1  8580C02   [8]  FF FF 01 00 00 00 00 00
 (2.6320)  can1  4100209   [8]  C3 CF 12 00 00 00 00 00
 (2.6330)  can1  4100208   [8]  F8 94 12 00 00 00 00 00
 (2.6350)  can1  8100302   [5]  00 00 0A 00 F8
 (2.6350)  can1  585FF72   [8]  00 80 60 09 60 09 FE 76
 (2.6360)  can1  586FF72   [8]  04 80 FF FF FF FF FE B4
 (2.6370)  can1  595FF71   [8]  00 80 60 09 60 09 FD 76
 (2.6370)  can1  596FF71   [8]  FE 7F FF FF FF FF FD 4D
 (2.6380)  can1  597FF71   [8]  01 08 B1 10 FF FF F3 C4
 (2.6380)  can1  598FF71   [8]  F0 00 7D FF FF FF F3 78
 (2.6420)  can1  4100209   [8]  C3 CF 12 00 00 00 00 00
 (2.6430)  can1  4100208   [8]  F8 94 12 00 00 00 00 00
 (2.6440)  can1  18101203   [4]  5E 2D FD 06
 (2.6450)  can1  18800401   [8]  17 98 94 00 00 00 00 00
 (2.6450)  can1  18840401   [8]  17 AB 94 00 00 00 00 00
 (2.6460)  can1  18C00401   [8]  17 F2 2C 10 27 10 27 00
 (2.6500)  can1  5807202   [8]  00 80 00 00 E0 01 09 43
 (2.6510)  can1  5817202   [8]  01 00 10 27 10 27 00 E3
 (2.6510)  can1  5907102   [8]  00 80 00 00 E0 01 09 43
 (2.6520)  can1  5917102   [8]  01 00 10 27 10 27 00 E3
 (2.6520)  can1  5827202   [8]  FA 00 00 00 00 00 09 D4
 (2.6530)  can1  5927102   [8]  FA 00 00 00 00 00 09 D4
 (2.6540)  can1  5837202   [8]  2C 41 06 00 00 00 09 E0
 (2.6550)  can1  5847270   [8]  00 00 00 00 00 00 09 9F
 (2.6550)  can1  4100209   [8]  C3 CF 12 00 00 00 00 00
 (2.6560)  can1  5937102   [8]  2C 41 06 00 00 00 09 E0
 (2.6560)  can1  5947102   [8]  00 00 00 00 00 00 09 9F
 (2.6570)  can1  89A0C02   [8]  00 00 00 00 33 2F 00 00
 (2.6570)  can1  4100208   [8]  F8 94 12 00 00 00 00 00
 (2.6570)  can1  8580C02   [8]  FF FF 02 00 00 00 00 00
 (2.6570)  can1  8030C02   [8]  00 00 2A 68 2A 68 92 17
 (2.6580)  can1  8101201   [8]  EA 67 EE 94 87 92 52 00
 (2.6580)  can1  8010C01   [8]  67 67 00 00 00 00 00 00
 (2.6590)  can1  586FF72   [8]  FD 7F FF FF FF FF FF B1
 (2.6590)  can1  595FF71   [8]  00 80 60 09 60 09 FE 76
 (2.6590)  can1  596FF71   [8]  FE 7F FF FF FF FF FE 4D
 (2.6600)  can1  8100302   [5]  00 00 0A 00 F8
 (2.6610)  can1  585FF72   [8]  00 80 60 09 60 09 FF 76
 (2.6620)  can1  4100209   [8]  C3 CF 12 00 00 00 00 00
 (2.6630)  can1  4100208   [8]  F8 94 12 00 00 00 00 00
 (2.6700)  can1  89A0C02   [8]  00 00 00 00 00 00 00 00
 (2.6700)  can1  8030C02   [8]  00 00 2A 68 2A 68 92 17
 (2.6710)  can1  8580C02   [8]  FF FF FE FF 00 00 00 00
 (2.6720)  can1  4100209   [8]  C3 CF 12 00 00 00 00 00
 (2.6730)  can1  4100208   [8]  F8 94 12 00 00 00 00 00
 (2.6750)  can1  586FF72   [8]  FF 7F FF FF FF FF F0 19
 (2.6800)  can1  585FF72   [8]  00 80 60 09 60 09 F0 76
 (2.6810)  can1  595FF71   [8]  00 80 60 09 60 09 FF 76
 (2.6810)  can1  596FF71   [8]  FF 7F FF FF FF FF FF 19
 (2.6820)  can1  4100209   [8]  C3 CF 12 00 00 00 00 00
 (2.6830)  can1  4100208   [8]  F8 94 12 00 00 00 00 00
 (2.6850)  can1  8100302   [5]  00 00 0A 00 F8
 (2.6900)  can1  89A0C02   [8]  00 00 00 00 00 00 00 00
 (2.6910)  can1  8030C02   [8]  00 00 2A 68 2A 68 92 17
 (2.6910)  can1  8580C02   [8]  00 00 00 00 00 00 00 00
 (2.6920)  can1  4100209   [8]  C3 CF 12 00 00 00 00 00
 (2.6930)  can1  4100208   [8]  F8 94 12 00 00 00 00 00
 (2.6950)  can1  586FF72   [8]  01 80 FF FF FF FF F1 9F
 (2.6960)  can1  589FF72   [8]  1A D0 02 81 02 00 F4 87
 (2.6960)  can1  8041001   [8]  C0 02 B0 58 E6 56 3B 00
 (2.6970)  can1  18800401   [8]  00 EF 94 15 94 F6 93 00
 (2.6970)  can1  18840401   [8]  00 04 95 2A 94 1D 94 00
 (2.6980)  can1  18C00401   [8]  00 96 2D 77 2D CD 2D 00
 (2.7000)  can1  585FF72   [8]  00 80 60 09 60 09 F1 76
 (2.7010)  can1  595FF71   [8]  00 80 60 09 60 09 F0 76
 (2.7020)  can1  596FF71   [8]  01 80 FF FF FF FF F0 9F
 (2.7020)  can1  4100209   [8]  C3 CF 12 00 00 00 00 00
 (2.7030)  can1  4100208   [8]  F8 94 12 00 00 00 00 00
 (2.7100)  can1  5807202   [8]  00 80 00 00 E0 01 0A 43
 (2.7110)  can1  5817202   [8]  01 00 10 27 10 27 01 E3
 (2.7120)  can1  5907102   [8]  00 80 00 00 E0 01 0A 43
 (2.7120)  can1  5917102   [8]  01 00 10 27 10 27 01 E3
 (2.7120)  can1  5827202   [8]  FA 00 00 00 00 00 0A D4
 (2.7120)  can1  5927102   [8]  FA 00 00 00 00 00 0A D4
 (2.7130)  can1  5837202   [8]  2C 41 06 00 00 00 0A E0
 (2.7140)  can1  5847270   [8]  00 00 00 00 00 00 0A 9F
 (2.7150)  can1  4100209   [8]  C3 CF 12 00 00 00 00 00
 (2.7150)  can1  5937102   [8]  2C 41 06 00 00 00 0A E0
 (2.7160)  can1  5947102   [8]  00 00 00 00 00 00 0A 9F
 (2.7160)  can1  8100302   [5]  00 00 0A 00 F8
 (2.7170)  can1  4100208   [8]  F8 94 12 00 00 00 00 00
 (2.7170)  can1  89A0C02   [8]  CC 0B 00 00 CC 0B 00 00
 (2.7180)  can1  8030C02   [8]  00 00 2A 68 2A 68 92 17
 (2.7190)  can1  8580C02   [8]  00 00 00 00 00 00 00 00
 (2.7190)  can1  1948FF72   [8]  00 C0 00 55 FF FF 6F 82
 (2.7190)  can1  1949FF72   [8]  0D 80 00 0D A0 00 70 AA
 (2.7200)  can1  194AFF72   [8]  1B A7 57 77 75 57 71 CD
 (2.7200)  can1  1948FF71   [8]  00 C0 00 55 FF FF 6F 82
 (2.7200)  can1  1949FF71   [8]  0D 80 00 0D B0 00 70 BA
 (2.7210)  can1  194AFF71   [8]  09 67 58 86 65 58 71 7C
 (2.7210)  can1  194BFF71   [8]  8E F5 FF FF FF FF 72 F1
 (2.7220)  can1  194BFF72   [8]  77 F5 FF FF FF FF 72 DA
 (2.7220)  can1  194CFF71   [8]  FF FF FF FF FF FF 73 6D
 (2.7230)  can1  194CFF72   [8]  FF FF FF FF FF FF 73 6D
 (2.7230)  can1  585FF72   [8]  00 80 60 09 60 09 F2 76
 (2.7240)  can1  586FF72   [8]  00 80 FF FF FF FF F2 CB
 (2.7240)  can1  587FF72   [8]  01 08 97 10 FF FF F4 E7
 (2.7240)  can1  588FF72   [8]  10 01 5D FF FF FF F4 F7
 (2.7250)  can1  595FF71   [8]  00 80 60 09 60 09 F1 76
 (2.7250)  can1  596FF71   [8]  FF 7F FF FF FF FF F1 19
 (2.7250)  can1  599FF71   [8]  1A D0 02 81 02 00 F4 87
 (2.7250)  can1  4100209   [8]  C3 CF 12 00 00 00 00 00
 (2.7260)  can1  4100208   [8]  F8 94 12 00 00 00 00 00
 (2.7300)  can1  89A0C02   [8]  00 00 00 00 00 00 00 00
 (2.7310)  can1  8030C02   [8]  00 00 2A 68 2A 68 92 17
 (2.7310)  can1  8580C02   [8]  00 00 00 00 00 00 00 00
 (2.7320)  can1  4100209   [8]  C3 CF 12 00 00 00 00 00
 (2.7330)  can1  4100208   [8]  F8 94 12 00 00 00 00 00
 (2.7350)  can1  8100302   [5]  00 00 0A 00 F8
 (2.7400)  can1  585FF72   [8]  00 80 60 09 60 09 F3 76
 (2.7410)  can1  586FF72   [8]  FF 7F FF FF FF FF F3 19
 (2.7410)  can1  595FF71   [8]  00 80 60 09 60 09 F2 76
 (2.7420)  can1  596FF71   [8]  00 80 FF FF FF FF F2 CB
 (2.7420)  can1  597FF71   [8]  04 08 B1 10 FF FF F4 EF
 (2.7430)  can1  598FF71   [8]  F0 00 7D FF FF FF F4 78
 (2.7430)  can1  4100209   [8]  C3 CF 12 00 00 00 00 00
 (2.7430)  can1  4100208   [8]  F8 94 12 00 00 00 00 00
 (2.7450)  can1  18800401   [8]  01 0D 94 19 94 1C 94 00
 (2.7450)  can1  18840401   [8]  01 21 94 2D 94 2D 94 00
 (2.7450)  can1  18C00401   [8]  01 A4 2D F2 2D B6 2D 00
 (2.7500)  can1  89A0C02   [8]  00 00 00 00 00 00 00 00
 (2.7510)  can1  8030C02   [8]  00 00 2A 68 2A 68 92 17
 (2.7520)  can1  8580C02   [8]  00 00 00 00 00 00 00 00
 (2.7520)  can1  4100209   [8]  C3 CF 12 00 00 00 00 00
 (2.7530)  can1  4100208   [8]  F8 94 12 00 00 00 00 00
 (2.7560)  can1  8101201   [8]  EC 67 EF 94 89 92 48 00
 (2.7560)  can1  8010C01   [8]  69 67 00 00 00 00 00 00
 (2.7600)  can1  8100302   [5]  00 00 0A 00 F8
 (2.7600)  can1  585FF72   [8]  00 80 60 09 60 09 F4 76
 (2.7610)  can1  586FF72   [8]  FD 7F FF FF FF FF F4 B1
 (2.7620)  can1  595FF71   [8]  00 80 60 09 60 09 F3 76
 (2.7620)  can1  596FF71   [8]  FF 7F FF FF FF FF F3 19
 (2.7620)  can1  4100209   [8]  C3 CF 12 00 00 00 00 00
 (2.7630)  can1  4100208   [8]  F8 94 12 00 00 00 00 00
 (2.7700)  can1  5807202   [8]  00 80 00 00 E0 01 0B 43
 (2.7710)  can1  5817202   [8]  01 00 10 27 10 27 02 E3
 (2.7720)  can1  5907102   [8]  00 80 00 00 E0 01 0B 43
 (2.7730)  can1  5917102   [8]  01 00 10 27 10 27 02 E3
 (2.7730)  can1  5827202   [8]  FA 00 00 00 00 00 0B D4
 (2.7740)  can1  5927102   [8]  FA 00 00 00 00 00 0B D4
 (2.7740)  can1  5837202   [8]  2C 41 06 00 00 00 0B E0
 (2.7750)  can1  5847270   [8]  00 00 00 00 00 00 0B 9F
 (2.7750)  can1  4100209   [8]  C3 CF 12 00 00 00 00 00
 (2.7750)  can1  5937102   [8]  2C 41 06 00 00 00 0B E0
 (2.7760)  can1  5947102   [8]  00 00 00 00 00 00 0B 9F
 (2.7760)  can1  89A0C02   [8]  00 00 00 00 00 00 00 00
 (2.7760)  can1  4100208   [8]  F8 94 12 00 00 00 00 00
 (2.7760)  can1  8030C02   [8]  00 00 2A 68 2A 68 92 17
 (2.7770)  can1  8580C02   [8]  00 00 FE FF 00 00 00 00
 (2.7800)  can1  585FF72   [8]  00 80 60 09 60 09 F5 76
 (2.7810)  can1  586FF72   [8]  FF 7F FF FF FF FF F5 19
 (2.7810)  can1  595FF71   [8]  00 80 60 09 60 09 F4 76
 (2.7820)  can1  596FF71   [8]  01 80 FF FF FF FF F4 9F
 (2.7820)  can1  4100209   [8]  C3 CF 12 00 00 00 00 00
 (2.7840)  can1  4100208   [8]  F8 94 12 00 00 00 00 00
 (2.7850)  can1  8100302   [5]  00 00 0A 00 F8
 (2.7900)  can1  89A0C02   [8]  CC 0B 00 00 00 00 00 00
 (2.7910)  can1  8030C02   [8]  00 00 2A 68 2A 68 92 17
 (2.7910)  can1  8580C02   [8]  00 00 00 00 00 00 00 00
 (2.7920)  can1  4100209   [8]  C3 CF 12 00 00 00 00 00
 (2.7930)  can1  4100208   [8]  F8 94 12 00 00 00 00 00
 (2.7960)  can1  8041001   [8]  C0 02 B0 58 E6 56 3B 00
 (2.7970)  can1  18800401   [8]  02 3B 94 93 94 7F 94 00
 (2.7970)  can1  18840401   [8]  02 51 94 A7 94 94 94 00
 (2.7980)  can1  18C00401   [8]  02 D4 2D B3 2D B4 2D 00
 (2.8000)  can1  589FF72   [8]  1A D0 02 81 02 00 F5 87
 (2.8010)  can1  595FF71   [8]  00 80 60 09 60 09 F5 76
 (2.8010)  can1  596FF71   [8]  FE 7F FF FF FF FF F5 4D
 (2.8020)  can1  4100209   [8]  C3 CF 12 00 00 00 00 00
 (2.8030)  can1  4100208   [8]  F8 94 12 00 00 00 00 00
 (2.8050)  can1  585FF72   [8]  00 80 60 09 60 09 F6 76
 (2.8050)  can1  586FF72   [8]  01 80 FF FF FF FF F6 9F
 (2.8100)  can1  8100302   [5]  00 00 0A 00 F8
 (2.8100)  can1  8580C02   [8]  FF FF 00 00 00 00 00 00
 (2.8110)  can1  89A0C02   [8]  00 00 00 00 CC 0B 00 00
 (2.8110)  can1  8030C02   [8]  00 00 2A 68 2A 68 92 17
 (2.8120)  can1  4100209   [8]  C3 CF 12 00 00 00 00 00
 (2.8130)  can1  4100208   [8]  F8 94 12 00 00 00 00 00
 (2.8200)  can1  595FF71   [8]  00 80 60 09 60 09 F6 76
 (2.8210)  can1  596FF71   [8]  01 80 FF FF FF FF F6 9F
 (2.8220)  can1  599FF71   [8]  1A D0 02 81 02 00 F5 87
 (2.8220)  can1  4100209   [8]  C3 CF 12 00 00 00 00 00
 (2.8230)  can1  4100208   [8]  F8 94 12 00 00 00 00 00
 (2.8250)  can1  585FF72   [8]  00 80 60 09 60 09 F7 76
 (2.8250)  can1  586FF72   [8]  01 80 FF FF FF FF F7 9F
 (2.8260)  can1  587FF72   [8]  01 08 97 10 FF FF F5 E7
 (2.8260)  can1  588FF72   [8]  10 01 5D FF FF FF F5 F7
 (2.8300)  can1  5807202   [8]  00 80 00 00 E0 01 0C 43
 (2.8300)  can1  5817202   [8]  01 00 10 27 10 27 03 E3
 (2.8310)  can1  5907102   [8]  00 80 00 00 E0 01 0C 43
 (2.8320)  can1  5917102   [8]  01 00 10 27 10 27 03 E3
 (2.8330)  can1  5827202   [8]  FA 00 00 00 00 00 0C D4
 (2.8330)  can1  5927102   [8]  FA 00 00 00 00 00 0C D4
 (2.8340)  can1  5837202   [8]  2C 41 06 00 00 00 0C E0
 (2.8340)  can1  5847270   [8]  00 00 00 00 00 00 0C 9F
 (2.8350)  can1  4100209   [8]  C3 CF 12 00 00 00 00 00
 (2.8350)  can1  5937102   [8]  2C 41 06 00 00 00 0C E0
 (2.8360)  can1  5947102   [8]  00 00 00 00 00 00 0C 9F
 (2.8360)  can1  89A0C02   [8]  CC 0B 00 00 CC 0B 00 00
 (2.8360)  can1  4100208   [8]  F8 94 12 00 00 00 00 00
 (2.8370)  can1  8580C02   [8]  00 00 00 00 00 00 00 00
 (2.8370)  can1  8030C02   [8]  00 00 2A 68 2A 68 92 17
 (2.8380)  can1  8100302   [5]  00 00 0A 00 F8
 (2.8400)  can1  595FF71   [8]  00 80 60 09 60 09 F7 76
 (2.8410)  can1  596FF71   [8]  FF 7F FF FF FF FF F7 19
 (2.8420)  can1  597FF71   [8]  01 08 B1 10 FF FF F5 C4
 (2.8430)  can1  598FF71   [8]  F0 00 7D FF FF FF F5 78
 (2.8430)  can1  4100209   [8]  C3 CF 12 00 00 00 00 00
 (2.8440)  can1  4100208   [8]  F8 94 12 00 00 00 00 00
 (2.8450)  can1  18800401   [8]  03 7A 94 6F 94 82 94 00
 (2.8450)  can1  585FF72   [8]  00 80 60 09 60 09 F8 76
 (2.8460)  can1  586FF72   [8]  02 80 FF FF FF FF F8 63
 (2.8460)  can1  18840401   [8]  03 8E 94 83 94 96 94 00
 (2.8470)  can1  18C00401   [8]  03 9B 2D 76 2D 57 2D 00
 (2.8500)  can1  89A0C02   [8]  00 00 00 00 99 17 00 00
 (2.8500)  can1  8030C02   [8]  00 00 2A 68 2A 68 92 17
 (2.8510)  can1  8580C02   [8]  00 00 01 00 00 00 00 00
 (2.8520)  can1  4100209   [8]  C3 CF 12 00 00 00 00 00
 (2.8530)  can1  4100208   [8]  F8 94 12 00 00 00 00 00
 (2.8570)  can1  8101201   [8]  E9 67 EE 94 89 92 43 00
 (2.8580)  can1  8010C01   [8]  68 67 00 00 00 00 00 00
 (2.8600)  can1  8100302   [5]  00 00 0A 00 F8
 (2.8600)  can1  595FF71   [8]  00 80 60 09 60 09 F8 76
 (2.8610)  can1  596FF71   [8]  01 80 FF FF FF FF F8 9F
 (2.8620)  can1  4100209   [8]  C3 CF 12 00 00 00 00 00
 (2.8630)  can1  4100208   [8]  F8 94 12 00 00 00 00 00
 (2.8650)  can1  585FF72   [8]  00 80 60 09 60 09 F9 76
 (2.8650)  can1  586FF72   [8]  01 80 FF FF FF FF F9 9F
 (2.8700)  can1  89A0C02   [8]  CC 0B 00 00 CC 0B 00 00
 (2.8700)  can1  8030C02   [8]  00 00 2A 68 2A 68 92 17
 (2.8710)  can1  8580C02   [8]  00 00 00 00 00 00 00 00
 (2.8730)  can1  4100209   [8]  C3 CF 12 00 00 00 00 00
 (2.8730)  can1  4100208   [8]  F8 94 12 00 00 00 00 00
 (2.8800)  can1  595FF71   [8]  00 80 60 09 60 09 F9 76
 (2.8810)  can1  596FF71   [8]  00 80 FF FF FF FF F9 CB
 (2.8820)  can1  4100209   [8]  C3 CF 12 00 00 00 00 00
 (2.8830)  can1  4100208   [8]  F8 94 12 00 00 00 00 00
 (2.8850)  can1  585FF72   [8]  00 80 60 09 60 09 FA 76
 (2.8850)  can1  586FF72   [8]  00 80 FF FF FF FF FA CB
 (2.8860)  can1  8100302   [5]  00 00 0A 00 F8
 (2.8900)  can1  5807202   [8]  00 80 00 00 E0 01 0D 43
 (2.8910)  can1  5817202   [8]  01 00 10 27 10 27 04 E3
 (2.8910)  can1  5907102   [8]  00 80 00 00 E0 01 0D 43
 (2.8920)  can1  5917102   [8]  01 00 10 27 10 27 04 E3
 (2.8920)  can1  5827202   [8]  FA 00 00 00 00 00 0D D4
 (2.8930)  can1  5927102   [8]  FA 00 00 00 00 00 0D D4
 (2.8940)  can1  5837202   [8]  2C 41 06 00 00 00 0D E0
 (2.8940)  can1  5847270   [8]  00 00 00 00 00 00 0D 9F
 (2.8950)  can1  4100209   [8]  C3 CF 12 00 00 00 00 00
 (2.8950)  can1  5937102   [8]  2C 41 06 00 00 00 0D E0
 (2.8950)  can1  5947102   [8]  00 00 00 00 00 00 0D 9F
 (2.8960)  can1  89A0C02   [8]  00 00 00 00 00 00 00 00
 (2.8960)  can1  4100208   [8]  F8 94 12 00 00 00 00 00
 (2.8960)  can1  8580C02   [8]  00 00 00 00 00 00 00 00
 (2.8970)  can1  8030C02   [8]  00 00 2A 68 2A 68 92 17
 (2.8970)  can1  8041001   [8]  C0 02 B0 58 E6 56 3B 00
 (2.8980)  can1  18800401   [8]  04 9C 94 86 94 74 92 00
 (2.8980)  can1  18840401   [8]  04 B0 94 9B 94 88 92 00
 (2.8980)  can1  18C00401   [8]  04 03 2D 02 2D FE 2D 00
 (2.9000)  can1  589FF72   [8]  1A D0 02 81 02 00 F6 87
 (2.9010)  can1  595FF71   [8]  00 80 60 09 60 09 FA 76
 (2.9020)  can1  596FF71   [8]  01 80 FF FF FF FF FA 9F
 (2.9020)  can1  4100209   [8]  C3 CF 12 00 00 00 00 00
 (2.9030)  can1  4100208   [8]  F8 94 12 00 00 00 00 00
 (2.9050)  can1  585FF72   [8]  00 80 60 09 60 09 FB 76
 (2.9050)  can1  586FF72   [8]  FE 7F FF FF FF FF FB 4D
 (2.9100)  can1  8100302   [5]  00 00 0A 00 F8
 (2.9110)  can1  8580C02   [8]  00 00 FF FF 00 00 00 00
 (2.9110)  can1  89A0C02   [8]  CC 0B 00 00 00 00 00 00
 (2.9120)  can1  8030C02   [8]  00 00 2A 68 2A 68 92 17
 (2.9120)  can1  4100209   [8]  C3 CF 12 00 00 00 00 00
 (2.9140)  can1  4100208   [8]  F8 94 12 00 00 00 00 00
 (2.9200)  can1  595FF71   [8]  00 80 60 09 60 09 FB 76
 (2.9210)  can1  596FF71   [8]  03 80 FF FF FF FF FB 37
 (2.9210)  can1  599FF71   [8]  1A D0 02 81 02 00 F6 87
 (2.9220)  can1  4100209   [8]  C3 CF 12 00 00 00 00 00
 (2.9240)  can1  4100208   [8]  F8 94 12 00 00 00 00 00
 (2.9250)  can1  585FF72   [8]  00 80 60 09 60 09 FC 76
 (2.9250)  can1  586FF72   [8]  FE 7F FF FF FF FF FC 4D
 (2.9260)  can1  587FF72   [8]  03 08 9A 10 FF FF F6 4B
 (2.9270)  can1  588FF72   [8]  10 01 5D FF FF FF F6 F7
 (2.9300)  can1  89A0C02   [8]  66 23 00 00 00 00 00 00
 (2.9300)  can1  8030C02   [8]  00 00 2A 68 2A 68 92 17
 (2.9310)  can1  8580C02   [8]  02 00 FF FF 00 00 00 00
 (2.9320)  can1  4100209   [8]  C3 CF 12 00 00 00 00 00
 (2.9330)  can1  4100208   [8]  F8 94 12 00 00 00 00 00
 (2.9350)  can1  8100302   [5]  00 00 0A 00 F8
 (2.9400)  can1  595FF71   [8]  00 80 60 09 60 09 FC 76
 (2.9410)  can1  596FF71   [8]  FC 7F FF FF FF FF FC E5
 (2.9420)  can1  597FF71   [8]  FB 07 B4 10 FF FF F6 79
 (2.9430)  can1  598FF71   [8]  F0 00 7D FF FF FF F6 78
 (2.9430)  can1  4100209   [8]  C3 CF 12 00 00 00 00 00
 (2.9440)  can1  4100208   [8]  F8 94 12 00 00 00 00 00
 (2.9450)  can1  18800401   [8]  05 69 94 82 94 63 94 00
 (2.9450)  can1  585FF72   [8]  00 80 60 09 60 09 FD 76
 (2.9450)  can1  586FF72   [8]  FF 7F FF FF FF FF FD 19
 (2.9460)  can1  18840401   [8]  05 7E 94 7C 94 79 94 00
 (2.9460)  can1  18C00401   [8]  05 E8 2D 2D 2E 30 2E 00
 (2.9500)  can1  5807202   [8]  00 80 00 00 E0 01 0E 43
 (2.9510)  can1  5817202   [8]  01 00 10 27 10 27 05 E3
 (2.9510)  can1  5907102   [8]  00 80 00 00 E0 01 0E 43
 (2.9520)  can1  5917102   [8]  01 00 10 27 10 27 05 E3
 (2.9530)  can1  5827202   [8]  FA 00 00 00 00 00 0E D4
 (2.9540)  can1  5927102   [8]  FA 00 00 00 00 00 0E D4
 (2.9540)  can1  5837202   [8]  2C 41 06 00 00 00 0E E0
 (2.9550)  can1  5847270   [8]  00 00 00 00 00 00 0E 9F
 (2.9550)  can1  4100209   [8]  C3 CF 12 00 00 00 00 00
 (2.9550)  can1  5937102   [8]  2C 41 06 00 00 00 0E E0
 (2.9550)  can1  5947102   [8]  00 00 00 00 00 00 0E 9F
 (2.9560)  can1  89A0C02   [8]  00 00 00 00 00 00 00 00
 (2.9560)  can1  4100208   [8]  F8 94 12 00 00 00 00 00
 (2.9560)  can1  8580C02   [8]  FE FF 00 00 00 00 00 00
 (2.9570)  can1  8030C02   [8]  00 00 2A 68 2A 68 92 17
 (2.9580)  can1  8101201   [8]  EA 67 F0 94 88 92 40 00
 (2.9580)  can1  8010C01   [8]  68 67 00 00 00 00 00 00
 (2.9600)  can1  8100302   [5]  00 00 0A 00 F8
 (2.9600)  can1  595FF71   [8]  00 80 60 09 60 09 FD 76
 (2.9610)  can1  596FF71   [8]  02 80 FF FF FF FF FD 63
 (2.9630)  can1  4100209   [8]  C3 CF 12 00 00 00 00 00
 (2.9630)  can1  4100208   [8]  F8 94 12 00 00 00 00 00
 (2.9650)  can1  585FF72   [8]  00 80 60 09 60 09 FE 76
 (2.9650)  can1  586FF72   [8]  01 80 FF FF FF FF FE 9F
 (2.9700)  can1  89A0C02   [8]  99 17 00 00 CC 0B 00 00
 (2.9700)  can1  8030C02   [8]  00 00 2A 68 2A 68 92 17
 (2.9710)  can1  8580C02   [8]  01 00 00 00 00 00 00 00
 (2.9720)  can1  1948FF71   [8]  00 C0 00 55 FF FF 74 87
 (2.9720)  can1  1948FF72   [8]  00 C0 00 55 FF FF 74 87
 (2.9730)  can1  1949FF71   [8]  0D 80 00 0D A0 00 75 AF
 (2.9740)  can1  1949FF72   [8]  0D 80 00 0D 90 00 75 9F
 (2.9740)  can1  194AFF71   [8]  09 67 58 86 65 58 76 81
 (2.9750)  can1  194AFF72   [8]  1B 77 57 77 A5 57 76 D2
 (2.9750)  can1  4100209   [8]  C3 CF 12 00 00 00 00 00
 (2.9750)  can1  194BFF71   [8]  88 F5 FF FF FF FF 77 F0
 (2.9760)  can1  194BFF72   [8]  77 F5 FF FF FF FF 77 DF
 (2.9760)  can1  194CFF71   [8]  FF FF FF FF FF FF 78 72
 (2.9760)  can1  4100208   [8]  F8 94 12 00 00 00 00 00
 (2.9770)  can1  194CFF72   [8]  FF FF FF FF FF FF 78 72
 (2.9810)  can1  595FF71   [8]  00 80 60 09 60 09 FE 76
 (2.9810)  can1  596FF71   [8]  FF 7F FF FF FF FF FE 19
 (2.9820)  can1  4100209   [8]  C3 CF 12 00 00 00 00 00
 (2.9840)  can1  4100208   [8]  F8 94 12 00 00 00 00 00
 (2.9850)  can1  585FF72   [8]  00 80 60 09 60 09 FF 76
 (2.9850)  can1  586FF72   [8]  01 80 FF FF FF FF FF 9F
 (2.9860)  can1  8100302   [5]  00 00 0A 00 F8
 (2.9900)  can1  89A0C02   [8]  00 00 00 00 CC 0B 00 00
 (2.9910)  can1  8030C02   [8]  00 00 2A 68 2A 68 92 17
 (2.9910)  can1  8580C02   [8]  00 00 00 00 00 00 00 00
 (2.9920)  can1  4100209   [8]  C3 CF 12 00 00 00 00 00
 (2.9930)  can1  4100208   [8]  F8 94 12 00 00 00 00 00
 (2.9960)  can1  8041001   [8]  C0 02 B0 58 E6 56 3B 00
 (2.9970)  can1  18800401   [8]  06 66 94 A2 94 AC 94 00
 (2.9970)  can1  18840401   [8]  06 7A 94 B6 94 BF 94 00
 (2.9970)  can1  18C00401   [8]  06 34 2E 72 2E 47 2E 00
 (3.0000)  can1  589FF72   [8]  1A D0 02 81 02 00 F7 87
 (3.0010)  can1  595FF71   [8]  00 80 60 09 60 09 FF 76
 (3.0020)  can1  596FF71   [8]  01 80 FF FF FF FF FF 9F
 (3.0020)  can1  4100209   [8]  C3 CF 12 00 00 00 00 00
 (3.0030)  can1  4100208   [8]  F8 94 12 00 00 00 00 00
 (3.0050)  can1  585FF72   [8]  00 80 60 09 60 09 F0 76
 (3.0060)  can1  586FF72   [8]  00 80 FF FF FF FF F0 CB
 (3.0100)  can1  5807202   [8]  00 80 00 00 E0 01 0F 43
 (3.0100)  can1  5817202   [8]  01 00 10 27 10 27 06 E3
 (3.0110)  can1  5907102   [8]  00 80 00 00 E0 01 0F 43
 (3.0110)  can1  5917102   [8]  01 00 10 27 10 27 06 E3
 (3.0110)  can1  5827202   [8]  FA 00 00 00 00 00 0F D4
 (3.0120)  can1  5927102   [8]  FA 00 00 00 00 00 0F D4
 (3.0120)  can1  5837202   [8]  2C 41 06 00 00 00 0F E0
 (3.0120)  can1  5847270   [8]  00 00 00 00 00 00 0F 9F
 (3.0130)  can1  4100209   [8]  C3 CF 12 00 00 00 00 00
 (3.0130)  can1  5937102   [8]  2C 41 06 00 00 00 0F E0
 (3.0140)  can1  5947102   [8]  00 00 00 00 00 00 0F 9F
 (3.0140)  can1  8100302   [5]  00 00 0A 00 F8
 (3.0150)  can1  4100208   [8]  F8 94 12 00 00 00 00 00
 (3.0150)  can1  89A0C02   [8]  CC 0B 00 00 00 00 00 00
 (3.0150)  can1  8030C02   [8]  00 00 2A 68 2A 68 92 17
 (3.0150)  can1  8580C02   [8]  00 00 00 00 00 00 00 00
 (3.0200)  can1  595FF71   [8]  00 80 60 09 60 09 F0 76
 (3.0210)  can1  596FF71   [8]  01 80 FF FF FF FF F0 9F
 (3.0210)  can1  599FF71   [8]  1A D0 02 81 02 00 F7 87
 (3.0220)  can1  4100209   [8]  C3 CF 12 00 00 00 00 00
 (3.0230)  can1  4100208   [8]  F8 94 12 00 00 00 00 00
 (3.0250)  can1  585FF72   [8]  00 80 60 09 60 09 F1 76
 (3.0250)  can1  586FF72   [8]  00 80 FF FF FF FF F1 CB
 (3.0260)  can1  587FF72   [8]  FE 07 9A 10 FF FF F7 4A
 (3.0260)  can1  588FF72   [8]  10 01 5D FF FF FF F7 F7
 (3.0300)  can1  89A0C02   [8]  CC 0B 00 00 00 00 00 00
 (3.0300)  can1  8030C02   [8]  00 00 2A 68 2A 68 92 17
 (3.0310)  can1  8580C02   [8]  00 00 00 00 00 00 00 00
 (3.0320)  can1  4100209   [8]  C3 CF 12 00 00 00 00 00
 (3.0330)  can1  4100208   [8]  F8 94 12 00 00 00 00 00
 (3.0350)  can1  8100302   [5]  00 00 0A 00 F8
 (3.0400)  can1  595FF71   [8]  00 80 60 09 60 09 F1 76
 (3.0410)  can1  596FF71   [8]  00 80 FF FF FF FF F1 CB
 (3.0420)  can1  597FF71   [8]  02 08 B4 10 FF FF F7 07
 (3.0420)  can1  598FF71   [8]  F0 00 7D FF FF FF F7 78
 (3.0420)  can1  4100209   [8]  C3 CF 12 00 00 00 00 00
 (3.0440)  can1  4100208   [8]  F8 94 12 00 00 00 00 00
 (3.0440)  can1  404FF03   [1]  00
 (3.0450)  can1  18800401   [8]  07 99 94 8F 94 7D 94 00
 (3.0450)  can1  585FF72   [8]  00 80 60 09 60 09 F2 76
 (3.0460)  can1  586FF72   [8]  FF 7F FF FF FF FF F2 19
 (3.0470)  can1  18840401   [8]  07 AD 94 A3 94 91 94 00
 (3.0480)  can1  18C00401   [8]  07 76 2E 1E 2E 5E 2E 00
 (3.0480)  can1  8250C03   [8]  55 00 4D 01 00 00 2C 00
 (3.0480)  can1  8840C03   [8]  31 00 15 00 20 00 06 00
 (3.0480)  can1  88D0C03   [8]  2B 00 00 00 6B 00 71 00
 (3.0500)  can1  89A0C02   [8]  00 00 00 00 00 00 00 00
 (3.0500)  can1  8030C02   [8]  00 00 2A 68 2A 68 92 17
 (3.0510)  can1  8580C02   [8]  00 00 00 00 00 00 00 00
 (3.0520)  can1  4100209   [8]  C3 CF 12 00 00 00 00 00
 (3.0530)  can1  4100208   [8]  F8 94 12 00 00 00 00 00
 (3.0590)  can1  8101201   [8]  EA 67 F1 94 89 92 41 00
 (3.0590)  can1  8010C01   [8]  6A 67 00 00 00 00 00 00
 (3.0600)  can1  8100302   [5]  00 00 0A 00 F8
 (3.0610)  can1  595FF71   [8]  00 80 60 09 60 09 F2 76
 (3.0610)  can1  596FF71   [8]  FD 7F FF FF FF FF F2 B1
 (3.0620)  can1  4100209   [8]  C3 CF 12 00 00 00 00 00
 (3.0640)  can1  4100208   [8]  F8 94 12 00 00 00 00 00
 (3.0650)  can1  585FF72   [8]  00 80 60 09 60 09 F3 76
 (3.0650)  can1  586FF72   [8]  FE 7F FF FF FF FF F3 4D
 (3.0700)  can1  5807202   [8]  00 80 00 00 E0 01 00 43
 (3.0700)  can1  5817202   [8]  01 00 10 27 10 27 07 E3
 (3.0710)  can1  5907102   [8]  00 80 00 00 E0 01 00 43
 (3.0710)  can1  5917102   [8]  01 00 10 27 10 27 07 E3
 (3.0710)  can1  5827202   [8]  FA 00 00 00 00 00 00 D4
 (3.0720)  can1  5927102   [8]  FA 00 00 00 00 00 00 D4
 (3.0720)  can1  5837202   [8]  2C 41 06 00 00 00 00 E0
 (3.0720)  can1  5847270   [8]  00 00 00 00 00 00 00 9F
 (3.0730)  can1  4100209   [8]  C3 CF 12 00 00 00 00 00
 (3.0740)  can1  5937102   [8]  2C 41 06 00 00 00 00 E0
 (3.0740)  can1  5947102   [8]  00 00 00 00 00 00 00 9F
 (3.0740)  can1  89A0C02   [8]  00 00 00 00 00 00 00 00
 (3.0750)  can1  4100208   [8]  F8 94 12 00 00 00 00 00
 (3.0750)  can1  8030C02   [8]  00 00 2A 68 2A 68 92 17
 (3.0750)  can1  8580C02   [8]  FE FF FF FF 00 00 00 00
 (3.0760)  can1  404FF07   [1]  00
 (3.0810)  can1  595FF71   [8]  00 80 60 09 60 09 F3 76
 (3.0810)  can1  596FF71   [8]  FF 7F FF FF FF FF F3 19
 (3.0820)  can1  4100209   [8]  C3 CF 12 00 00 00 00 00
 (3.0840)  can1  4100208   [8]  F8 94 12 00 00 00 00 00
 (3.0850)  can1  585FF72   [8]  00 80 60 09 60 09 F4 76
 (3.0850)  can1  586FF72   [8]  00 80 FF FF FF FF F4 CB
 (3.0860)  can1  8100302   [5]  00 00 0A 00 F8
 (3.0900)  can1  89A0C02   [8]  00 00 00 00 00 00 00 00
 (3.0910)  can1  8030C02   [8]  00 00 2A 68 2A 68 92 17
 (3.0910)  can1  8580C02   [8]  00 00 00 00 00 00 00 00
 (3.0920)  can1  4100209   [8]  C3 CF 12 00 00 00 00 00
 (3.0930)  can1  404FF01   [1]  00
 (3.0940)  can1  4100208   [8]  F8 94 12 00 00 00 00 00
 (3.0960)  can1  8041001   [8]  C0 02 B0 58 E6 56 3B 00
 (3.0960)  can1  80F1201   [4]  DC 0F 00 00
 (3.0970)  can1  8120C01   [8]  90 00 00 00 00 00 00 00
 (3.0970)  can1  18800401   [8]  08 72 94 99 92 BC 94 00
 (3.0970)  can1  18840401   [8]  08 89 94 B1 92 D2 94 00
 (3.0980)  can1  18C00401   [8]  08 EA 2D 15 2E 96 2D 00
 (3.1000)  can1  595FF71   [8]  00 80 60 09 60 09 F4 76
 (3.1010)  can1  596FF71   [8]  00 80 FF FF FF FF F4 CB
 (3.1020)  can1  4100209   [8]  C3 CF 12 00 00 00 00 00
 (3.1040)  can1  4100208   [8]  F8 94 12 00 00 00 00 00
 (3.1050)  can1  585FF72   [8]  00 80 60 09 60 09 F5 76
 (3.1050)  can1  586FF72   [8]  01 80 FF FF FF FF F5 9F
 (3.1060)  can1  589FF72   [8]  1A D0 02 81 02 00 F8 87
 (3.1100)  can1  404FF02   [1]  00
 (3.1100)  can1  8100302   [5]  00 00 0A 00 F8
 (3.1100)  can1  8580C02   [8]  00 00 00 00 00 00 00 00
 (3.1110)  can1  89A0C02   [8]  00 00 00 00 CC 0B 00 00
 (3.1110)  can1  8030C02   [8]  00 00 2A 68 2A 68 92 17
 (3.1120)  can1  4100209   [8]  C3 CF 12 00 00 00 00 00
 (3.1130)  can1  4100208   [8]  F8 94 12 00 00 00 00 00
 (3.1150)  can1  528FF72   [8]  00 00 FC FF 00 00 00 00
 (3.1150)  can1  529FF72   [8]  F7 FF 01 00 01 00 00 00
 (3.1160)  can1  52CFF72   [8]  00 00 EF FF EF FF 3A 00
 (3.1210)  can1  595FF71   [8]  00 80 60 09 60 09 F5 76
 (3.1210)  can1  528FF71   [8]  04 00 00 00 00 00 00 00
 (3.1210)  can1  529FF71   [8]  07 00 FD FF 01 00 00 00
 (3.1220)  can1  52CFF71   [8]  00 00 EF FF EF FF 3A 00
 (3.1220)  can1  596FF71   [8]  01 80 FF FF FF FF F5 9F
 (3.1220)  can1  599FF71   [8]  1A D0 02 81 02 00 F8 87
 (3.1230)  can1  4100209   [8]  C3 CF 12 00 00 00 00 00
 (3.1240)  can1  4100208   [8]  F8 94 12 00 00 00 00 00
 (3.1250)  can1  585FF72   [8]  00 80 60 09 60 09 F6 76
 (3.1250)  can1  586FF72   [8]  00 80 FF FF FF FF F6 CB
 (3.1250)  can1  587FF72   [8]  FE 07 97 10 FF FF F8 4E
 (3.1260)  can1  588FF72   [8]  10 01 5D FF FF FF F8 F7
 (3.1300)  can1  5807202   [8]  00 80 00 00 E0 01 01 43
 (3.1300)  can1  5817202   [8]  01 00 10 27 10 27 08 E3
 (3.1310)  can1  5907102   [8]  00 80 00 00 E0 01 01 43
 (3.1310)  can1  5917102   [8]  01 00 10 27 10 27 08 E3
 (3.1320)  can1  5827202   [8]  FA 00 00 00 00 00 01 D4
 (3.1320)  can1  5927102   [8]  FA 00 00 00 00 00 01 D4
 (3.1330)  can1  5837202   [8]  2C 41 06 00 00 00 01 E0
 (3.1330)  can1  5847270   [8]  00 00 00 00 00 00 01 9F
 (3.1330)  can1  4100209   [8]  C3 CF 12 00 00 00 00 00
 (3.1340)  can1  5937102   [8]  2C 41 06 00 00 00 01 E0
 (3.1340)  can1  5947102   [8]  00 00 00 00 00 00 01 9F
 (3.1340)  can1  89A0C02   [8]  CC 0B 00 00 00 00 00 00
 (3.1340)  can1  4100208   [8]  F8 94 12 00 00 00 00 00
 (3.1350)  can1  8580C02   [8]  00 00 00 00 00 00 00 00
 (3.1350)  can1  8030C02   [8]  00 00 2A 68 2A 68 92 17
 (3.1360)  can1  8100302   [5]  00 00 0A 00 F8
 (3.1410)  can1  595FF71   [8]  00 80 60 09 60 09 F6 76
 (3.1410)  can1  596FF71   [8]  FE 7F FF FF FF FF F6 4D
 (3.1410)  can1  597FF71   [8]  04 08 B4 10 FF FF F8 D0
 (3.1420)  can1  598FF71   [8]  F0 00 7D FF FF FF F8 78
 (3.1420)  can1  4100209   [8]  C3 CF 12 00 00 00 00 00
 (3.1440)  can1  4100208   [8]  F8 94 12 00 00 00 00 00
 (3.1440)  can1  18101203   [4]  12 2D 39 08
 (3.1450)  can1  18800401   [8]  09 A6 94 73 94 61 94 00
 (3.1450)  can1  585FF72   [8]  00 80 60 09 60 09 F7 76
 (3.1460)  can1  586FF72   [8]  00 80 FF FF FF FF F7 CB
 (3.1460)  can1  18840401   [8]  09 BC 94 88 94 77 94 00
 (3.1470)  can1  18C00401   [8]  09 99 2D 10 2E 1B 2E 00
 (3.1500)  can1  89A0C02   [8]  00 00 00 00 00 00 00 00
 (3.1510)  can1  8030C02   [8]  00 00 2A 68 2A 68 92 17
 (3.1510)  can1  8580C02   [8]  FF FF 00 00 00 00 00 00
 (3.1520)  can1  4100209   [8]  C3 CF 12 00 00 00 00 00
 (3.1530)  can1  4100208   [8]  F8 94 12 00 00 00 00 00
 (3.1600)  can1  8101201   [8]  E8 67 F0 94 8A 92 42 00
 (3.1600)  can1  8010C01   [8]  67 67 00 00 00 00 00 00
 (3.1600)  can1  8100302   [5]  00 00 0A 00 F8
 (3.1610)  can1  595FF71   [8]  00 80 60 09 60 09 F7 76
 (3.1610)  can1  596FF71   [8]  00 80 FF FF FF FF F7 CB
 (3.1620)  can1  4100209   [8]  C3 CF 12 00 00 00 00 00
 (3.1630)  can1  4100208   [8]  F8 94 12 00 00 00 00 00
 (3.1650)  can1  585FF72   [8]  00 80 60 09 60 09 F8 76
 (3.1650)  can1  586FF72   [8]  02 80 FF FF FF FF F8 63
 (3.1700)  can1  89A0C02   [8]  00 00 00 00 99 17 00 00
 (3.1700)  can1  8030C02   [8]  00 00 2A 68 2A 68 92 17
 (3.1710)  can1  8580C02   [8]  00 00 01 00 00 00 00 00
 (3.1720)  can1  4100209   [8]  C3 CF 12 00 00 00 00 00
 (3.1730)  can1  4100208   [8]  F8 94 12 00 00 00 00 00
 (3.1810)  can1  595FF71   [8]  00 80 60 09 60 09 F8 76
 (3.1810)  can1  596FF71   [8]  00 80 FF FF FF FF F8 CB
 (3.1820)  can1  4100209   [8]  C3 CF 12 00 00 00 00 00
 (3.1840)  can1  4100208   [8]  F8 94 12 00 00 00 00 00
 (3.1850)  can1  585FF72   [8]  00 80 60 09 60 09 F9 76
 (3.1850)  can1  586FF72   [8]  00 80 FF FF FF FF F9 CB
 (3.1850)  can1  8100302   [5]  00 00 0A 00 F8
 (3.1900)  can1  5807202   [8]  00 80 00 00 E0 01 02 43
 (3.1900)  can1  5817202   [8]  01 00 10 27 10 27 09 E3
 (3.1910)  can1  5907102   [8]  00 80 00 00 E0 01 02 43
 (3.1920)  can1  5917102   [8]  01 00 10 27 10 27 09 E3
 (3.1920)  can1  5827202   [8]  FA 00 00 00 00 00 02 D4
 (3.1930)  can1  5927102   [8]  FA 00 00 00 00 00 02 D4
 (3.1940)  can1  5837202   [8]  2C 41 06 00 00 00 02 E0
 (3.1940)  can1  5847270   [8]  00 00 00 00 00 00 02 9F
 (3.2030)  can1  4100209   [8]  C3 CF 12 00 00 00 00 00
 (3.2040)  can1  5937102   [8]  2C 41 06 00 00 00 02 E0
 (3.2040)  can1  5947102   [8]  00 00 00 00 00 00 02 9F
 (3.2040)  can1  89A0C02   [8]  00 00 00 00 00 00 00 00
 (3.2050)  can1  4100208   [8]  F8 94 12 00 00 00 00 00
 (3.2050)  can1  8030C02   [8]  00 00 2A 68 2A 68 92 17
 (3.2060)  can1  8580C02   [8]  00 00 00 00 00 00 00 00
 (3.2060)  can1  8041001   [8]  C0 02 B0 58 E6 56 3B 00
 (3.2060)  can1  18800401   [8]  0A 60 94 5A 94 67 94 00
 (3.2070)  can1  18840401   [8]  0A 6F 94 6D 94 79 94 00
 (3.2070)  can1  18C00401   [8]  0A 4D 2E 77 2E 5C 2E 00
 (3.2070)  can1  595FF71   [8]  00 80 60 09 60 09 F9 76
 (3.2080)  can1  596FF71   [8]  FE 7F FF FF FF FF F9 4D
 (3.2080)  can1  4100209   [8]  C3 CF 12 00 00 00 00 00
 (3.2080)  can1  4100208   [8]  F8 94 12 00 00 00 00 00
 (3.2080)  can1  585FF72   [8]  00 80 60 09 60 09 FA 76
 (3.2090)  can1  586FF72   [8]  00 80 FF FF FF FF FA CB
 (3.2090)  can1  589FF72   [8]  1A D0 02 81 02 00 F9 87
 (3.2100)  can1  8100302   [5]  00 00 0A 00 F8
 (3.2100)  can1  8580C02   [8]  FF FF 00 00 00 00 00 00
 (3.2110)  can1  89A0C02   [8]  00 00 00 00 00 00 00 00
 (3.2110)  can1  8030C02   [8]  00 00 2A 68 2A 68 92 17
 (3.2120)  can1  4100209   [8]  C3 CF 12 00 00 00 00 00
 (3.2140)  can1  4100208   [8]  F8 94 12 00 00 00 00 00
 (3.2210)  can1  595FF71   [8]  00 80 60 09 60 09 FA 76
 (3.2220)  can1  596FF71   [8]  FE 7F FF FF FF FF FA 4D
 (3.2220)  can1  599FF71   [8]  1A D0 02 81 02 00 F9 87
 (3.2230)  can1  1948FF71   [8]  00 C0 00 55 FF FF 79 8C
 (3.2230)  can1  1949FF71   [8]  0D 80 00 0D A0 00 7A B4
