 (1.3880)  can1  4100208   [8]  33 8B 15 00 00 00 00 00
 (1.3940)  can1  8100302   [5]  00 00 0A 00 09
 (1.3950)  can1  4100209   [8]  93 12 16 00 00 00 00 00
 (1.3950)  can1  4100208   [8]  33 8B 15 00 00 00 00 00
 (1.3950)  can1  89A0C02   [8]  CC 0B 00 00 CC 0B 00 00
 (1.3960)  can1  4100208   [8]  33 8B 15 00 00 00 00 00
 (1.3960)  can1  8100302   [5]  00 00 0A 00 09
 (1.3970)  can1  4100209   [8]  93 12 16 00 00 00 00 00
 (1.4000)  can1  4100208   [8]  33 8B 15 00 00 00 00 00
 (1.4010)  can1  89A0C02   [8]  CC 0B 00 00 CC 0B 00 00
 (1.4020)  can1  8030C02   [8]  00 00 2A 68 2A 68 92 17
 (1.4020)  can1  8580C02   [8]  00 00 00 00 00 00 00 00
 (1.4070)  can1  4100209   [8]  93 12 16 00 00 00 00 00
 (1.4100)  can1  4100208   [8]  33 8B 15 00 00 00 00 00
 (1.4120)  can1  8041001   [8]  34 02 F0 3B FD A6 2B 00
 (1.4130)  can1  18800401   [8]  06 C5 8F 01 90 0C 90 00
 (1.4140)  can1  18840401   [8]  06 C5 8F 00 90 0C 90 00
 (1.4140)  can1  18C00401   [8]  06 61 30 AE 30 6E 30 00
 (1.4170)  can1  4100209   [8]  93 12 16 00 00 00 00 00
 (1.4200)  can1  4100208   [8]  33 8B 15 00 00 00 00 00
 (1.4210)  can1  8100302   [5]  00 00 0A 00 09
 (1.4220)  can1  8580C02   [8]  00 00 00 00 00 00 00 00
 (1.4220)  can1  89A0C02   [8]  CC 0B 00 00 CC 0B 00 00
 (1.4230)  can1  8030C02   [8]  00 00 2A 68 2A 68 92 17
 (1.4270)  can1  4100209   [8]  93 12 16 00 00 00 00 00
 (1.4300)  can1  4100208   [8]  33 8B 15 00 00 00 00 00
 (1.4370)  can1  4100209   [8]  93 12 16 00 00 00 00 00
 (1.4400)  can1  4100208   [8]  33 8B 15 00 00 00 00 00
 (1.4410)  can1  89A0C02   [8]  CC 0B 00 00 CC 0B 00 00
 (1.4420)  can1  8030C02   [8]  00 00 2A 68 2A 68 92 17
 (1.4420)  can1  8580C02   [8]  00 00 00 00 00 00 00 00
 (1.4460)  can1  8100302   [5]  00 01 0A 00 09
 (1.4470)  can1  4100209   [8]  93 12 16 00 00 00 00 00
 (1.4500)  can1  4100208   [8]  33 8B 15 00 00 00 00 00
 (1.4570)  can1  4100209   [8]  93 12 16 00 00 00 00 00
 (1.4600)  can1  4100208   [8]  33 8B 15 00 00 00 00 00
 (1.4610)  can1  18800401   [8]  07 05 90 F6 8F D8 8F 00
 (1.4610)  can1  18840401   [8]  07 04 90 F6 8F D7 8F 00
 (1.4610)  can1  18C00401   [8]  07 B9 30 47 30 AC 30 00
 (1.4620)  can1  8030C02   [8]  00 00 2A 68 2A 68 92 17
 (1.4620)  can1  8580C02   [8]  00 00 00 00 00 00 00 00
 (1.4620)  can1  89A0C02   [8]  CC 0B 00 00 CC 0B 00 00
 (1.4670)  can1  4100209   [8]  93 12 16 00 00 00 00 00
 (1.4700)  can1  4100208   [8]  33 8B 15 00 00 00 00 00
 (1.4710)  can1  8100302   [5]  00 00 0A 00 09
 (1.4770)  can1  4100209   [8]  93 12 16 00 00 00 00 00
 (1.4790)  can1  8101201   [8]  00 00 60 90 F5 8C 00 00
 (1.4800)  can1  8010C01   [8]  00 00 00 00 00 00 00 00
 (1.4800)  can1  4100208   [8]  33 8B 15 00 00 00 00 00
 (1.4810)  can1  89A0C02   [8]  CC 0B 00 00 CC 0B 00 00
 (1.4820)  can1  8030C02   [8]  00 00 2A 68 2A 68 92 17
 (1.4820)  can1  8580C02   [8]  00 00 00 00 00 00 00 00
 (1.4870)  can1  4100209   [8]  93 12 16 00 00 00 00 00
 (1.4900)  can1  4100208   [8]  33 8B 15 00 00 00 00 00
 (1.4960)  can1  8100302   [5]  00 00 0A 00 09
 (1.4970)  can1  4100209   [8]  93 12 16 00 00 00 00 00
 (1.5000)  can1  4100208   [8]  33 8B 15 00 00 00 00 00
 (1.5010)  can1  89A0C02   [8]  CC 0B 00 00 CC 0B 00 00
 (1.5020)  can1  8030C02   [8]  00 00 2A 68 2A 68 92 17
 (1.5020)  can1  8580C02   [8]  00 00 00 00 00 00 00 00
 (1.5070)  can1  4100209   [8]  93 12 16 00 00 00 00 00
 (1.5100)  can1  4100208   [8]  33 8B 15 00 00 00 00 00
 (1.5120)  can1  8041001   [8]  34 02 F0 3B FD A6 2B 00
 (1.5130)  can1  18800401   [8]  08 CF 8F 28 8D 25 90 00
 (1.5130)  can1  18840401   [8]  08 CF 8F 27 8D 25 90 00
 (1.5140)  can1  18C00401   [8]  08 16 30 96 30 B5 2F 00
 (1.5170)  can1  4100209   [8]  93 12 16 00 00 00 00 00
 (1.5200)  can1  4100208   [8]  33 8B 15 00 00 00 00 00
 (1.5210)  can1  8100302   [5]  00 00 0A 00 09
 (1.5210)  can1  8580C02   [8]  00 00 00 00 00 00 00 00
 (1.5220)  can1  89A0C02   [8]  CC 0B 00 00 CC 0B 00 00
 (1.5220)  can1  8030C02   [8]  00 00 2A 68 2A 68 92 17
 (1.5270)  can1  4100209   [8]  93 12 16 00 00 00 00 00
 (1.5300)  can1  4100208   [8]  33 8B 15 00 00 00 00 00
 (1.5370)  can1  4100209   [8]  93 12 16 00 00 00 00 00
 (1.5400)  can1  4100208   [8]  33 8B 15 00 00 00 00 00
 (1.5410)  can1  89A0C02   [8]  CC 0B 00 00 CC 0B 00 00
 (1.5420)  can1  8030C02   [8]  00 00 2A 68 2A 68 92 17
 (1.5420)  can1  8580C02   [8]  00 00 00 00 00 00 00 00
 (1.5460)  can1  8100302   [5]  00 00 0A 00 09
 (1.5470)  can1  4100209   [8]  93 12 16 00 00 00 00 00
 (1.5500)  can1  4100208   [8]  33 8B 15 00 00 00 00 00
 (1.5570)  can1  4100209   [8]  93 12 16 00 00 00 00 00
 (1.5600)  can1  4100208   [8]  33 8B 15 00 00 00 00 00
 (1.5610)  can1  18800401   [8]  09 1B 90 D5 8F C5 8F 00
 (1.5610)  can1  18840401   [8]  09 1A 90 D5 8F C4 8F 00
 (1.5620)  can1  18C00401   [8]  09 13 30 C5 2F 27 30 00
 (1.5630)  can1  8030C02   [8]  00 00 2A 68 2A 68 92 17
 (1.5630)  can1  8580C02   [8]  00 00 00 00 00 00 00 00
 (1.5630)  can1  89A0C02   [8]  CC 0B 00 00 CC 0B 00 00
 (1.5670)  can1  4100209   [8]  93 12 16 00 00 00 00 00
 (1.5700)  can1  4100208   [8]  33 8B 15 00 00 00 00 00
 (1.5710)  can1  8100302   [5]  00 00 0A 00 09
 (1.5770)  can1  4100209   [8]  93 12 16 00 00 00 00 00
 (1.5800)  can1  8101201   [8]  00 00 60 90 F4 8C 01 00
 (1.5800)  can1  8010C01   [8]  00 00 00 00 00 00 00 00
 (1.5800)  can1  4100208   [8]  33 8B 15 00 00 00 00 00
 (1.5810)  can1  89A0C02   [8]  CC 0B 00 00 CC 0B 00 00
 (1.5820)  can1  8030C02   [8]  00 00 2A 68 2A 68 92 17
 (1.5830)  can1  8580C02   [8]  00 00 00 00 00 00 00 00
 (1.5870)  can1  4100209   [8]  93 12 16 00 00 00 00 00
 (1.5900)  can1  4100208   [8]  33 8B 15 00 00 00 00 00
 (1.5960)  can1  8100302   [5]  00 00 0A 00 09
 (1.5970)  can1  4100209   [8]  93 12 16 00 00 00 00 00
 (1.6000)  can1  4100208   [8]  33 8B 15 00 00 00 00 00
 (1.6010)  can1  89A0C02   [8]  CC 0B 00 00 CC 0B 00 00
 (1.6020)  can1  8030C02   [8]  00 00 2A 68 2A 68 92 17
 (1.6020)  can1  8580C02   [8]  00 00 00 00 00 00 00 00
 (1.6070)  can1  4100209   [8]  93 12 16 00 00 00 00 00
 (1.6100)  can1  4100208   [8]  33 8B 15 00 00 00 00 00
 (1.6120)  can1  8041001   [8]  34 02 F0 3B FD A6 2B 00
 (1.6120)  can1  18800401   [8]  0A A9 8F BA 8F C5 8F 00
 (1.6130)  can1  18840401   [8]  0A A8 8F BA 8F C6 8F 00
 (1.6130)  can1  18C00401   [8]  0A 66 30 A7 30 81 30 00
 (1.6170)  can1  4100209   [8]  93 12 16 00 00 00 00 00
 (1.6200)  can1  4100208   [8]  33 8B 15 00 00 00 00 00
 (1.6210)  can1  8100302   [5]  00 00 0A 00 09
 (1.6220)  can1  8580C02   [8]  00 00 00 00 00 00 00 00
 (1.6220)  can1  89A0C02   [8]  CC 0B 00 00 CC 0B 00 00
 (1.6230)  can1  8030C02   [8]  00 00 2A 68 2A 68 92 17
 (1.6270)  can1  4100209   [8]  93 12 16 00 00 00 00 00
 (1.6300)  can1  4100208   [8]  33 8B 15 00 00 00 00 00
 (1.6370)  can1  4100209   [8]  93 12 16 00 00 00 00 00
 (1.6400)  can1  4100208   [8]  33 8B 15 00 00 00 00 00
 (1.6410)  can1  89A0C02   [8]  CC 0B 00 00 CC 0B 00 00
 (1.6420)  can1  8030C02   [8]  00 00 2A 68 2A 68 92 17
 (1.6420)  can1  8580C02   [8]  00 00 00 00 00 00 00 00
 (1.6460)  can1  8100302   [5]  00 00 0A 00 09
 (1.6470)  can1  4100209   [8]  93 12 16 00 00 00 00 00
 (1.6500)  can1  4100208   [8]  33 8B 15 00 00 00 00 00
 (1.6570)  can1  4100209   [8]  93 12 16 00 00 00 00 00
 (1.6600)  can1  4100208   [8]  33 8B 15 00 00 00 00 00
 (1.6610)  can1  18800401   [8]  0B F5 8F F4 8F FB 8F 00
 (1.6610)  can1  18840401   [8]  0B F5 8F F3 8F FB 8F 00
 (1.6620)  can1  18C00401   [8]  0B DE 30 8B 30 CC 30 00
 (1.6620)  can1  8030C02   [8]  00 00 2A 68 2A 68 92 17
 (1.6620)  can1  8580C02   [8]  00 00 00 00 00 00 00 00
 (1.6630)  can1  89A0C02   [8]  CC 0B 00 00 CC 0B 00 00
 (1.6660)  can1  404FF03   [1]  00
 (1.6670)  can1  4100209   [8]  93 12 16 00 00 00 00 00
 (1.6680)  can1  8250C03   [8]  00 00 00 00 00 00 00 00
 (1.6690)  can1  8840C03   [8]  30 00 13 00 23 00 07 00
 (1.6690)  can1  88D0C03   [8]  11 00 00 00 00 00 00 00
 (1.6700)  can1  4100208   [8]  33 8B 15 00 00 00 00 00
 (1.6710)  can1  8100302   [5]  00 01 0A 00 09
 (1.6770)  can1  4100209   [8]  93 12 16 00 00 00 00 00
 (1.6800)  can1  4100208   [8]  33 8B 15 00 00 00 00 00
 (1.6810)  can1  89A0C02   [8]  CC 0B 00 00 CC 0B 00 00
 (1.6820)  can1  8030C02   [8]  00 00 2A 68 2A 68 92 17
 (1.6820)  can1  8580C02   [8]  00 00 00 00 00 00 00 00
 (1.6830)  can1  8101201   [8]  00 00 61 90 F5 8C 04 00
 (1.6830)  can1  8010C01   [8]  00 00 00 00 00 00 00 00
 (1.6870)  can1  4100209   [8]  93 12 16 00 00 00 00 00
 (1.6900)  can1  4100208   [8]  33 8B 15 00 00 00 00 00
 (1.6960)  can1  8100302   [5]  00 00 0A 00 09
 (1.6970)  can1  4100209   [8]  93 12 16 00 00 00 00 00
 (1.7000)  can1  4100208   [8]  33 8B 15 00 00 00 00 00
 (1.7010)  can1  89A0C02   [8]  CC 0B 00 00 CC 0B 00 00
 (1.7020)  can1  8030C02   [8]  00 00 2A 68 2A 68 92 17
 (1.7020)  can1  8580C02   [8]  00 00 00 00 00 00 00 00
 (1.7070)  can1  4100209   [8]  93 12 16 00 00 00 00 00
 (1.7080)  can1  404FF01   [1]  00
 (1.7100)  can1  4100208   [8]  33 8B 15 00 00 00 00 00
 (1.7120)  can1  8041001   [8]  34 02 F0 3B FD A6 2B 00
 (1.7130)  can1  80F1201   [4]  52 12 00 00
 (1.7130)  can1  8120C01   [8]  3C 00 00 00 00 00 00 00
 (1.7130)  can1  18800401   [8]  0C F4 8F D8 8F D6 8F 00
 (1.7140)  can1  18840401   [8]  0C F3 8F D8 8F D5 8F 00
 (1.7150)  can1  18C00401   [8]  0C 64 30 85 30 1C 30 00
 (1.7180)  can1  4100209   [8]  93 12 16 00 00 00 00 00
 (1.7200)  can1  4100208   [8]  33 8B 15 00 00 00 00 00
 (1.7210)  can1  404FF02   [1]  00
 (1.7220)  can1  8100302   [5]  00 00 0A 00 09
 (1.7220)  can1  8580C02   [8]  00 00 00 00 00 00 00 00
 (1.7230)  can1  89A0C02   [8]  CC 0B 00 00 CC 0B 00 00
 (1.7230)  can1  8030C02   [8]  00 00 2A 68 2A 68 92 17
 (1.7270)  can1  4100209   [8]  93 12 16 00 00 00 00 00
 (1.7300)  can1  4100208   [8]  33 8B 15 00 00 00 00 00
 (1.7370)  can1  4100209   [8]  93 12 16 00 00 00 00 00
 (1.7380)  can1  404FF07   [1]  00
 (1.7400)  can1  4100208   [8]  33 8B 15 00 00 00 00 00
 (1.7410)  can1  89A0C02   [8]  CC 0B 00 00 CC 0B 00 00
 (1.7420)  can1  8030C02   [8]  00 00 2A 68 2A 68 92 17
 (1.7420)  can1  8580C02   [8]  00 00 00 00 00 00 00 00
 (1.7460)  can1  8100302   [5]  00 00 0A 00 09
 (1.7470)  can1  4100209   [8]  93 12 16 00 00 00 00 00
 (1.7500)  can1  4100208   [8]  33 8B 15 00 00 00 00 00
 (1.7570)  can1  4100209   [8]  93 12 16 00 00 00 00 00
 (1.7600)  can1  4100208   [8]  33 8B 15 00 00 00 00 00
 (1.7610)  can1  18800401   [8]  0D DF 8F 09 90 F8 8F 00
 (1.7620)  can1  18840401   [8]  0D DF 8F 09 90 F8 8F 00
 (1.7620)  can1  18C00401   [8]  0D 34 30 56 2F 52 2F 00
 (1.7620)  can1  8030C02   [8]  00 00 2A 68 2A 68 92 17
 (1.7620)  can1  8580C02   [8]  00 00 00 00 00 00 00 00
 (1.7630)  can1  89A0C02   [8]  CC 0B 00 00 CC 0B 00 00
 (1.7660)  can1  18101203   [4]  A9 2C 86 01
 (1.7670)  can1  4100209   [8]  93 12 16 00 00 00 00 00
 (1.7700)  can1  4100208   [8]  33 8B 15 00 00 00 00 00
 (1.7710)  can1  8100302   [5]  00 00 0A 00 09
 (1.7770)  can1  4100209   [8]  93 12 16 00 00 00 00 00
 (1.7800)  can1  4100208   [8]  33 8B 15 00 00 00 00 00
 (1.7810)  can1  89A0C02   [8]  CC 0B 00 00 CC 0B 00 00
 (1.7820)  can1  8030C02   [8]  00 00 2A 68 2A 68 92 17
 (1.7820)  can1  8580C02   [8]  00 00 00 00 00 00 00 00
 (1.7830)  can1  8101201   [8]  00 00 60 90 F5 8C 00 00
 (1.7840)  can1  8010C01   [8]  00 00 00 00 00 00 00 00
 (1.7870)  can1  4100209   [8]  93 12 16 00 00 00 00 00
 (1.7900)  can1  4100208   [8]  33 8B 15 00 00 00 00 00
 (1.7960)  can1  8100302   [5]  00 01 0A 00 09
 (1.7970)  can1  4100209   [8]  93 12 16 00 00 00 00 00
 (1.8000)  can1  4100208   [8]  33 8B 15 00 00 00 00 00
 (1.8010)  can1  89A0C02   [8]  CC 0B 00 00 CC 0B 00 00
 (1.8020)  can1  8030C02   [8]  00 00 2A 68 2A 68 92 17
 (1.8020)  can1  8580C02   [8]  00 00 00 00 00 00 00 00
 (1.8070)  can1  4100209   [8]  93 12 16 00 00 00 00 00
 (1.8100)  can1  4100208   [8]  33 8B 15 00 00 00 00 00
 (1.8120)  can1  8041001   [8]  34 02 F0 3B FD A6 2B 00
 (1.8130)  can1  18800401   [8]  0E BB 8F B0 8F 95 8F 00
 (1.8130)  can1  18840401   [8]  0E B9 8F AF 8F 95 8F 00
 (1.8140)  can1  18C00401   [8]  0E 71 2F FD 2F 2F 30 00
 (1.8170)  can1  4100209   [8]  93 12 16 00 00 00 00 00
 (1.8200)  can1  4100208   [8]  33 8B 15 00 00 00 00 00
 (1.8210)  can1  8100302   [5]  00 01 0A 00 09
 (1.8220)  can1  8580C02   [8]  00 00 00 00 00 00 00 00
 (1.8220)  can1  89A0C02   [8]  CC 0B 00 00 CC 0B 00 00
 (1.8230)  can1  8030C02   [8]  00 00 2A 68 2A 68 92 17
 (1.8280)  can1  4100209   [8]  93 12 16 00 00 00 00 00
 (1.8300)  can1  4100208   [8]  33 8B 15 00 00 00 00 00
 (1.8370)  can1  4100209   [8]  93 12 16 00 00 00 00 00
 (1.8400)  can1  4100208   [8]  33 8B 15 00 00 00 00 00
 (1.8410)  can1  89A0C02   [8]  CC 0B 00 00 CC 0B 00 00
 (1.8420)  can1  8030C02   [8]  00 00 2A 68 2A 68 92 17
 (1.8420)  can1  8580C02   [8]  00 00 00 00 00 00 00 00
 (1.8460)  can1  8100302   [5]  00 00 0A 00 09
 (1.8470)  can1  4100209   [8]  93 12 16 00 00 00 00 00
 (1.8500)  can1  4100208   [8]  33 8B 15 00 00 00 00 00
 (1.8570)  can1  4100209   [8]  93 12 16 00 00 00 00 00
 (1.8600)  can1  4100208   [8]  33 8B 15 00 00 00 00 00
 (1.8610)  can1  18800401   [8]  0F 4E 8F B7 8F EA 8F 00
 (1.8610)  can1  18840401   [8]  0F 4D 8F B7 8F E9 8F 00
 (1.8620)  can1  18C00401   [8]  0F 77 30 6E 30 BA 30 00
 (1.8620)  can1  8030C02   [8]  00 00 2A 68 2A 68 92 17
 (1.8620)  can1  8580C02   [8]  00 00 00 00 00 00 00 00
 (1.8630)  can1  89A0C02   [8]  CC 0B 00 00 CC 0B 00 00
 (1.8670)  can1  4100209   [8]  93 12 16 00 00 00 00 00
 (1.8700)  can1  4100208   [8]  33 8B 15 00 00 00 00 00
 (1.8710)  can1  8100302   [5]  00 00 0A 00 09
 (1.8770)  can1  4100209   [8]  93 12 16 00 00 00 00 00
 (1.8800)  can1  4100208   [8]  33 8B 15 00 00 00 00 00
 (1.8810)  can1  89A0C02   [8]  CC 0B 00 00 CC 0B 00 00
 (1.8820)  can1  8030C02   [8]  00 00 2A 68 2A 68 92 17
 (1.8820)  can1  8580C02   [8]  00 00 00 00 00 00 00 00
 (1.8840)  can1  8101201   [8]  00 00 60 90 F5 8C 01 00
 (1.8850)  can1  8010C01   [8]  00 00 00 00 00 00 00 00
 (1.8870)  can1  4100209   [8]  93 12 16 00 00 00 00 00
 (1.8900)  can1  4100208   [8]  33 8B 15 00 00 00 00 00
 (1.8960)  can1  8100302   [5]  00 00 0A 00 09
 (1.8970)  can1  4100209   [8]  93 12 16 00 00 00 00 00
 (1.9000)  can1  4100208   [8]  33 8B 15 00 00 00 00 00
 (1.9010)  can1  89A0C02   [8]  CC 0B 00 00 CC 0B 00 00
 (1.9020)  can1  8030C02   [8]  00 00 2A 68 2A 68 92 17
 (1.9020)  can1  8580C02   [8]  00 00 00 00 00 00 00 00
 (1.9070)  can1  4100209   [8]  93 12 16 00 00 00 00 00
 (1.9100)  can1  4100208   [8]  33 8B 15 00 00 00 00 00
 (1.9120)  can1  8041001   [8]  34 02 F0 3B FD A6 2B 00
 (1.9120)  can1  18800401   [8]  10 E0 8F E0 8F D9 8F 00
 (1.9130)  can1  18840401   [8]  10 DF 8F E0 8F D9 8F 00
 (1.9130)  can1  18C00401   [8]  10 7A 30 C7 30 36 30 00
 (1.9170)  can1  4100209   [8]  93 12 16 00 00 00 00 00
 (1.9200)  can1  4100208   [8]  33 8B 15 00 00 00 00 00
 (1.9210)  can1  8100302   [5]  00 00 0A 00 09
 (1.9220)  can1  8580C02   [8]  00 00 00 00 00 00 00 00
 (1.9220)  can1  89A0C02   [8]  CC 0B 00 00 CC 0B 00 00
 (1.9230)  can1  8030C02   [8]  00 00 2A 68 2A 68 92 17
 (1.9270)  can1  4100209   [8]  93 12 16 00 00 00 00 00
 (1.9300)  can1  4100208   [8]  33 8B 15 00 00 00 00 00
 (1.9370)  can1  4100209   [8]  93 12 16 00 00 00 00 00
 (1.9400)  can1  4100208   [8]  33 8B 15 00 00 00 00 00
 (1.9410)  can1  89A0C02   [8]  CC 0B 00 00 CC 0B 00 00
 (1.9420)  can1  8030C02   [8]  00 00 2A 68 2A 68 92 17
 (1.9420)  can1  8580C02   [8]  00 00 00 00 00 00 00 00
 (1.9460)  can1  8100302   [5]  00 00 0A 00 09
 (1.9470)  can1  4100209   [8]  93 12 16 00 00 00 00 00
 (1.9500)  can1  4100208   [8]  33 8B 15 00 00 00 00 00
 (1.9570)  can1  4100209   [8]  93 12 16 00 00 00 00 00
 (1.9600)  can1  4100208   [8]  33 8B 15 00 00 00 00 00
 (1.9610)  can1  18800401   [8]  11 C2 8F BB 8F C9 8F 00
 (1.9610)  can1  18840401   [8]  11 C2 8F BA 8F C8 8F 00
 (1.9620)  can1  18C00401   [8]  11 A0 30 E8 2F 59 30 00
 (1.9620)  can1  8030C02   [8]  00 00 2A 68 2A 68 92 17
 (1.9620)  can1  8580C02   [8]  00 00 00 00 00 00 00 00
 (1.9630)  can1  89A0C02   [8]  CC 0B 00 00 CC 0B 00 00
 (1.9670)  can1  4100209   [8]  93 12 16 00 00 00 00 00
 (1.9700)  can1  4100208   [8]  33 8B 15 00 00 00 00 00
 (1.9710)  can1  8100302   [5]  00 00 0A 00 09
 (1.9770)  can1  4100209   [8]  93 12 16 00 00 00 00 00
 (1.9800)  can1  4100208   [8]  33 8B 15 00 00 00 00 00
 (1.9810)  can1  89A0C02   [8]  CC 0B 00 00 CC 0B 00 00
 (1.9820)  can1  8030C02   [8]  00 00 2A 68 2A 68 92 17
 (1.9820)  can1  8580C02   [8]  00 00 00 00 00 00 00 00
 (1.9870)  can1  4100209   [8]  93 12 16 00 00 00 00 00
 (1.9900)  can1  4100208   [8]  33 8B 15 00 00 00 00 00
 (1.9960)  can1  8100302   [5]  00 01 0A 00 09
 (1.9970)  can1  4100209   [8]  93 12 16 00 00 00 00 00
 (2.0000)  can1  4100208   [8]  33 8B 15 00 00 00 00 00
 (2.0010)  can1  89A0C02   [8]  CC 0B 00 00 CC 0B 00 00
 (2.0020)  can1  8030C02   [8]  00 00 2A 68 2A 68 92 17
 (2.0020)  can1  8580C02   [8]  00 00 00 00 00 00 00 00
 (2.0070)  can1  4100209   [8]  93 12 16 00 00 00 00 00
 (2.0100)  can1  4100208   [8]  33 8B 15 00 00 00 00 00
 (2.0140)  can1  404FF01   [1]  00
 (2.0170)  can1  8ED0C01   [8]  10 00 00 00 00 00 00 00
 (2.0180)  can1  80F1201   [4]  00 00 00 00
 (2.0180)  can1  4100209   [8]  93 12 16 00 00 00 00 00
 (2.0180)  can1  8120C01   [8]  90 00 00 00 00 00 00 00
 (2.0190)  can1  18800401   [8]  00 B8 88 B8 88 B8 88 00
 (2.0190)  can1  18840401   [8]  00 00 00 00 00 00 00 00
 (2.0200)  can1  18C00401   [8]  00 10 27 10 27 10 27 00
 (2.0200)  can1  4100208   [8]  33 8B 15 00 00 00 00 00
 (2.0210)  can1  8100302   [5]  00 01 0A 00 09
 (2.0220)  can1  8580C02   [8]  00 00 00 00 00 00 00 00
 (2.0220)  can1  89A0C02   [8]  CC 0B 00 00 CC 0B 00 00
 (2.0230)  can1  8030C02   [8]  00 00 2A 68 2A 68 92 17
 (2.0280)  can1  4100209   [8]  93 12 16 00 00 00 00 00
 (2.0300)  can1  4100208   [8]  33 8B 15 00 00 00 00 00
 (2.0380)  can1  4100209   [8]  93 12 16 00 00 00 00 00
 (2.0400)  can1  4100208   [8]  33 8B 15 00 00 00 00 00
 (2.0410)  can1  89A0C02   [8]  CC 0B 00 00 CC 0B 00 00
 (2.0420)  can1  8030C02   [8]  00 00 2A 68 2A 68 92 17
 (2.0420)  can1  8580C02   [8]  00 00 00 00 00 00 00 00
 (2.0460)  can1  8100302   [5]  00 00 0A 00 09
 (2.0470)  can1  4100209   [8]  93 12 16 00 00 00 00 00
 (2.0500)  can1  4100208   [8]  33 8B 15 00 00 00 00 00
 (2.0570)  can1  4100209   [8]  93 12 16 00 00 00 00 00
 (2.0600)  can1  4100208   [8]  33 8B 15 00 00 00 00 00
 (2.0610)  can1  89A0C02   [8]  CC 0B 00 00 CC 0B 00 00
 (2.0620)  can1  8030C02   [8]  00 00 2A 68 2A 68 92 17
 (2.0620)  can1  8580C02   [8]  00 00 00 00 00 00 00 00
 (2.0670)  can1  18800401   [8]  01 B8 88 B8 88 B8 88 00
 (2.0680)  can1  18840401   [8]  01 00 00 00 00 00 00 00
 (2.0680)  can1  4100209   [8]  93 12 16 00 00 00 00 00
 (2.0680)  can1  18C00401   [8]  01 10 27 10 27 10 27 00
 (2.0700)  can1  4100208   [8]  33 8B 15 00 00 00 00 00
 (2.0710)  can1  8100302   [5]  00 01 0A 00 09
 (2.0770)  can1  4100209   [8]  93 12 16 00 00 00 00 00
 (2.0800)  can1  4100208   [8]  33 8B 15 00 00 00 00 00
 (2.0810)  can1  89A0C02   [8]  CC 0B 00 00 CC 0B 00 00
 (2.0820)  can1  8030C02   [8]  00 00 2A 68 2A 68 92 17
 (2.0820)  can1  8580C02   [8]  00 00 00 00 00 00 00 00
 (2.0870)  can1  4100209   [8]  93 12 16 00 00 00 00 00
 (2.0900)  can1  4100208   [8]  33 8B 15 00 00 00 00 00
 (2.0960)  can1  8100302   [5]  00 00 0A 00 09
 (2.0980)  can1  4100209   [8]  93 12 16 00 00 00 00 00
 (2.1000)  can1  4100208   [8]  33 8B 15 00 00 00 00 00
 (2.1010)  can1  89A0C02   [8]  CC 0B 00 00 CC 0B 00 00
 (2.1020)  can1  8030C02   [8]  00 00 2A 68 2A 68 92 17
 (2.1020)  can1  8580C02   [8]  00 00 00 00 00 00 00 00
 (2.1040)  can1  8041001   [8]  00 00 70 CF 08 D1 1D 00
 (2.1070)  can1  4100209   [8]  93 12 16 00 00 00 00 00
 (2.1100)  can1  4100208   [8]  33 8B 15 00 00 00 00 00
 (2.1130)  can1  8101201   [8]  00 00 5E 90 F1 8C 00 00
 (2.1130)  can1  8010C01   [8]  00 00 00 00 00 00 00 00
 (2.1170)  can1  18800401   [8]  02 8F 8F FF 8F E7 8F 00
 (2.1180)  can1  18840401   [8]  02 8F 8F FF 8F E7 8F 00
 (2.1180)  can1  4100209   [8]  93 12 16 00 00 00 00 00
 (2.1190)  can1  18C00401   [8]  02 10 27 10 27 10 27 00
 (2.1200)  can1  4100208   [8]  33 8B 15 00 00 00 00 00
 (2.1210)  can1  8100302   [5]  00 00 0A 00 09
 (2.1220)  can1  8580C02   [8]  00 00 00 00 00 00 00 00
 (2.1220)  can1  89A0C02   [8]  CC 0B 00 00 CC 0B 00 00
 (2.1230)  can1  8030C02   [8]  00 00 2A 68 2A 68 92 17
 (2.1270)  can1  4100209   [8]  93 12 16 00 00 00 00 00
 (2.1300)  can1  4100208   [8]  33 8B 15 00 00 00 00 00
 (2.1370)  can1  4100209   [8]  93 12 16 00 00 00 00 00
 (2.1400)  can1  4100208   [8]  33 8B 15 00 00 00 00 00
 (2.1410)  can1  89A0C02   [8]  CC 0B 00 00 CC 0B 00 00
 (2.1420)  can1  8030C02   [8]  00 00 2A 68 2A 68 92 17
 (2.1420)  can1  8580C02   [8]  00 00 00 00 00 00 00 00
 (2.1460)  can1  8100302   [5]  00 00 0A 00 09
 (2.1470)  can1  4100209   [8]  93 12 16 00 00 00 00 00
 (2.1500)  can1  4100208   [8]  33 8B 15 00 00 00 00 00
 (2.1580)  can1  4100209   [8]  93 12 16 00 00 00 00 00
 (2.1600)  can1  4100208   [8]  33 8B 15 00 00 00 00 00
 (2.1610)  can1  89A0C02   [8]  CC 0B 00 00 CC 0B 00 00
 (2.1620)  can1  8030C02   [8]  00 00 2A 68 2A 68 92 17
 (2.1620)  can1  8580C02   [8]  00 00 00 00 00 00 00 00
 (2.1670)  can1  18800401   [8]  03 D7 8F C9 8F DE 8F 00
 (2.1680)  can1  18840401   [8]  03 D7 8F C9 8F DE 8F 00
 (2.1680)  can1  4100209   [8]  93 12 16 00 00 00 00 00
 (2.1680)  can1  18C00401   [8]  03 10 27 10 27 10 27 00
 (2.1700)  can1  4100208   [8]  33 8B 15 00 00 00 00 00
 (2.1710)  can1  8100302   [5]  00 00 0A 00 09
 (2.1770)  can1  4100209   [8]  93 12 16 00 00 00 00 00
 (2.1800)  can1  4100208   [8]  33 8B 15 00 00 00 00 00
 (2.1810)  can1  89A0C02   [8]  CC 0B 00 00 CC 0B 00 00
 (2.1820)  can1  8030C02   [8]  00 00 2A 68 2A 68 92 17
 (2.1820)  can1  8580C02   [8]  00 00 00 00 00 00 00 00
 (2.1870)  can1  4100209   [8]  93 12 16 00 00 00 00 00
 (2.1900)  can1  4100208   [8]  33 8B 15 00 00 00 00 00
 (2.1960)  can1  8100302   [5]  00 00 0A 00 09
 (2.1970)  can1  4100209   [8]  93 12 16 00 00 00 00 00
 (2.2000)  can1  4100208   [8]  33 8B 15 00 00 00 00 00
 (2.2010)  can1  89A0C02   [8]  CC 0B 00 00 CC 0B 00 00
 (2.2020)  can1  8030C02   [8]  00 00 2A 68 2A 68 92 17
 (2.2020)  can1  8580C02   [8]  00 00 00 00 00 00 00 00
 (2.2040)  can1  8041001   [8]  36 02 70 CF 08 D1 1D 00
 (2.2070)  can1  4100209   [8]  93 12 16 00 00 00 00 00
 (2.2100)  can1  4100208   [8]  33 8B 15 00 00 00 00 00
 (2.2140)  can1  8101201   [8]  00 00 5F 90 F1 8C 03 00
 (2.2150)  can1  8010C01   [8]  00 00 00 00 00 00 00 00
 (2.2170)  can1  18800401   [8]  04 FD 8F EF 8F F3 8C 00
 (2.2170)  can1  18840401   [8]  04 FD 8F EF 8F F1 8C 00
 (2.2180)  can1  4100209   [8]  93 12 16 00 00 00 00 00
 (2.2180)  can1  18C00401   [8]  04 10 27 10 27 31 30 00
 (2.2200)  can1  4100208   [8]  33 8B 15 00 00 00 00 00
 (2.2210)  can1  8100302   [5]  00 01 0A 00 09
 (2.2220)  can1  8580C02   [8]  00 00 00 00 00 00 00 00
 (2.2220)  can1  89A0C02   [8]  CC 0B 00 00 CC 0B 00 00
 (2.2220)  can1  8030C02   [8]  00 00 2A 68 2A 68 92 17
 (2.2270)  can1  4100209   [8]  93 12 16 00 00 00 00 00
 (2.2300)  can1  4100208   [8]  33 8B 15 00 00 00 00 00
 (2.2380)  can1  4100209   [8]  93 12 16 00 00 00 00 00
 (2.2400)  can1  4100208   [8]  33 8B 15 00 00 00 00 00
 (2.2410)  can1  89A0C02   [8]  CC 0B 00 00 CC 0B 00 00
 (2.2420)  can1  8030C02   [8]  00 00 2A 68 2A 68 92 17
 (2.2420)  can1  8580C02   [8]  00 00 00 00 00 00 00 00
 (2.2460)  can1  8100302   [5]  00 00 0A 00 09
 (2.2480)  can1  4100209   [8]  93 12 16 00 00 00 00 00
 (2.2500)  can1  4100208   [8]  33 8B 15 00 00 00 00 00
 (2.2570)  can1  4100209   [8]  93 12 16 00 00 00 00 00
 (2.2600)  can1  4100208   [8]  33 8B 15 00 00 00 00 00
 (2.2610)  can1  89A0C02   [8]  CC 0B 00 00 CC 0B 00 00
 (2.2620)  can1  8030C02   [8]  00 00 2A 68 2A 68 92 17
 (2.2620)  can1  8580C02   [8]  00 00 00 00 00 00 00 00
 (2.2660)  can1  18101203   [4]  D1 2C 70 01
 (2.2670)  can1  18800401   [8]  05 CD 8F BC 8F C6 8F 00
 (2.2680)  can1  18840401   [8]  05 CB 8F BB 8F C4 8F 00
 (2.2680)  can1  4100209   [8]  93 12 16 00 00 00 00 00
 (2.2680)  can1  18C00401   [8]  05 06 30 10 27 10 27 00
 (2.2700)  can1  4100208   [8]  33 8B 15 00 00 00 00 00
 (2.2710)  can1  8100302   [5]  00 00 0A 00 09
 (2.2770)  can1  4100209   [8]  93 12 16 00 00 00 00 00
 (2.2800)  can1  4100208   [8]  33 8B 15 00 00 00 00 00
 (2.2810)  can1  89A0C02   [8]  CC 0B 00 00 CC 0B 00 00
 (2.2820)  can1  8030C02   [8]  00 00 2A 68 2A 68 92 17
 (2.2820)  can1  8580C02   [8]  00 00 00 00 00 00 00 00
 (2.2880)  can1  4100209   [8]  93 12 16 00 00 00 00 00
 (2.2900)  can1  4100208   [8]  33 8B 15 00 00 00 00 00
 (2.2960)  can1  8100302   [5]  00 00 0A 00 09
 (2.2980)  can1  4100209   [8]  93 12 16 00 00 00 00 00
 (2.3000)  can1  4100208   [8]  33 8B 15 00 00 00 00 00
 (2.3010)  can1  89A0C02   [8]  CC 0B 00 00 CC 0B 00 00
 (2.3020)  can1  8030C02   [8]  00 00 2A 68 2A 68 92 17
 (2.3020)  can1  8580C02   [8]  00 00 00 00 00 00 00 00
 (2.3040)  can1  8041001   [8]  36 02 70 CF 08 D1 1D 00
 (2.3070)  can1  4100209   [8]  93 12 16 00 00 00 00 00
 (2.3100)  can1  4100208   [8]  33 8B 15 00 00 00 00 00
 (2.3150)  can1  8101201   [8]  00 00 60 90 F2 8C 00 00
 (2.3160)  can1  8010C01   [8]  00 00 00 00 00 00 00 00
 (2.3170)  can1  18800401   [8]  06 C5 8F 01 90 0C 90 00
 (2.3170)  can1  18840401   [8]  06 C5 8F 01 90 0B 90 00
 (2.3180)  can1  4100209   [8]  93 12 16 00 00 00 00 00
 (2.3180)  can1  18C00401   [8]  06 10 27 10 27 10 27 00
 (2.3200)  can1  4100208   [8]  33 8B 15 00 00 00 00 00
 (2.3210)  can1  8100302   [5]  00 00 0A 00 09
 (2.3220)  can1  8580C02   [8]  00 00 00 00 00 00 00 00
 (2.3220)  can1  89A0C02   [8]  CC 0B 00 00 CC 0B 00 00
 (2.3230)  can1  8030C02   [8]  00 00 2A 68 2A 68 92 17
 (2.3270)  can1  4100209   [8]  93 12 16 00 00 00 00 00
 (2.3300)  can1  4100208   [8]  33 8B 15 00 00 00 00 00
 (2.3370)  can1  4100209   [8]  93 12 16 00 00 00 00 00
 (2.3400)  can1  4100208   [8]  33 8B 15 00 00 00 00 00
 (2.3410)  can1  89A0C02   [8]  CC 0B 00 00 CC 0B 00 00
 (2.3420)  can1  8030C02   [8]  00 00 2A 68 2A 68 92 17
 (2.3420)  can1  8580C02   [8]  00 00 00 00 00 00 00 00
 (2.3460)  can1  8100302   [5]  00 00 0A 00 09
 (2.3470)  can1  4100209   [8]  93 12 16 00 00 00 00 00
 (2.3500)  can1  4100208   [8]  33 8B 15 00 00 00 00 00
 (2.3580)  can1  4100209   [8]  93 12 16 00 00 00 00 00
 (2.3600)  can1  4100208   [8]  33 8B 15 00 00 00 00 00
 (2.3610)  can1  89A0C02   [8]  CC 0B 00 00 CC 0B 00 00
 (2.3620)  can1  8030C02   [8]  00 00 2A 68 2A 68 92 17
 (2.3620)  can1  8580C02   [8]  00 00 00 00 00 00 00 00
 (2.3670)  can1  18800401   [8]  07 05 90 F6 8F D8 8F 00
 (2.3680)  can1  18840401   [8]  07 05 90 F6 8F D8 8F 00
 (2.3680)  can1  4100209   [8]  93 12 16 00 00 00 00 00
 (2.3690)  can1  18C00401   [8]  07 10 27 10 27 10 27 00
 (2.3700)  can1  4100208   [8]  33 8B 15 00 00 00 00 00
 (2.3710)  can1  8100302   [5]  00 00 0A 00 09
 (2.3770)  can1  4100209   [8]  93 12 16 00 00 00 00 00
 (2.3800)  can1  4100208   [8]  33 8B 15 00 00 00 00 00
 (2.3810)  can1  89A0C02   [8]  CC 0B 00 00 CC 0B 00 00
 (2.3820)  can1  8030C02   [8]  00 00 2A 68 2A 68 92 17
 (2.3820)  can1  8580C02   [8]  00 00 00 00 00 00 00 00
 (2.3880)  can1  4100209   [8]  93 12 16 00 00 00 00 00
 (2.3900)  can1  4100208   [8]  33 8B 15 00 00 00 00 00
 (2.3960)  can1  8100302   [5]  00 00 0A 00 09
 (2.3970)  can1  4100209   [8]  93 12 16 00 00 00 00 00
 (2.4000)  can1  4100208   [8]  33 8B 15 00 00 00 00 00
 (2.4010)  can1  89A0C02   [8]  CC 0B 00 00 CC 0B 00 00
 (2.4020)  can1  8030C02   [8]  00 00 2A 68 2A 68 92 17
 (2.4020)  can1  8580C02   [8]  00 00 00 00 00 00 00 00
 (2.4040)  can1  8041001   [8]  36 02 70 CF 08 D1 1D 00
 (2.4070)  can1  4100209   [8]  93 12 16 00 00 00 00 00
 (2.4100)  can1  4100208   [8]  33 8B 15 00 00 00 00 00
 (2.4160)  can1  8101201   [8]  00 00 5F 90 F3 8C 01 00
 (2.4170)  can1  8010C01   [8]  00 00 00 00 00 00 00 00
 (2.4170)  can1  18800401   [8]  08 CF 8F 28 8D 25 90 00
 (2.4180)  can1  18840401   [8]  08 D0 8F 28 8D 25 90 00
 (2.4180)  can1  4100209   [8]  93 12 16 00 00 00 00 00
 (2.4190)  can1  18C00401   [8]  08 10 27 10 27 10 27 00
 (2.4200)  can1  4100208   [8]  33 8B 15 00 00 00 00 00
 (2.4210)  can1  8100302   [5]  00 00 0A 00 09
 (2.4220)  can1  8580C02   [8]  00 00 00 00 00 00 00 00
 (2.4220)  can1  89A0C02   [8]  CC 0B 00 00 CC 0B 00 00
 (2.4230)  can1  8030C02   [8]  00 00 2A 68 2A 68 92 17
 (2.4280)  can1  4100209   [8]  93 12 16 00 00 00 00 00
 (2.4300)  can1  4100208   [8]  33 8B 15 00 00 00 00 00
 (2.4370)  can1  4100209   [8]  93 12 16 00 00 00 00 00
 (2.4400)  can1  4100208   [8]  33 8B 15 00 00 00 00 00
 (2.4410)  can1  89A0C02   [8]  CC 0B 00 00 CC 0B 00 00
 (2.4420)  can1  8030C02   [8]  00 00 2A 68 2A 68 92 17
 (2.4420)  can1  8580C02   [8]  00 00 00 00 00 00 00 00
 (2.4460)  can1  8100302   [5]  00 00 0A 00 09
 (2.4480)  can1  4100209   [8]  93 12 16 00 00 00 00 00
 (2.4500)  can1  4100208   [8]  33 8B 15 00 00 00 00 00
 (2.4580)  can1  4100209   [8]  93 12 16 00 00 00 00 00
 (2.4600)  can1  4100208   [8]  33 8B 15 00 00 00 00 00
 (2.4610)  can1  89A0C02   [8]  CC 0B 00 00 CC 0B 00 00
 (2.4620)  can1  8030C02   [8]  00 00 2A 68 2A 68 92 17
 (2.4620)  can1  8580C02   [8]  00 00 00 00 00 00 00 00
 (2.4670)  can1  18800401   [8]  09 1A 90 D6 8F C5 8F 00
 (2.4670)  can1  18840401   [8]  09 1A 90 D5 8F C5 8F 00
 (2.4680)  can1  4100209   [8]  93 12 16 00 00 00 00 00
 (2.4680)  can1  18C00401   [8]  09 10 27 C6 2F 26 30 00
 (2.4700)  can1  4100208   [8]  33 8B 15 00 00 00 00 00
 (2.4710)  can1  8100302   [5]  00 01 0A 00 09
 (2.4770)  can1  4100209   [8]  93 12 16 00 00 00 00 00
 (2.4800)  can1  4100208   [8]  33 8B 15 00 00 00 00 00
 (2.4810)  can1  89A0C02   [8]  CC 0B 00 00 CC 0B 00 00
 (2.4820)  can1  8030C02   [8]  00 00 2A 68 2A 68 92 17
 (2.4820)  can1  8580C02   [8]  00 00 00 00 00 00 00 00
 (2.4880)  can1  4100209   [8]  93 12 16 00 00 00 00 00
 (2.4900)  can1  4100208   [8]  33 8B 15 00 00 00 00 00
 (2.4960)  can1  8100302   [5]  00 00 0A 00 09
 (2.4970)  can1  4100209   [8]  93 12 16 00 00 00 00 00
 (2.5000)  can1  4100208   [8]  33 8B 15 00 00 00 00 00
 (2.5010)  can1  89A0C02   [8]  CC 0B 00 00 CC 0B 00 00
 (2.5020)  can1  8030C02   [8]  00 00 2A 68 2A 68 92 17
 (2.5020)  can1  8580C02   [8]  00 00 00 00 00 00 00 00
 (2.5040)  can1  8041001   [8]  36 02 70 CF 08 D1 1D 00
 (2.5080)  can1  4100209   [8]  93 12 16 00 00 00 00 00
 (2.5100)  can1  4100208   [8]  33 8B 15 00 00 00 00 00
 (2.5170)  can1  8101201   [8]  00 00 61 90 F4 8C 01 00
 (2.5180)  can1  8010C01   [8]  00 00 00 00 00 00 00 00
 (2.5190)  can1  4100209   [8]  93 12 16 00 00 00 00 00
 (2.5190)  can1  18800401   [8]  0A A8 8F BB 8F C7 8F 00
 (2.5190)  can1  18840401   [8]  0A A7 8F BA 8F C6 8F 00
 (2.5190)  can1  18C00401   [8]  0A 66 30 A7 30 81 30 00
 (2.5200)  can1  4100208   [8]  33 8B 15 00 00 00 00 00
 (2.5210)  can1  8100302   [5]  00 00 0A 00 09
 (2.5220)  can1  8580C02   [8]  00 00 00 00 00 00 00 00
 (2.5220)  can1  89A0C02   [8]  CC 0B 00 00 CC 0B 00 00
 (2.5230)  can1  8030C02   [8]  00 00 2A 68 2A 68 92 17
 (2.5280)  can1  4100209   [8]  93 12 16 00 00 00 00 00
 (2.5300)  can1  4100208   [8]  33 8B 15 00 00 00 00 00
 (2.5380)  can1  4100209   [8]  93 12 16 00 00 00 00 00
 (2.5400)  can1  4100208   [8]  33 8B 15 00 00 00 00 00
 (2.5410)  can1  89A0C02   [8]  CC 0B 00 00 CC 0B 00 00
 (2.5420)  can1  8030C02   [8]  00 00 2A 68 2A 68 92 17
 (2.5420)  can1  8580C02   [8]  00 00 00 00 00 00 00 00
 (2.5460)  can1  8100302   [5]  00 00 0A 00 09
 (2.5470)  can1  4100209   [8]  93 12 16 00 00 00 00 00
 (2.5500)  can1  4100208   [8]  33 8B 15 00 00 00 00 00
 (2.5570)  can1  4100209   [8]  93 12 16 00 00 00 00 00
 (2.5600)  can1  4100208   [8]  33 8B 15 00 00 00 00 00
 (2.5610)  can1  89A0C02   [8]  CC 0B 00 00 CC 0B 00 00
 (2.5620)  can1  8030C02   [8]  00 00 2A 68 2A 68 92 17
 (2.5620)  can1  8580C02   [8]  00 00 00 00 00 00 00 00
 (2.5670)  can1  18800401   [8]  0B F5 8F F3 8F FB 8F 00
 (2.5680)  can1  18840401   [8]  0B F5 8F F3 8F FC 8F 00
 (2.5680)  can1  4100209   [8]  93 12 16 00 00 00 00 00
 (2.5680)  can1  18C00401   [8]  0B 10 27 10 27 10 27 00
 (2.5700)  can1  4100208   [8]  33 8B 15 00 00 00 00 00
 (2.5710)  can1  8100302   [5]  00 01 0A 00 09
 (2.5780)  can1  4100209   [8]  93 12 16 00 00 00 00 00
 (2.5800)  can1  4100208   [8]  33 8B 15 00 00 00 00 00
 (2.5810)  can1  89A0C02   [8]  CC 0B 00 00 CC 0B 00 00
 (2.5820)  can1  8030C02   [8]  00 00 2A 68 2A 68 92 17
 (2.5830)  can1  8580C02   [8]  00 00 00 00 00 00 00 00
 (2.5880)  can1  4100209   [8]  93 12 16 00 00 00 00 00
 (2.5900)  can1  4100208   [8]  33 8B 15 00 00 00 00 00
 (2.5960)  can1  8100302   [5]  00 00 0A 00 09
 (2.5970)  can1  4100209   [8]  93 12 16 00 00 00 00 00
 (2.6000)  can1  4100208   [8]  33 8B 15 00 00 00 00 00
 (2.6090)  can1  89A0C02   [8]  CC 0B 00 00 CC 0B 00 00
 (2.6090)  can1  8030C02   [8]  00 00 2A 68 2A 68 92 17
 (2.6090)  can1  8580C02   [8]  00 00 00 00 00 00 00 00
 (2.6100)  can1  8041001   [8]  36 02 70 CF 08 D1 1D 00
 (2.6100)  can1  4100209   [8]  93 12 16 00 00 00 00 00
 (2.6100)  can1  4100208   [8]  33 8B 15 00 00 00 00 00
 (2.6170)  can1  18800401   [8]  0C F4 8F D9 8F D6 8F 00
 (2.6170)  can1  18840401   [8]  0C F4 8F D9 8F D6 8F 00
 (2.6180)  can1  4100209   [8]  93 12 16 00 00 00 00 00
 (2.6190)  can1  18C00401   [8]  0C 10 27 10 27 10 27 00
 (2.6190)  can1  8010C01   [8]  00 00 00 00 00 00 00 00
 (2.6190)  can1  8101201   [8]  00 00 61 90 F4 8C 00 00
 (2.6200)  can1  4100208   [8]  33 8B 15 00 00 00 00 00
 (2.6210)  can1  8100302   [5]  00 01 0A 00 09
 (2.6220)  can1  8580C02   [8]  00 00 00 00 00 00 00 00
 (2.6220)  can1  89A0C02   [8]  CC 0B 00 00 CC 0B 00 00
 (2.6230)  can1  8030C02   [8]  00 00 2A 68 2A 68 92 17
 (2.6280)  can1  4100209   [8]  93 12 16 00 00 00 00 00
 (2.6300)  can1  4100208   [8]  33 8B 15 00 00 00 00 00
 (2.6380)  can1  4100209   [8]  93 12 16 00 00 00 00 00
 (2.6400)  can1  4100208   [8]  33 8B 15 00 00 00 00 00
 (2.6410)  can1  89A0C02   [8]  CC 0B 00 00 CC 0B 00 00
 (2.6420)  can1  8030C02   [8]  00 00 2A 68 2A 68 92 17
 (2.6430)  can1  8580C02   [8]  00 00 00 00 00 00 00 00
 (2.6460)  can1  8100302   [5]  00 01 0A 00 09
 (2.6470)  can1  4100209   [8]  93 12 16 00 00 00 00 00
 (2.6500)  can1  4100208   [8]  33 8B 15 00 00 00 00 00
 (2.6570)  can1  4100209   [8]  93 12 16 00 00 00 00 00
 (2.6600)  can1  4100208   [8]  33 8B 15 00 00 00 00 00
 (2.6610)  can1  89A0C02   [8]  CC 0B 00 00 CC 0B 00 00
 (2.6620)  can1  8030C02   [8]  00 00 2A 68 2A 68 92 17
 (2.6620)  can1  8580C02   [8]  00 00 00 00 00 00 00 00
 (2.6660)  can1  404FF03   [1]  00
 (2.6670)  can1  18800401   [8]  0D E0 8F 0A 90 F9 8F 00
 (2.6670)  can1  18840401   [8]  0D E0 8F 0A 90 F8 8F 00
 (2.6680)  can1  4100209   [8]  93 12 16 00 00 00 00 00
 (2.6690)  can1  8250C03   [8]  00 00 00 00 00 00 00 00
 (2.6690)  can1  8840C03   [8]  2D 00 12 00 20 00 07 00
 (2.6690)  can1  88D0C03   [8]  11 00 00 00 00 00 00 00
 (2.6690)  can1  18C00401   [8]  0D 10 27 10 27 10 27 00
 (2.6700)  can1  4100208   [8]  33 8B 15 00 00 00 00 00
 (2.6710)  can1  8100302   [5]  00 01 0A 00 09
 (2.6780)  can1  4100209   [8]  93 12 16 00 00 00 00 00
 (2.6800)  can1  4100208   [8]  33 8B 15 00 00 00 00 00
 (2.6810)  can1  89A0C02   [8]  CC 0B 00 00 CC 0B 00 00
 (2.6820)  can1  8030C02   [8]  00 00 2A 68 2A 68 92 17
 (2.6820)  can1  8580C02   [8]  00 00 00 00 00 00 00 00
 (2.6880)  can1  4100209   [8]  93 12 16 00 00 00 00 00
 (2.6900)  can1  4100208   [8]  33 8B 15 00 00 00 00 00
 (2.6960)  can1  8100302   [5]  00 01 0A 00 09
 (2.6980)  can1  4100209   [8]  93 12 16 00 00 00 00 00
 (2.7000)  can1  4100208   [8]  33 8B 15 00 00 00 00 00
 (2.7010)  can1  89A0C02   [8]  CC 0B 00 00 CC 0B 00 00
 (2.7020)  can1  8030C02   [8]  00 00 2A 68 2A 68 92 17
 (2.7020)  can1  8580C02   [8]  00 00 00 00 00 00 00 00
 (2.7040)  can1  8041001   [8]  36 02 70 CF 08 D1 1D 00
 (2.7080)  can1  4100209   [8]  93 12 16 00 00 00 00 00
 (2.7100)  can1  4100208   [8]  33 8B 15 00 00 00 00 00
 (2.7170)  can1  18800401   [8]  0E BB 8F B0 8F 96 8F 00
 (2.7180)  can1  18840401   [8]  0E BA 8F AF 8F 96 8F 00
 (2.7180)  can1  4100209   [8]  93 12 16 00 00 00 00 00
 (2.7180)  can1  18C00401   [8]  0E 72 2F FD 2F 2F 30 00
 (2.7190)  can1  8101201   [8]  00 00 61 90 F5 8C 03 00
 (2.7190)  can1  8010C01   [8]  00 00 00 00 00 00 00 00
 (2.7200)  can1  4100208   [8]  33 8B 15 00 00 00 00 00
 (2.7210)  can1  404FF02   [1]  00
 (2.7210)  can1  8100302   [5]  00 00 0A 00 09
 (2.7220)  can1  8580C02   [8]  00 00 00 00 00 00 00 00
 (2.7220)  can1  89A0C02   [8]  CC 0B 00 00 CC 0B 00 00
 (2.7220)  can1  8030C02   [8]  00 00 2A 68 2A 68 92 17
 (2.7280)  can1  4100209   [8]  93 12 16 00 00 00 00 00
 (2.7300)  can1  4100208   [8]  33 8B 15 00 00 00 00 00
 (2.7380)  can1  4100209   [8]  93 12 16 00 00 00 00 00
 (2.7380)  can1  404FF07   [1]  00
 (2.7400)  can1  4100208   [8]  33 8B 15 00 00 00 00 00
 (2.7410)  can1  89A0C02   [8]  CC 0B 00 00 CC 0B 00 00
 (2.7420)  can1  8030C02   [8]  00 00 2A 68 2A 68 92 17
 (2.7420)  can1  8580C02   [8]  00 00 00 00 00 00 00 00
 (2.7460)  can1  8100302   [5]  00 00 0A 00 09
 (2.7480)  can1  4100209   [8]  93 12 16 00 00 00 00 00
 (2.7500)  can1  4100208   [8]  33 8B 15 00 00 00 00 00
 (2.7580)  can1  4100209   [8]  93 12 16 00 00 00 00 00
 (2.7600)  can1  4100208   [8]  33 8B 15 00 00 00 00 00
 (2.7610)  can1  89A0C02   [8]  CC 0B 00 00 CC 0B 00 00
 (2.7620)  can1  8030C02   [8]  00 00 2A 68 2A 68 92 17
 (2.7620)  can1  8580C02   [8]  00 00 00 00 00 00 00 00
 (2.7660)  can1  18101203   [4]  B8 2C 75 01
 (2.7670)  can1  18800401   [8]  0F 4F 8F B7 8F E9 8F 00
 (2.7670)  can1  18840401   [8]  0F 4E 8F B7 8F E9 8F 00
 (2.7680)  can1  4100209   [8]  93 12 16 00 00 00 00 00
 (2.7680)  can1  18C00401   [8]  0F 77 30 6E 30 BA 30 00
 (2.7700)  can1  4100208   [8]  33 8B 15 00 00 00 00 00
 (2.7710)  can1  8100302   [5]  00 00 0A 00 09
 (2.7780)  can1  4100209   [8]  93 12 16 00 00 00 00 00
 (2.7800)  can1  4100208   [8]  33 8B 15 00 00 00 00 00
 (2.7810)  can1  89A0C02   [8]  CC 0B 00 00 CC 0B 00 00
 (2.7820)  can1  8030C02   [8]  00 00 2A 68 2A 68 92 17
 (2.7820)  can1  8580C02   [8]  00 00 00 00 00 00 00 00
 (2.7880)  can1  4100209   [8]  93 12 16 00 00 00 00 00
 (2.7900)  can1  4100208   [8]  33 8B 15 00 00 00 00 00
 (2.7960)  can1  8100302   [5]  00 01 0A 00 09
 (2.7970)  can1  4100209   [8]  93 12 16 00 00 00 00 00
 (2.8000)  can1  4100208   [8]  33 8B 15 00 00 00 00 00
 (2.8010)  can1  89A0C02   [8]  CC 0B 00 00 CC 0B 00 00
 (2.8020)  can1  8030C02   [8]  00 00 2A 68 2A 68 92 17
 (2.8020)  can1  8580C02   [8]  00 00 00 00 00 00 00 00
 (2.8040)  can1  8041001   [8]  36 02 70 CF 08 D1 1D 00
 (2.8080)  can1  4100209   [8]  93 12 16 00 00 00 00 00
 (2.8100)  can1  4100208   [8]  33 8B 15 00 00 00 00 00
 (2.8170)  can1  18800401   [8]  10 E0 8F E1 8F D9 8F 00
 (2.8170)  can1  18840401   [8]  10 DF 8F E1 8F D9 8F 00
 (2.8180)  can1  4100209   [8]  93 12 16 00 00 00 00 00
 (2.8180)  can1  18C00401   [8]  10 7A 30 C7 30 10 27 00
 (2.8200)  can1  4100208   [8]  33 8B 15 00 00 00 00 00
 (2.8210)  can1  8010C01   [8]  00 00 00 00 00 00 00 00
 (2.8210)  can1  8101201   [8]  00 00 61 90 F5 8C 00 00
 (2.8210)  can1  8100302   [5]  00 00 0A 00 09
 (2.8210)  can1  8580C02   [8]  00 00 00 00 00 00 00 00
 (2.8220)  can1  89A0C02   [8]  CC 0B 00 00 CC 0B 00 00
 (2.8220)  can1  8030C02   [8]  00 00 2A 68 2A 68 92 17
 (2.8280)  can1  4100209   [8]  93 12 16 00 00 00 00 00
 (2.8300)  can1  4100208   [8]  33 8B 15 00 00 00 00 00
 (2.8380)  can1  4100209   [8]  93 12 16 00 00 00 00 00
 (2.8400)  can1  4100208   [8]  33 8B 15 00 00 00 00 00
 (2.8410)  can1  89A0C02   [8]  CC 0B 00 00 CC 0B 00 00
 (2.8420)  can1  8030C02   [8]  00 00 2A 68 2A 68 92 17
 (2.8420)  can1  8580C02   [8]  00 00 00 00 00 00 00 00
 (2.8460)  can1  8100302   [5]  00 01 0A 00 09
 (2.8470)  can1  4100209   [8]  93 12 16 00 00 00 00 00
 (2.8500)  can1  4100208   [8]  33 8B 15 00 00 00 00 00
 (2.8570)  can1  4100209   [8]  93 12 16 00 00 00 00 00
 (2.8600)  can1  4100208   [8]  33 8B 15 00 00 00 00 00
 (2.8610)  can1  89A0C02   [8]  CC 0B 00 00 CC 0B 00 00
 (2.8620)  can1  8030C02   [8]  00 00 2A 68 2A 68 92 17
 (2.8620)  can1  8580C02   [8]  00 00 00 00 00 00 00 00
 (2.8670)  can1  18800401   [8]  11 C3 8F BB 8F C9 8F 00
 (2.8680)  can1  18840401   [8]  11 C3 8F BB 8F C9 8F 00
 (2.8680)  can1  4100209   [8]  93 12 16 00 00 00 00 00
 (2.8680)  can1  18C00401   [8]  11 10 27 10 27 10 27 00
 (2.8700)  can1  4100208   [8]  33 8B 15 00 00 00 00 00
 (2.8710)  can1  8100302   [5]  00 01 0A 00 09
 (2.8780)  can1  4100209   [8]  93 12 16 00 00 00 00 00
 (2.8800)  can1  4100208   [8]  33 8B 15 00 00 00 00 00
 (2.8810)  can1  89A0C02   [8]  CC 0B 00 00 CC 0B 00 00
 (2.8820)  can1  8030C02   [8]  00 00 2A 68 2A 68 92 17
 (2.8820)  can1  8580C02   [8]  00 00 00 00 00 00 00 00
 (2.8880)  can1  4100209   [8]  93 12 16 00 00 00 00 00
 (2.8900)  can1  4100208   [8]  33 8B 15 00 00 00 00 00
 (2.8960)  can1  8100302   [5]  00 01 0A 00 09
 (2.8980)  can1  4100209   [8]  93 12 16 00 00 00 00 00
 (2.9000)  can1  4100208   [8]  33 8B 15 00 00 00 00 00
 (2.9010)  can1  89A0C02   [8]  CC 0B 00 00 CC 0B 00 00
 (2.9020)  can1  8030C02   [8]  00 00 2A 68 2A 68 92 17
 (2.9020)  can1  8580C02   [8]  00 00 00 00 00 00 00 00
 (2.9040)  can1  8041001   [8]  36 02 70 CF 08 D1 1D 00
 (2.9080)  can1  4100209   [8]  93 12 16 00 00 00 00 00
 (2.9100)  can1  4100208   [8]  33 8B 15 00 00 00 00 00
 (2.9170)  can1  18800401   [8]  12 05 90 F6 8F BD 8F 00
 (2.9170)  can1  18840401   [8]  12 04 90 F5 8F BC 8F 00
 (2.9180)  can1  4100209   [8]  93 12 16 00 00 00 00 00
 (2.9180)  can1  18C00401   [8]  12 10 27 10 27 25 2F 00
 (2.9200)  can1  4100208   [8]  33 8B 15 00 00 00 00 00
 (2.9210)  can1  8101201   [8]  00 00 63 90 F6 8C 00 00
 (2.9220)  can1  8010C01   [8]  00 00 00 00 00 00 00 00
 (2.9220)  can1  8100302   [5]  00 00 0A 00 09
 (2.9220)  can1  8580C02   [8]  00 00 00 00 00 00 00 00
 (2.9220)  can1  89A0C02   [8]  CC 0B 00 00 CC 0B 00 00
 (2.9230)  can1  8030C02   [8]  00 00 2A 68 2A 68 92 17
 (2.9280)  can1  4100209   [8]  93 12 16 00 00 00 00 00
 (2.9300)  can1  4100208   [8]  33 8B 15 00 00 00 00 00
 (2.9380)  can1  4100209   [8]  93 12 16 00 00 00 00 00
 (2.9400)  can1  4100208   [8]  33 8B 15 00 00 00 00 00
 (2.9410)  can1  89A0C02   [8]  CC 0B 00 00 CC 0B 00 00
 (2.9420)  can1  8030C02   [8]  00 00 2A 68 2A 68 92 17
 (2.9420)  can1  8580C02   [8]  00 00 00 00 00 00 00 00
 (2.9460)  can1  8100302   [5]  00 00 0A 00 09
 (2.9480)  can1  4100209   [8]  93 12 16 00 00 00 00 00
 (2.9500)  can1  4100208   [8]  33 8B 15 00 00 00 00 00
 (2.9580)  can1  4100209   [8]  93 12 16 00 00 00 00 00
 (2.9600)  can1  4100208   [8]  33 8B 15 00 00 00 00 00
 (2.9610)  can1  89A0C02   [8]  CC 0B 00 00 CC 0B 00 00
 (2.9620)  can1  8030C02   [8]  00 00 2A 68 2A 68 92 17
 (2.9620)  can1  8580C02   [8]  00 00 00 00 00 00 00 00
 (2.9670)  can1  18800401   [8]  13 B6 8F A0 8F B4 8F 00
 (2.9680)  can1  18840401   [8]  13 B6 8F A2 8F B4 8F 00
 (2.9680)  can1  4100209   [8]  93 12 16 00 00 00 00 00
 (2.9680)  can1  18C00401   [8]  13 85 2F D4 2F 12 30 00
 (2.9700)  can1  4100208   [8]  33 8B 15 00 00 00 00 00
 (2.9710)  can1  8100302   [5]  00 00 0A 00 09
 (2.9780)  can1  4100209   [8]  93 12 16 00 00 00 00 00
 (2.9800)  can1  4100208   [8]  33 8B 15 00 00 00 00 00
 (2.9810)  can1  89A0C02   [8]  CC 0B 00 00 CC 0B 00 00
 (2.9820)  can1  8030C02   [8]  00 00 2A 68 2A 68 92 17
 (2.9820)  can1  8580C02   [8]  00 00 00 00 00 00 00 00
 (2.9880)  can1  4100209   [8]  93 12 16 00 00 00 00 00
 (2.9900)  can1  4100208   [8]  33 8B 15 00 00 00 00 00
 (2.9960)  can1  8100302   [5]  00 01 0A 00 09
 (2.9980)  can1  4100209   [8]  93 12 16 00 00 00 00 00
 (3.0000)  can1  4100208   [8]  33 8B 15 00 00 00 00 00
 (3.0010)  can1  89A0C02   [8]  CC 0B 00 00 CC 0B 00 00
 (3.0020)  can1  8030C02   [8]  00 00 2A 68 2A 68 92 17
 (3.0020)  can1  8580C02   [8]  00 00 00 00 00 00 00 00
 (3.0040)  can1  8041001   [8]  36 02 70 CF 08 D1 1D 00
 (3.0080)  can1  4100209   [8]  93 12 16 00 00 00 00 00
 (3.0100)  can1  4100208   [8]  33 8B 15 00 00 00 00 00
 (3.0140)  can1  404FF01   [1]  00
 (3.0170)  can1  8120C01   [8]  90 00 00 00 00 00 00 00
 (3.0180)  can1  80F1201   [4]  C6 11 00 00
 (3.0180)  can1  4100209   [8]  93 12 16 00 00 00 00 00
 (3.0190)  can1  18800401   [8]  14 BE 8F E8 8F DF 8F 00
 (3.0190)  can1  18840401   [8]  14 BF 8F E8 8F E1 8F 00
 (3.0190)  can1  18C00401   [8]  14 F4 2F 26 30 F3 2F 00
 (3.0200)  can1  4100208   [8]  33 8B 15 00 00 00 00 00
 (3.0210)  can1  8100302   [5]  00 00 0A 00 09
 (3.0220)  can1  8580C02   [8]  00 00 00 00 00 00 00 00
 (3.0220)  can1  89A0C02   [8]  CC 0B 00 00 CC 0B 00 00
 (3.0230)  can1  8010C01   [8]  00 00 00 00 00 00 00 00
 (3.0240)  can1  8030C02   [8]  00 00 2A 68 2A 68 92 17
 (3.0240)  can1  8101201   [8]  00 00 60 90 F6 8C 01 00
 (3.0280)  can1  4100209   [8]  93 12 16 00 00 00 00 00
 (3.0300)  can1  4100208   [8]  33 8B 15 00 00 00 00 00
 (3.0380)  can1  4100209   [8]  93 12 16 00 00 00 00 00
 (3.0400)  can1  4100208   [8]  33 8B 15 00 00 00 00 00
 (3.0410)  can1  89A0C02   [8]  CC 0B 00 00 CC 0B 00 00
 (3.0420)  can1  8030C02   [8]  00 00 2A 68 2A 68 92 17
 (3.0420)  can1  8580C02   [8]  00 00 00 00 00 00 00 00
 (3.0460)  can1  8100302   [5]  00 01 0A 00 09
 (3.0480)  can1  4100209   [8]  93 12 16 00 00 00 00 00
 (3.0500)  can1  4100208   [8]  33 8B 15 00 00 00 00 00
 (3.0580)  can1  4100209   [8]  93 12 16 00 00 00 00 00
 (3.0600)  can1  4100208   [8]  33 8B 15 00 00 00 00 00
 (3.0610)  can1  89A0C02   [8]  CC 0B 00 00 CC 0B 00 00
 (3.0620)  can1  8030C02   [8]  00 00 2A 68 2A 68 92 17
 (3.0620)  can1  8580C02   [8]  00 00 00 00 00 00 00 00
 (3.0670)  can1  18800401   [8]  15 FB 8F EA 8F D1 8F 00
 (3.0680)  can1  18840401   [8]  15 FA 8F E9 8F D0 8F 00
 (3.0680)  can1  4100209   [8]  93 12 16 00 00 00 00 00
 (3.0680)  can1  18C00401   [8]  15 36 30 B7 2F 10 30 00
 (3.0700)  can1  4100208   [8]  33 8B 15 00 00 00 00 00
 (3.0710)  can1  8100302   [5]  00 00 0A 00 09
 (3.0780)  can1  4100209   [8]  93 12 16 00 00 00 00 00
 (3.0800)  can1  4100208   [8]  33 8B 15 00 00 00 00 00
 (3.0810)  can1  89A0C02   [8]  CC 0B 00 00 CC 0B 00 00
 (3.0820)  can1  8030C02   [8]  00 00 2A 68 2A 68 92 17
 (3.0820)  can1  8580C02   [8]  00 00 00 00 00 00 00 00
 (3.0880)  can1  4100209   [8]  93 12 16 00 00 00 00 00
 (3.0900)  can1  4100208   [8]  33 8B 15 00 00 00 00 00
 (3.0960)  can1  8100302   [5]  00 01 0A 00 09
 (3.0980)  can1  4100209   [8]  93 12 16 00 00 00 00 00
 (3.1000)  can1  4100208   [8]  33 8B 15 00 00 00 00 00
 (3.1010)  can1  89A0C02   [8]  CC 0B 00 00 CC 0B 00 00
 (3.1020)  can1  8030C02   [8]  00 00 2A 68 2A 68 92 17
 (3.1020)  can1  8580C02   [8]  00 00 00 00 00 00 00 00
 (3.1040)  can1  8041001   [8]  36 02 70 CF 08 D1 1D 00
 (3.1080)  can1  4100209   [8]  93 12 16 00 00 00 00 00
 (3.1100)  can1  4100208   [8]  33 8B 15 00 00 00 00 00
 (3.1170)  can1  18800401   [8]  16 C9 8F E0 8F 07 90 00
 (3.1170)  can1  18840401   [8]  16 C8 8F DF 8F 08 90 00
 (3.1180)  can1  4100209   [8]  93 12 16 00 00 00 00 00
 (3.1180)  can1  18C00401   [8]  16 A2 2F 10 27 10 27 00
 (3.1200)  can1  4100208   [8]  33 8B 15 00 00 00 00 00
 (3.1210)  can1  8100302   [5]  00 01 0A 00 09
 (3.1220)  can1  8580C02   [8]  00 00 00 00 00 00 00 00
 (3.1220)  can1  89A0C02   [8]  CC 0B 00 00 CC 0B 00 00
 (3.1230)  can1  8030C02   [8]  00 00 2A 68 2A 68 92 17
 (3.1230)  can1  8101201   [8]  00 00 62 90 F7 8C 01 00
 (3.1240)  can1  8010C01   [8]  00 00 00 00 00 00 00 00
 (3.1280)  can1  4100209   [8]  93 12 16 00 00 00 00 00
 (3.1300)  can1  4100208   [8]  33 8B 15 00 00 00 00 00
 (3.1380)  can1  4100209   [8]  93 12 16 00 00 00 00 00
 (3.1400)  can1  4100208   [8]  33 8B 15 00 00 00 00 00
 (3.1410)  can1  89A0C02   [8]  CC 0B 00 00 CC 0B 00 00
 (3.1420)  can1  8030C02   [8]  00 00 2A 68 2A 68 92 17
 (3.1420)  can1  8580C02   [8]  00 00 00 00 00 00 00 00
 (3.1460)  can1  8100302   [5]  00 00 0A 00 09
 (3.1480)  can1  4100209   [8]  93 12 16 00 00 00 00 00
 (3.1500)  can1  4100208   [8]  33 8B 15 00 00 00 00 00
 (3.1580)  can1  4100209   [8]  93 12 16 00 00 00 00 00
 (3.1600)  can1  4100208   [8]  33 8B 15 00 00 00 00 00
 (3.1610)  can1  89A0C02   [8]  CC 0B 00 00 CC 0B 00 00
 (3.1620)  can1  8030C02   [8]  00 00 2A 68 2A 68 92 17
 (3.1620)  can1  8580C02   [8]  00 00 00 00 00 00 00 00
 (3.1670)  can1  18800401   [8]  17 FD 8F 00 00 00 00 00
 (3.1670)  can1  18840401   [8]  17 FB 8F 00 00 00 00 00
 (3.1680)  can1  4100209   [8]  93 12 16 00 00 00 00 00
 (3.1680)  can1  18C00401   [8]  17 10 27 10 27 10 27 00
 (3.1700)  can1  4100208   [8]  33 8B 15 00 00 00 00 00
 (3.1710)  can1  8100302   [5]  00 01 0A 00 09
 (3.1780)  can1  4100209   [8]  93 12 16 00 00 00 00 00
 (3.1800)  can1  4100208   [8]  33 8B 15 00 00 00 00 00
 (3.1810)  can1  89A0C02   [8]  CC 0B 00 00 CC 0B 00 00
 (3.1820)  can1  8030C02   [8]  00 00 2A 68 2A 68 92 17
 (3.1820)  can1  8580C02   [8]  00 00 00 00 00 00 00 00
 (3.1880)  can1  4100209   [8]  93 12 16 00 00 00 00 00
 (3.1900)  can1  4100208   [8]  33 8B 15 00 00 00 00 00
 (3.1960)  can1  8100302   [5]  00 00 0A 00 09
 (3.1980)  can1  4100209   [8]  93 12 16 00 00 00 00 00
 (3.2000)  can1  4100208   [8]  33 8B 15 00 00 00 00 00
 (3.2010)  can1  89A0C02   [8]  CC 0B 00 00 CC 0B 00 00
 (3.2020)  can1  8030C02   [8]  00 00 2A 68 2A 68 92 17
 (3.2020)  can1  8580C02   [8]  00 00 00 00 00 00 00 00
 (3.2040)  can1  8041001   [8]  36 02 70 CF 08 D1 1D 00
 (3.2080)  can1  4100209   [8]  93 12 16 00 00 00 00 00
 (3.2100)  can1  4100208   [8]  33 8B 15 00 00 00 00 00
 (3.2170)  can1  18800401   [8]  00 61 90 73 8F 59 8F 00
 (3.2180)  can1  18840401   [8]  00 61 90 73 8F 58 8F 00
 (3.2180)  can1  4100209   [8]  93 12 16 00 00 00 00 00
 (3.2180)  can1  18C00401   [8]  00 BC 2F 42 2F 21 30 00
 (3.2200)  can1  4100208   [8]  33 8B 15 00 00 00 00 00
 (3.2210)  can1  8100302   [5]  00 00 0A 00 09
 (3.2220)  can1  8580C02   [8]  00 00 00 00 00 00 00 00
 (3.2230)  can1  89A0C02   [8]  CC 0B 00 00 CC 0B 00 00
 (3.2230)  can1  8030C02   [8]  00 00 2A 68 2A 68 92 17
 (3.2240)  can1  8101201   [8]  00 00 61 90 F7 8C 00 00
 (3.2240)  can1  8010C01   [8]  00 00 00 00 00 00 00 00
 (3.2280)  can1  4100209   [8]  93 12 16 00 00 00 00 00
 (3.2300)  can1  4100208   [8]  33 8B 15 00 00 00 00 00
 (3.2380)  can1  4100209   [8]  93 12 16 00 00 00 00 00
 (3.2400)  can1  4100208   [8]  33 8B 15 00 00 00 00 00
 (3.2410)  can1  89A0C02   [8]  CC 0B 00 00 CC 0B 00 00
 (3.2420)  can1  8030C02   [8]  00 00 2A 68 2A 68 92 17
 (3.2420)  can1  8580C02   [8]  00 00 00 00 00 00 00 00
 (3.2460)  can1  8100302   [5]  00 01 0A 00 09
 (3.2480)  can1  4100209   [8]  93 12 16 00 00 00 00 00
 (3.2500)  can1  4100208   [8]  33 8B 15 00 00 00 00 00
 (3.2580)  can1  4100209   [8]  93 12 16 00 00 00 00 00
 (3.2600)  can1  4100208   [8]  33 8B 15 00 00 00 00 00
 (3.2610)  can1  89A0C02   [8]  CC 0B 00 00 CC 0B 00 00
 (3.2620)  can1  8030C02   [8]  00 00 2A 68 2A 68 92 17
 (3.2620)  can1  8580C02   [8]  00 00 00 00 00 00 00 00
 (3.2660)  can1  18101203   [4]  D6 2C 79 01
 (3.2670)  can1  18800401   [8]  01 65 8F 78 8F 70 8F 00
 (3.2680)  can1  18840401   [8]  01 64 8F 78 8F 70 8F 00
 (3.2680)  can1  4100209   [8]  93 12 16 00 00 00 00 00
 (3.2680)  can1  18C00401   [8]  01 DD 2F 4C 30 FC 2F 00
 (3.2700)  can1  4100208   [8]  33 8B 15 00 00 00 00 00
 (3.2710)  can1  8100302   [5]  00 01 0A 00 09
 (3.2780)  can1  4100209   [8]  93 12 16 00 00 00 00 00
 (3.2800)  can1  4100208   [8]  33 8B 15 00 00 00 00 00
 (3.2810)  can1  89A0C02   [8]  CC 0B 00 00 CC 0B 00 00
 (3.2820)  can1  8030C02   [8]  00 00 2A 68 2A 68 92 17
 (3.2820)  can1  8580C02   [8]  00 00 00 00 00 00 00 00
 (3.2880)  can1  4100209   [8]  93 12 16 00 00 00 00 00
 (3.2900)  can1  4100208   [8]  33 8B 15 00 00 00 00 00
 (3.2960)  can1  8100302   [5]  00 00 0A 00 09
 (3.2980)  can1  4100209   [8]  93 12 16 00 00 00 00 00
 (3.3000)  can1  4100208   [8]  33 8B 15 00 00 00 00 00
 (3.3010)  can1  89A0C02   [8]  CC 0B 00 00 CC 0B 00 00
 (3.3020)  can1  8030C02   [8]  00 00 2A 68 2A 68 92 17
 (3.3020)  can1  8580C02   [8]  00 00 00 00 00 00 00 00
 (3.3040)  can1  8041001   [8]  36 02 70 CF 08 D1 1D 00
 (3.3080)  can1  4100209   [8]  93 12 16 00 00 00 00 00
 (3.3100)  can1  4100208   [8]  33 8B 15 00 00 00 00 00
 (3.3170)  can1  18800401   [8]  02 94 8F FC 8F E7 8F 00
 (3.3170)  can1  18840401   [8]  02 93 8F FC 8F E7 8F 00
 (3.3180)  can1  4100209   [8]  93 12 16 00 00 00 00 00
 (3.3180)  can1  18C00401   [8]  02 27 30 F3 2F 09 30 00
 (3.3200)  can1  4100208   [8]  33 8B 15 00 00 00 00 00
 (3.3210)  can1  8100302   [5]  00 00 0A 00 09
 (3.3220)  can1  8580C02   [8]  00 00 00 00 00 00 00 00
 (3.3220)  can1  89A0C02   [8]  CC 0B 00 00 CC 0B 00 00
 (3.3220)  can1  8030C02   [8]  00 00 2A 68 2A 68 92 17
 (3.3250)  can1  8101201   [8]  00 00 64 90 F8 8C 00 00
 (3.3260)  can1  8010C01   [8]  00 00 00 00 00 00 00 00
 (3.3280)  can1  4100209   [8]  93 12 16 00 00 00 00 00
 (3.3300)  can1  4100208   [8]  33 8B 15 00 00 00 00 00
 (3.3380)  can1  4100209   [8]  93 12 16 00 00 00 00 00
 (3.3400)  can1  4100208   [8]  33 8B 15 00 00 00 00 00
 (3.3410)  can1  89A0C02   [8]  CC 0B 00 00 CC 0B 00 00
 (3.3420)  can1  8030C02   [8]  00 00 2A 68 2A 68 92 17
 (3.3420)  can1  8580C02   [8]  00 00 00 00 00 00 00 00
 (3.3460)  can1  8100302   [5]  00 01 0A 00 09
 (3.3480)  can1  4100209   [8]  93 12 16 00 00 00 00 00
 (3.3500)  can1  4100208   [8]  33 8B 15 00 00 00 00 00
 (3.3580)  can1  4100209   [8]  93 12 16 00 00 00 00 00
 (3.3600)  can1  4100208   [8]  33 8B 15 00 00 00 00 00
 (3.3610)  can1  89A0C02   [8]  CC 0B 00 00 CC 0B 00 00
 (3.3620)  can1  8030C02   [8]  00 00 2A 68 2A 68 92 17
 (3.3620)  can1  8580C02   [8]  00 00 00 00 00 00 00 00
 (3.3670)  can1  18800401   [8]  03 D7 8F CA 8F DE 8F 00
 (3.3680)  can1  18840401   [8]  03 D7 8F C9 8F DE 8F 00
 (3.3680)  can1  4100209   [8]  93 12 16 00 00 00 00 00
 (3.3680)  can1  18C00401   [8]  03 E2 2F D7 2F A4 2F 00
 (3.3700)  can1  4100208   [8]  33 8B 15 00 00 00 00 00
 (3.3710)  can1  8100302   [5]  00 01 0A 00 09
 (3.3780)  can1  4100209   [8]  93 12 16 00 00 00 00 00
 (3.3800)  can1  4100208   [8]  33 8B 15 00 00 00 00 00
 (3.3810)  can1  89A0C02   [8]  CC 0B 00 00 CC 0B 00 00
 (3.3820)  can1  8030C02   [8]  00 00 2A 68 2A 68 92 17
 (3.3820)  can1  8580C02   [8]  00 00 00 00 00 00 00 00
 (3.3880)  can1  4100209   [8]  93 12 16 00 00 00 00 00
 (3.3900)  can1  4100208   [8]  33 8B 15 00 00 00 00 00
 (3.3960)  can1  8100302   [5]  00 01 0A 00 09
 (3.3980)  can1  4100209   [8]  93 12 16 00 00 00 00 00
 (3.4000)  can1  4100208   [8]  33 8B 15 00 00 00 00 00
 (3.4010)  can1  89A0C02   [8]  CC 0B 00 00 CC 0B 00 00
 (3.4020)  can1  8030C02   [8]  00 00 2A 68 2A 68 92 17
 (3.4020)  can1  8580C02   [8]  00 00 00 00 00 00 00 00
 (3.4040)  can1  8041001   [8]  36 02 70 CF 08 D1 1D 00
 (3.4080)  can1  4100209   [8]  93 12 16 00 00 00 00 00
 (3.4100)  can1  4100208   [8]  33 8B 15 00 00 00 00 00
 (3.4170)  can1  18800401   [8]  04 FE 8F EF 8F F8 8C 00
 (3.4180)  can1  18840401   [8]  04 FE 8F EF 8F F8 8C 00
 (3.4180)  can1  4100209   [8]  93 12 16 00 00 00 00 00
 (3.4180)  can1  18C00401   [8]  04 06 2F EF 2E 31 30 00
 (3.4200)  can1  4100208   [8]  33 8B 15 00 00 00 00 00
 (3.4210)  can1  8100302   [5]  00 00 0A 00 09
 (3.4220)  can1  8580C02   [8]  00 00 00 00 00 00 00 00
 (3.4220)  can1  89A0C02   [8]  CC 0B 00 00 CC 0B 00 00
 (3.4230)  can1  8030C02   [8]  00 00 2A 68 2A 68 92 17
 (3.4260)  can1  8101201   [8]  00 00 62 90 F8 8C 01 00
 (3.4270)  can1  8010C01   [8]  00 00 00 00 00 00 00 00
 (3.4280)  can1  4100209   [8]  93 12 16 00 00 00 00 00
 (3.4300)  can1  4100208   [8]  33 8B 15 00 00 00 00 00
 (3.4380)  can1  4100209   [8]  93 12 16 00 00 00 00 00
 (3.4400)  can1  4100208   [8]  33 8B 15 00 00 00 00 00
 (3.4410)  can1  89A0C02   [8]  CC 0B 00 00 CC 0B 00 00
 (3.4420)  can1  8030C02   [8]  00 00 2A 68 2A 68 92 17
 (3.4420)  can1  8580C02   [8]  00 00 00 00 00 00 00 00
 (3.4460)  can1  8100302   [5]  00 01 0A 00 09
 (3.4480)  can1  4100209   [8]  93 12 16 00 00 00 00 00
 (3.4500)  can1  4100208   [8]  33 8B 15 00 00 00 00 00
 (3.4580)  can1  4100209   [8]  93 12 16 00 00 00 00 00
 (3.4600)  can1  4100208   [8]  33 8B 15 00 00 00 00 00
 (3.4610)  can1  89A0C02   [8]  CC 0B 00 00 CC 0B 00 00
 (3.4620)  can1  8030C02   [8]  00 00 2A 68 2A 68 92 17
 (3.4620)  can1  8580C02   [8]  00 00 00 00 00 00 00 00
 (3.4670)  can1  18800401   [8]  05 CD 8F BC 8F C5 8F 00
 (3.4680)  can1  18840401   [8]  05 CD 8F BC 8F C5 8F 00
 (3.4680)  can1  4100209   [8]  93 12 16 00 00 00 00 00
 (3.4690)  can1  18C00401   [8]  05 06 30 72 30 77 30 00
 (3.4700)  can1  4100208   [8]  33 8B 15 00 00 00 00 00
 (3.4710)  can1  8100302   [5]  00 01 0A 00 09
 (3.4780)  can1  4100209   [8]  93 12 16 00 00 00 00 00
 (3.4800)  can1  4100208   [8]  33 8B 15 00 00 00 00 00
 (3.4810)  can1  89A0C02   [8]  CC 0B 00 00 CC 0B 00 00
 (3.4820)  can1  8030C02   [8]  00 00 2A 68 2A 68 92 17
 (3.4820)  can1  8580C02   [8]  00 00 00 00 00 00 00 00
 (3.4880)  can1  4100209   [8]  93 12 16 00 00 00 00 00
 (3.4900)  can1  4100208   [8]  33 8B 15 00 00 00 00 00
 (3.4960)  can1  8100302   [5]  00 01 0A 00 09
 (3.4980)  can1  4100209   [8]  93 12 16 00 00 00 00 00
 (3.5000)  can1  4100208   [8]  33 8B 15 00 00 00 00 00
 (3.5010)  can1  89A0C02   [8]  CC 0B 00 00 CC 0B 00 00
 (3.5020)  can1  8030C02   [8]  00 00 2A 68 2A 68 92 17
 (3.5020)  can1  8580C02   [8]  00 00 00 00 00 00 00 00
 (3.5040)  can1  8041001   [8]  36 02 F0 3B FD A6 1B 00
 (3.5080)  can1  4100209   [8]  93 12 16 00 00 00 00 00
 (3.5100)  can1  4100208   [8]  33 8B 15 00 00 00 00 00
 (3.5170)  can1  18800401   [8]  06 C6 8F 01 90 0E 90 00
 (3.5180)  can1  18840401   [8]  06 C6 8F 01 90 0D 90 00
 (3.5180)  can1  4100209   [8]  93 12 16 00 00 00 00 00
 (3.5180)  can1  18C00401   [8]  06 60 30 AE 30 6D 30 00
 (3.5200)  can1  4100208   [8]  33 8B 15 00 00 00 00 00
 (3.5210)  can1  8100302   [5]  00 00 0A 00 09
 (3.5210)  can1  8580C02   [8]  00 00 00 00 00 00 00 00
 (3.5220)  can1  89A0C02   [8]  CC 0B 00 00 CC 0B 00 00
 (3.5230)  can1  8030C02   [8]  00 00 2A 68 2A 68 92 17
 (3.5270)  can1  8101201   [8]  00 00 63 90 F8 8C 01 00
 (3.5280)  can1  8010C01   [8]  00 00 00 00 00 00 00 00
 (3.5280)  can1  4100209   [8]  93 12 16 00 00 00 00 00
 (3.5300)  can1  4100208   [8]  33 8B 15 00 00 00 00 00
 (3.5380)  can1  4100209   [8]  93 12 16 00 00 00 00 00
 (3.5400)  can1  4100208   [8]  33 8B 15 00 00 00 00 00
 (3.5410)  can1  89A0C02   [8]  CC 0B 00 00 CC 0B 00 00
 (3.5420)  can1  8030C02   [8]  00 00 2A 68 2A 68 92 17
 (3.5420)  can1  8580C02   [8]  00 00 00 00 00 00 00 00
 (3.5460)  can1  8100302   [5]  00 00 0A 00 09
 (3.5480)  can1  4100209   [8]  93 12 16 00 00 00 00 00
 (3.5500)  can1  4100208   [8]  33 8B 15 00 00 00 00 00
 (3.5580)  can1  4100209   [8]  93 12 16 00 00 00 00 00
 (3.5600)  can1  4100208   [8]  33 8B 15 00 00 00 00 00
 (3.5610)  can1  89A0C02   [8]  CC 0B 00 00 CC 0B 00 00
 (3.5620)  can1  8030C02   [8]  00 00 2A 68 2A 68 92 17
 (3.5620)  can1  8580C02   [8]  00 00 00 00 00 00 00 00
 (3.5670)  can1  18800401   [8]  07 03 90 F6 8F D8 8F 00
 (3.5680)  can1  18840401   [8]  07 04 90 F6 8F D8 8F 00
 (3.5680)  can1  4100209   [8]  93 12 16 00 00 00 00 00
 (3.5690)  can1  18C00401   [8]  07 B8 30 47 30 AC 30 00
 (3.5700)  can1  4100208   [8]  33 8B 15 00 00 00 00 00
 (3.5710)  can1  8100302   [5]  00 00 0A 00 09
 (3.5780)  can1  4100209   [8]  93 12 16 00 00 00 00 00
 (3.5800)  can1  4100208   [8]  33 8B 15 00 00 00 00 00
 (3.5810)  can1  89A0C02   [8]  CC 0B 00 00 CC 0B 00 00
 (3.5820)  can1  8030C02   [8]  00 00 2A 68 2A 68 92 17
 (3.5830)  can1  8580C02   [8]  00 00 00 00 00 00 00 00
 (3.5880)  can1  4100209   [8]  93 12 16 00 00 00 00 00
 (3.5900)  can1  4100208   [8]  33 8B 15 00 00 00 00 00
 (3.5960)  can1  8100302   [5]  00 00 0A 00 09
 (3.5980)  can1  4100209   [8]  93 12 16 00 00 00 00 00
 (3.6000)  can1  4100208   [8]  33 8B 15 00 00 00 00 00
 (3.6010)  can1  89A0C02   [8]  CC 0B 00 00 CC 0B 00 00
 (3.6020)  can1  8030C02   [8]  00 00 2A 68 2A 68 92 17
 (3.6020)  can1  8580C02   [8]  00 00 00 00 00 00 00 00
 (3.6040)  can1  8041001   [8]  36 02 F0 3B FD A6 1B 00
 (3.6080)  can1  4100209   [8]  93 12 16 00 00 00 00 00
 (3.6100)  can1  4100208   [8]  33 8B 15 00 00 00 00 00
 (3.6170)  can1  18800401   [8]  08 D0 8F 28 8D 26 90 00
 (3.6180)  can1  18840401   [8]  08 D0 8F 28 8D 26 90 00
 (3.6180)  can1  4100209   [8]  93 12 16 00 00 00 00 00
 (3.6190)  can1  18C00401   [8]  08 15 30 95 30 B4 2F 00
 (3.6200)  can1  4100208   [8]  33 8B 15 00 00 00 00 00
 (3.6210)  can1  8100302   [5]  00 00 0A 00 09
 (3.6220)  can1  8580C02   [8]  00 00 00 00 00 00 00 00
 (3.6220)  can1  89A0C02   [8]  CC 0B 00 00 CC 0B 00 00
 (3.6230)  can1  8030C02   [8]  00 00 2A 68 2A 68 92 17
 (3.6280)  can1  4100209   [8]  93 12 16 00 00 00 00 00
 (3.6280)  can1  8101201   [8]  00 00 5F 90 F7 8C 01 00
 (3.6290)  can1  8010C01   [8]  00 00 00 00 00 00 00 00
 (3.6300)  can1  4100208   [8]  33 8B 15 00 00 00 00 00
 (3.6380)  can1  4100209   [8]  93 12 16 00 00 00 00 00
 (3.6400)  can1  4100208   [8]  33 8B 15 00 00 00 00 00
 (3.6410)  can1  89A0C02   [8]  CC 0B 00 00 CC 0B 00 00
 (3.6420)  can1  8030C02   [8]  00 00 2A 68 2A 68 92 17
 (3.6420)  can1  8580C02   [8]  00 00 00 00 00 00 00 00
 (3.6460)  can1  8100302   [5]  00 00 0A 00 09
 (3.6480)  can1  4100209   [8]  93 12 16 00 00 00 00 00
 (3.6500)  can1  4100208   [8]  33 8B 15 00 00 00 00 00
 (3.6580)  can1  4100209   [8]  93 12 16 00 00 00 00 00
 (3.6600)  can1  4100208   [8]  33 8B 15 00 00 00 00 00
 (3.6610)  can1  89A0C02   [8]  CC 0B 00 00 CC 0B 00 00
 (3.6620)  can1  8030C02   [8]  00 00 2A 68 2A 68 92 17
 (3.6620)  can1  8580C02   [8]  00 00 00 00 00 00 00 00
 (3.6660)  can1  404FF03   [1]  00
 (3.6670)  can1  18800401   [8]  09 1B 90 D5 8F C5 8F 00
 (3.6670)  can1  18840401   [8]  09 1B 90 D7 8F C5 8F 00
 (3.6680)  can1  4100209   [8]  93 12 16 00 00 00 00 00
 (3.6690)  can1  8250C03   [8]  00 00 00 00 00 00 00 00
 (3.6690)  can1  8840C03   [8]  2D 00 13 00 21 00 07 00
 (3.6690)  can1  88D0C03   [8]  15 00 00 00 00 00 00 00
 (3.6690)  can1  18C00401   [8]  09 12 30 C4 2F 26 30 00
 (3.6700)  can1  4100208   [8]  33 8B 15 00 00 00 00 00
 (3.6710)  can1  8100302   [5]  00 00 0A 00 09
 (3.6780)  can1  4100209   [8]  93 12 16 00 00 00 00 00
 (3.6800)  can1  4100208   [8]  33 8B 15 00 00 00 00 00
 (3.6810)  can1  89A0C02   [8]  CC 0B 00 00 CC 0B 00 00
 (3.6820)  can1  8030C02   [8]  00 00 2A 68 2A 68 92 17
 (3.6820)  can1  8580C02   [8]  00 00 00 00 00 00 00 00
 (3.6880)  can1  4100209   [8]  93 12 16 00 00 00 00 00
 (3.6900)  can1  4100208   [8]  33 8B 15 00 00 00 00 00
 (3.6960)  can1  8100302   [5]  00 00 0A 00 09
 (3.6980)  can1  4100209   [8]  93 12 16 00 00 00 00 00
 (3.7000)  can1  4100208   [8]  33 8B 15 00 00 00 00 00
 (3.7010)  can1  89A0C02   [8]  CC 0B 00 00 CC 0B 00 00
 (3.7020)  can1  8030C02   [8]  00 00 2A 68 2A 68 92 17
 (3.7020)  can1  8580C02   [8]  00 00 00 00 00 00 00 00
 (3.7040)  can1  8041001   [8]  36 02 F0 3B FD A6 1B 00
 (3.7080)  can1  4100209   [8]  93 12 16 00 00 00 00 00
 (3.7100)  can1  4100208   [8]  33 8B 15 00 00 00 00 00
 (3.7170)  can1  18800401   [8]  0A AA 8F BB 8F C7 8F 00
 (3.7170)  can1  18840401   [8]  0A A9 8F BB 8F C7 8F 00
 (3.7180)  can1  4100209   [8]  93 12 16 00 00 00 00 00
 (3.7180)  can1  18C00401   [8]  0A 65 30 A7 30 81 30 00
 (3.7200)  can1  4100208   [8]  33 8B 15 00 00 00 00 00
 (3.7210)  can1  404FF02   [1]  00
 (3.7220)  can1  8100302   [5]  00 00 0A 00 09
 (3.7220)  can1  89A0C02   [8]  CC 0B 00 00 CC 0B 00 00
 (3.7220)  can1  8580C02   [8]  00 00 00 00 00 00 00 00
 (3.7230)  can1  8030C02   [8]  00 00 2A 68 2A 68 92 17
 (3.7280)  can1  4100209   [8]  93 12 16 00 00 00 00 00
 (3.7290)  can1  8101201   [8]  00 00 60 90 F7 8C 00 00
 (3.7300)  can1  8010C01   [8]  00 00 00 00 00 00 00 00
 (3.7300)  can1  4100208   [8]  33 8B 15 00 00 00 00 00
 (3.7380)  can1  4100209   [8]  93 12 16 00 00 00 00 00
 (3.7390)  can1  404FF07   [1]  00
 (3.7400)  can1  4100208   [8]  33 8B 15 00 00 00 00 00
 (3.7410)  can1  89A0C02   [8]  CC 0B 00 00 CC 0B 00 00
 (3.7420)  can1  8030C02   [8]  00 00 2A 68 2A 68 92 17
 (3.7420)  can1  8580C02   [8]  00 00 00 00 00 00 00 00
 (3.7460)  can1  8100302   [5]  00 00 0A 00 09
 (3.7480)  can1  4100209   [8]  93 12 16 00 00 00 00 00
 (3.7500)  can1  4100208   [8]  33 8B 15 00 00 00 00 00
 (3.7580)  can1  4100209   [8]  93 12 16 00 00 00 00 00
 (3.7600)  can1  4100208   [8]  33 8B 15 00 00 00 00 00
 (3.7610)  can1  89A0C02   [8]  CC 0B 00 00 CC 0B 00 00
 (3.7620)  can1  8030C02   [8]  00 00 2A 68 2A 68 92 17
 (3.7620)  can1  8580C02   [8]  00 00 00 00 00 00 00 00
 (3.7660)  can1  18101203   [4]  C2 2C 82 01
 (3.7670)  can1  18800401   [8]  0B F5 8F F3 8F FC 8F 00
 (3.7670)  can1  18840401   [8]  0B F5 8F F4 8F FC 8F 00
 (3.7680)  can1  4100209   [8]  93 12 16 00 00 00 00 00
 (3.7680)  can1  18C00401   [8]  0B DE 30 8A 30 CC 30 00
 (3.7700)  can1  4100208   [8]  33 8B 15 00 00 00 00 00
 (3.7710)  can1  8100302   [5]  00 00 0A 00 09
 (3.7780)  can1  4100209   [8]  93 12 16 00 00 00 00 00
 (3.7800)  can1  4100208   [8]  33 8B 15 00 00 00 00 00
 (3.7810)  can1  89A0C02   [8]  CC 0B 00 00 CC 0B 00 00
 (3.7820)  can1  8030C02   [8]  00 00 2A 68 2A 68 92 17
 (3.7820)  can1  8580C02   [8]  00 00 00 00 00 00 00 00
 (3.7880)  can1  4100209   [8]  93 12 16 00 00 00 00 00
 (3.7900)  can1  4100208   [8]  33 8B 15 00 00 00 00 00
 (3.7960)  can1  8100302   [5]  00 00 0A 00 09
 (3.7980)  can1  4100209   [8]  93 12 16 00 00 00 00 00
 (3.8000)  can1  4100208   [8]  33 8B 15 00 00 00 00 00
 (3.8010)  can1  89A0C02   [8]  C