 (1.4110)  can1  8100302   [5]  01 00 0A 00 18
 (1.4180)  can1  4100209   [8]  E9 35 13 00 00 00 00 00
 (1.4190)  can1  585FF72   [8]  03 80 60 09 60 09 FF 8A
 (1.4190)  can1  586FF72   [8]  FE 7F FF FF FF FF F3 4D
 (1.4190)  can1  588FF72   [8]  A0 01 54 FF FF FF F8 59
 (1.4200)  can1  8100302   [5]  01 00 0A 00 18
 (1.4200)  can1  4100209   [8]  E9 35 13 00 00 00 00 00
 (1.4200)  can1  586FF72   [8]  FF 7F FF FF FF FF F5 19
 (1.4200)  can1  588FF72   [8]  A0 01 54 FF FF FF F2 59
 (1.4210)  can1  589FF72   [8]  1A D0 02 81 02 00 F2 87
 (1.4210)  can1  4100208   [8]  6F 10 13 00 00 00 00 00
 (1.4220)  can1  5807202   [8]  03 80 00 00 E0 01 00 BF
 (1.4230)  can1  5817202   [8]  01 00 10 27 10 27 03 E3
 (1.4240)  can1  4100209   [8]  E9 35 13 00 00 00 00 00
 (1.4250)  can1  585FF72   [8]  03 80 60 09 60 09 F1 8A
 (1.4250)  can1  5827202   [8]  FA 00 00 00 00 00 00 D4
 (1.4250)  can1  4100208   [8]  6F 10 13 00 00 00 00 00
 (1.4260)  can1  5907102   [8]  05 80 00 00 E0 01 00 68
 (1.4260)  can1  5917102   [8]  01 00 10 27 10 27 03 E3
 (1.4260)  can1  5927102   [8]  FA 00 00 00 00 00 00 D4
 (1.4270)  can1  5837202   [8]  2C 41 06 00 00 00 00 E0
 (1.4270)  can1  5847270   [8]  00 00 00 00 00 00 00 9F
 (1.4270)  can1  5937102   [8]  2C 41 06 00 00 00 00 E0
 (1.4280)  can1  5947102   [8]  00 00 00 00 00 00 00 9F
 (1.4280)  can1  8580C02   [8]  FF FF 00 00 00 00 00 00
 (1.4280)  can1  89A0C02   [8]  00 00 00 00 00 00 00 00
 (1.4280)  can1  8030C02   [8]  00 00 2A 68 2A 68 92 17
 (1.4300)  can1  595FF71   [8]  05 80 60 09 60 09 FB 5D
 (1.4300)  can1  596FF71   [8]  FF 7F FF FF FF FF F4 19
 (1.4320)  can1  4100209   [8]  E9 35 13 00 00 00 00 00
 (1.4330)  can1  586FF72   [8]  FF 7F FF FF FF FF F6 19
 (1.4330)  can1  4100208   [8]  6F 10 13 00 00 00 00 00
 (1.4360)  can1  8101201   [8]  D8 62 D6 8D F9 89 7B 00
 (1.4370)  can1  8010C01   [8]  5A 62 00 00 00 00 00 00
 (1.4370)  can1  8100302   [5]  01 00 0A 00 18
 (1.4420)  can1  89A0C02   [8]  00 00 00 00 00 00 00 00
 (1.4420)  can1  8030C02   [8]  00 00 2A 68 2A 68 92 17
 (1.4430)  can1  4100209   [8]  E9 35 13 00 00 00 00 00
 (1.4430)  can1  585FF72   [8]  03 80 60 09 60 09 F2 8A
 (1.4440)  can1  8580C02   [8]  00 00 00 00 00 00 00 00
 (1.4440)  can1  4100208   [8]  6F 10 13 00 00 00 00 00
 (1.4450)  can1  8041001   [8]  01 02 A0 32 04 AF 3B 00
 (1.4460)  can1  18800401   [8]  10 66 8D 66 8D 54 8D 00
 (1.4470)  can1  18840401   [8]  10 7F 8D 81 8D 6E 8D 00
 (1.4480)  can1  18C00401   [8]  10 B6 30 7D 31 5B 30 00
 (1.4500)  can1  595FF71   [8]  05 80 60 09 60 09 FC 5D
 (1.4500)  can1  596FF71   [8]  01 80 FF FF FF FF F5 9F
 (1.4520)  can1  4100209   [8]  E9 35 13 00 00 00 00 00
 (1.4530)  can1  586FF72   [8]  FE 7F FF FF FF FF F7 4D
 (1.4540)  can1  4100208   [8]  6F 10 13 00 00 00 00 00
 (1.4620)  can1  8100302   [5]  01 00 0A 00 18
 (1.4620)  can1  8580C02   [8]  00 00 FF FF 00 00 00 00
 (1.4630)  can1  4100209   [8]  E9 35 13 00 00 00 00 00
 (1.4630)  can1  585FF72   [8]  03 80 60 09 60 09 F3 8A
 (1.4640)  can1  8030C02   [8]  00 00 2A 68 2A 68 92 17
 (1.4650)  can1  89A0C02   [8]  CC 0B 00 00 00 00 00 00
 (1.4650)  can1  4100208   [8]  6F 10 13 00 00 00 00 00
 (1.4700)  can1  595FF71   [8]  05 80 60 09 60 09 FD 5D
 (1.4700)  can1  596FF71   [8]  00 80 FF FF FF FF F6 CB
 (1.4710)  can1  599FF71   [8]  1A E0 02 82 02 00 F2 D1
 (1.4720)  can1  4100209   [8]  E9 35 13 00 00 00 00 00
 (1.4730)  can1  586FF72   [8]  01 80 FF FF FF FF F8 9F
 (1.4730)  can1  587FF72   [8]  02 08 C8 0F FF FF F2 61
 (1.4740)  can1  4100208   [8]  6F 10 13 00 00 00 00 00
 (1.4820)  can1  5807202   [8]  03 80 00 00 E0 01 01 BF
 (1.4820)  can1  5817202   [8]  01 00 10 27 10 27 04 E3
 (1.4830)  can1  4100209   [8]  E9 35 13 00 00 00 00 00
 (1.4830)  can1  585FF72   [8]  03 80 60 09 60 09 F4 8A
 (1.4830)  can1  5827202   [8]  FA 00 00 00 00 00 01 D4
 (1.4840)  can1  4100208   [8]  6F 10 13 00 00 00 00 00
 (1.4850)  can1  5907102   [8]  05 80 00 00 E0 01 01 68
 (1.4850)  can1  5917102   [8]  01 00 10 27 10 27 04 E3
 (1.4860)  can1  5927102   [8]  FA 00 00 00 00 00 01 D4
 (1.4860)  can1  5837202   [8]  2C 41 06 00 00 00 01 E0
 (1.4870)  can1  5847270   [8]  00 00 00 00 00 00 01 9F
 (1.4870)  can1  5937102   [8]  2C 41 06 00 00 00 01 E0
 (1.4870)  can1  5947102   [8]  00 00 00 00 00 00 01 9F
 (1.4880)  can1  8580C02   [8]  00 00 00 00 00 00 00 00
 (1.4880)  can1  89A0C02   [8]  00 00 00 00 CC 0B 00 00
 (1.4880)  can1  8030C02   [8]  00 00 2A 68 2A 68 92 17
 (1.4890)  can1  8100302   [5]  01 00 0A 00 18
 (1.4900)  can1  595FF71   [8]  05 80 60 09 60 09 FE 5D
 (1.4900)  can1  596FF71   [8]  FF 7F FF FF FF FF F7 19
 (1.4910)  can1  597FF71   [8]  0A 08 E4 0F FF FF F2 C2
 (1.4910)  can1  598FF71   [8]  40 01 78 FF FF FF F2 CA
 (1.4920)  can1  4100209   [8]  E9 35 13 00 00 00 00 00
 (1.4930)  can1  586FF72   [8]  FE 7F FF FF FF FF F9 4D
 (1.4930)  can1  4100208   [8]  6F 10 13 00 00 00 00 00
 (1.4960)  can1  18800401   [8]  11 18 8D FC 8C 33 8D 00
 (1.4970)  can1  18840401   [8]  11 33 8D 17 8D 4C 8D 00
 (1.4970)  can1  18C00401   [8]  11 58 31 0E 30 0D 31 00
 (1.5020)  can1  89A0C02   [8]  00 00 00 00 00 00 00 00
 (1.5020)  can1  8030C02   [8]  00 00 2A 68 2A 68 92 17
 (1.5030)  can1  4100209   [8]  E9 35 13 00 00 00 00 00
 (1.5030)  can1  585FF72   [8]  03 80 60 09 60 09 F5 8A
 (1.5040)  can1  8580C02   [8]  00 00 FF FF 00 00 00 00
 (1.5040)  can1  4100208   [8]  6F 10 13 00 00 00 00 00
 (1.5100)  can1  595FF71   [8]  05 80 60 09 60 09 FF 5D
 (1.5110)  can1  596FF71   [8]  01 80 FF FF FF FF F8 9F
 (1.5120)  can1  8100302   [5]  01 00 0A 00 18
 (1.5120)  can1  4100209   [8]  E9 35 13 00 00 00 00 00
 (1.5130)  can1  586FF72   [8]  01 80 FF FF FF FF FA 9F
 (1.5130)  can1  588FF72   [8]  A0 01 54 FF FF FF F3 59
 (1.5140)  can1  589FF72   [8]  1A D0 02 81 02 00 F3 87
 (1.5140)  can1  4100208   [8]  6F 10 13 00 00 00 00 00
 (1.5220)  can1  89A0C02   [8]  CC 0B 00 00 CC 0B 00 00
 (1.5220)  can1  8030C02   [8]  00 00 2A 68 2A 68 92 17
 (1.5230)  can1  4100209   [8]  E9 35 13 00 00 00 00 00
 (1.5230)  can1  585FF72   [8]  03 80 60 09 60 09 F6 8A
 (1.5240)  can1  8580C02   [8]  00 00 00 00 00 00 00 00
 (1.5240)  can1  4100208   [8]  6F 10 13 00 00 00 00 00
 (1.5300)  can1  595FF71   [8]  05 80 60 09 60 09 F0 5D
 (1.5300)  can1  596FF71   [8]  FE 7F FF FF FF FF F9 4D
 (1.5320)  can1  4100209   [8]  E9 35 13 00 00 00 00 00
 (1.5330)  can1  586FF72   [8]  00 80 FF FF FF FF FB CB
 (1.5330)  can1  4100208   [8]  6F 10 13 00 00 00 00 00
 (1.5370)  can1  8100302   [5]  01 00 0A 00 18
 (1.5370)  can1  8101201   [8]  D9 62 D6 8D FB 89 64 00
 (1.5380)  can1  8010C01   [8]  5D 62 00 00 00 00 00 00
 (1.5420)  can1  5807202   [8]  03 80 00 00 E0 01 02 BF
 (1.5430)  can1  5817202   [8]  01 00 10 27 10 27 05 E3
 (1.5430)  can1  4100209   [8]  E9 35 13 00 00 00 00 00
 (1.5440)  can1  585FF72   [8]  03 80 60 09 60 09 F7 8A
 (1.5440)  can1  5827202   [8]  FA 00 00 00 00 00 02 D4
 (1.5450)  can1  4100208   [8]  6F 10 13 00 00 00 00 00
 (1.5460)  can1  5907102   [8]  05 80 00 00 E0 01 02 68
 (1.5460)  can1  5917102   [8]  01 00 10 27 10 27 05 E3
 (1.5460)  can1  5927102   [8]  FA 00 00 00 00 00 02 D4
 (1.5470)  can1  8041001   [8]  01 02 A0 32 04 AF 3B 00
 (1.5470)  can1  5837202   [8]  2C 41 06 00 00 00 02 E0
 (1.5470)  can1  5847270   [8]  00 00 00 00 00 00 02 9F
 (1.5480)  can1  5937102   [8]  2C 41 06 00 00 00 02 E0
 (1.5480)  can1  5947102   [8]  00 00 00 00 00 00 02 9F
 (1.5480)  can1  8580C02   [8]  FF FF 00 00 00 00 00 00
 (1.5490)  can1  89A0C02   [8]  00 00 00 00 00 00 00 00
 (1.5490)  can1  18800401   [8]  12 7D 8D 6A 8D 37 8D 00
 (1.5490)  can1  8030C02   [8]  00 00 2A 68 2A 68 92 17
 (1.5490)  can1  18840401   [8]  12 95 8D 82 8D 4D 8D 00
 (1.5500)  can1  18C00401   [8]  12 5F 30 75 2F 1C 2F 00
 (1.5500)  can1  595FF71   [8]  05 80 60 09 60 09 F1 5D
 (1.5510)  can1  596FF71   [8]  00 80 FF FF FF FF FA CB
 (1.5520)  can1  4100209   [8]  E9 35 13 00 00 00 00 00
 (1.5530)  can1  586FF72   [8]  FF 7F FF FF FF FF FC 19
 (1.5530)  can1  4100208   [8]  6F 10 13 00 00 00 00 00
 (1.5620)  can1  8100302   [5]  01 00 0A 00 18
 (1.5620)  can1  8580C02   [8]  00 00 00 00 00 00 00 00
 (1.5630)  can1  4100209   [8]  E9 35 13 00 00 00 00 00
 (1.5640)  can1  585FF72   [8]  03 80 60 09 60 09 F8 8A
 (1.5640)  can1  8030C02   [8]  00 00 2A 68 2A 68 92 17
 (1.5640)  can1  89A0C02   [8]  00 00 00 00 00 00 00 00
 (1.5650)  can1  4100208   [8]  6F 10 13 00 00 00 00 00
 (1.5700)  can1  595FF71   [8]  05 80 60 09 60 09 F2 5D
 (1.5700)  can1  596FF71   [8]  FE 7F FF FF FF FF FB 4D
 (1.5700)  can1  599FF71   [8]  1A E0 02 82 02 00 F3 D1
 (1.5720)  can1  4100209   [8]  E9 35 13 00 00 00 00 00
 (1.5740)  can1  586FF72   [8]  01 80 FF FF FF FF FD 9F
 (1.5740)  can1  587FF72   [8]  00 08 CD 0F FF FF F3 F6
 (1.5740)  can1  4100208   [8]  6F 10 13 00 00 00 00 00
 (1.5820)  can1  89A0C02   [8]  00 00 00 00 CC 0B 00 00
 (1.5830)  can1  8030C02   [8]  00 00 2A 68 2A 68 92 17
 (1.5830)  can1  4100209   [8]  E9 35 13 00 00 00 00 00
 (1.5840)  can1  585FF72   [8]  03 80 60 09 60 09 F9 8A
 (1.5840)  can1  8580C02   [8]  FF FF 00 00 00 00 00 00
 (1.5840)  can1  1948FF72   [8]  00 C0 00 55 FF FF 91 A4
 (1.5850)  can1  4100208   [8]  6F 10 13 00 00 00 00 00
 (1.5870)  can1  8100302   [5]  01 00 0A 00 18
 (1.5890)  can1  595FF71   [8]  05 80 60 09 60 09 F3 5D
 (1.5900)  can1  596FF71   [8]  FF 7F FF FF FF FF FC 19
 (1.5910)  can1  597FF71   [8]  05 08 E4 0F FF FF F3 BF
 (1.5910)  can1  598FF71   [8]  40 01 78 FF FF FF F3 CA
 (1.5920)  can1  4100209   [8]  E9 35 13 00 00 00 00 00
 (1.5930)  can1  586FF72   [8]  03 80 FF FF FF FF FE 37
 (1.5930)  can1  4100208   [8]  6F 10 13 00 00 00 00 00
 (1.5960)  can1  404FF03   [1]  00
 (1.5960)  can1  18800401   [8]  13 32 8D F6 8C 1A 8D 00
 (1.5970)  can1  18840401   [8]  13 4A 8D 0E 8D 33 8D 00
 (1.5980)  can1  18C00401   [8]  13 04 30 01 30 BD 30 00
 (1.5980)  can1  8250C03   [8]  9C 00 16 01 00 00 16 00
 (1.5990)  can1  8840C03   [8]  4E 00 12 00 25 00 07 00
 (1.5990)  can1  88D0C03   [8]  2D 00 00 00 57 00 6E 00
 (1.6020)  can1  5807202   [8]  03 80 00 00 E0 01 03 BF
 (1.6030)  can1  5817202   [8]  01 00 10 27 10 27 06 E3
 (1.6040)  can1  4100209   [8]  E9 35 13 00 00 00 00 00
 (1.6040)  can1  585FF72   [8]  03 80 60 09 60 09 FA 8A
 (1.6050)  can1  5827202   [8]  FA 00 00 00 00 00 03 D4
 (1.6050)  can1  4100208   [8]  6F 10 13 00 00 00 00 00
 (1.6060)  can1  5907102   [8]  05 80 00 00 E0 01 03 68
 (1.6070)  can1  5917102   [8]  01 00 10 27 10 27 06 E3
 (1.6070)  can1  5927102   [8]  FA 00 00 00 00 00 03 D4
 (1.6080)  can1  1948FF71   [8]  00 C0 00 55 FF FF 91 A4
 (1.6080)  can1  5837202   [8]  2C 41 06 00 00 00 03 E0
 (1.6090)  can1  5847270   [8]  00 00 00 00 00 00 03 9F
 (1.6090)  can1  5937102   [8]  2C 41 06 00 00 00 03 E0
 (1.6090)  can1  5947102   [8]  00 00 00 00 00 00 03 9F
 (1.6100)  can1  89A0C02   [8]  00 00 00 00 66 23 00 00
 (1.6100)  can1  8580C02   [8]  00 00 02 00 00 00 00 00
 (1.6100)  can1  8030C02   [8]  00 00 2A 68 2A 68 92 17
 (1.6110)  can1  595FF71   [8]  05 80 60 09 60 09 F4 5D
 (1.6110)  can1  596FF71   [8]  FE 7F FF FF FF FF FD 4D
 (1.6120)  can1  8100302   [5]  01 00 0A 00 18
 (1.6120)  can1  4100209   [8]  E9 35 13 00 00 00 00 00
 (1.6130)  can1  586FF72   [8]  00 80 FF FF FF FF FF CB
 (1.6130)  can1  588FF72   [8]  A0 01 54 FF FF FF F4 59
 (1.6140)  can1  589FF72   [8]  1A D0 02 81 02 00 F4 87
 (1.6140)  can1  4100208   [8]  6F 10 13 00 00 00 00 00
 (1.6190)  can1  1949FF71   [8]  0D 80 00 0D 90 00 92 BC
 (1.6200)  can1  194AFF71   [8]  32 C7 56 75 25 57 93 D3
 (1.6210)  can1  194BFF71   [8]  77 F5 FF FF FF FF 94 FC
 (1.6210)  can1  194CFF71   [8]  FF FF FF FF FF FF 95 8F
 (1.6220)  can1  89A0C02   [8]  00 00 00 00 00 00 00 00
 (1.6230)  can1  8030C02   [8]  00 00 2A 68 2A 68 92 17
 (1.6230)  can1  4100209   [8]  E9 35 13 00 00 00 00 00
 (1.6240)  can1  585FF72   [8]  03 80 60 09 60 09 FB 8A
 (1.6240)  can1  8580C02   [8]  FF FF 00 00 00 00 00 00
 (1.6250)  can1  1949FF72   [8]  0D 80 00 0C B0 00 92 DB
 (1.6250)  can1  4100208   [8]  6F 10 13 00 00 00 00 00
 (1.6250)  can1  194AFF72   [8]  60 97 56 69 95 56 93 34
 (1.6250)  can1  194BFF72   [8]  69 F5 FF FF FF FF 94 EE
 (1.6260)  can1  194CFF72   [8]  FF FF FF FF FF FF 95 8F
 (1.6260)  can1  404FF07   [1]  00
 (1.6290)  can1  595FF71   [8]  05 80 60 09 60 09 F5 5D
 (1.6300)  can1  596FF71   [8]  FF 7F FF FF FF FF FE 19
 (1.6320)  can1  4100209   [8]  E9 35 13 00 00 00 00 00
 (1.6330)  can1  586FF72   [8]  01 80 FF FF FF FF F0 9F
 (1.6330)  can1  4100208   [8]  6F 10 13 00 00 00 00 00
 (1.6370)  can1  8100302   [5]  01 00 0A 00 18
 (1.6380)  can1  8101201   [8]  D9 62 DA 8D FB 89 61 00
 (1.6390)  can1  8010C01   [8]  5A 62 00 00 00 00 00 00
 (1.6420)  can1  89A0C02   [8]  00 00 00 00 CC 0B 00 00
 (1.6420)  can1  8030C02   [8]  00 00 2A 68 2A 68 92 17
 (1.6430)  can1  4100209   [8]  E9 35 13 00 00 00 00 00
 (1.6430)  can1  585FF72   [8]  03 80 60 09 60 09 FC 8A
 (1.6440)  can1  8580C02   [8]  00 00 00 00 00 00 00 00
 (1.6440)  can1  4100208   [8]  6F 10 13 00 00 00 00 00
 (1.6450)  can1  404FF01   [1]  00
 (1.6450)  can1  8041001   [8]  01 02 A0 32 04 AF 3B 00
 (1.6460)  can1  8120C01   [8]  05 00 00 00 00 00 00 00
 (1.6470)  can1  80F1201   [4]  E4 11 00 00
 (1.6480)  can1  18800401   [8]  14 3D 8D 73 8D 62 8D 00
 (1.6480)  can1  18840401   [8]  14 61 8D 87 8D 7F 8D 00
 (1.6490)  can1  18C00401   [8]  14 35 30 DB 30 3E 30 00
 (1.6490)  can1  595FF71   [8]  05 80 60 09 60 09 F6 5D
 (1.6500)  can1  596FF71   [8]  02 80 FF FF FF FF FF 63
 (1.6520)  can1  4100209   [8]  E9 35 13 00 00 00 00 00
 (1.6530)  can1  586FF72   [8]  02 80 FF FF FF FF F1 63
 (1.6530)  can1  4100208   [8]  6F 10 13 00 00 00 00 00
 (1.6620)  can1  5807202   [8]  03 80 00 00 E0 01 04 BF
 (1.6630)  can1  5817202   [8]  01 00 10 27 10 27 07 E3
 (1.6630)  can1  4100209   [8]  E9 35 13 00 00 00 00 00
 (1.6640)  can1  585FF72   [8]  03 80 60 09 60 09 FD 8A
 (1.6650)  can1  5827202   [8]  FA 00 00 00 00 00 04 D4
 (1.6650)  can1  4100208   [8]  6F 10 13 00 00 00 00 00
 (1.6660)  can1  5907102   [8]  05 80 00 00 E0 01 04 68
 (1.6660)  can1  5917102   [8]  01 00 10 27 10 27 07 E3
 (1.6670)  can1  5927102   [8]  FA 00 00 00 00 00 04 D4
 (1.6670)  can1  5837202   [8]  2C 41 06 00 00 00 04 E0
 (1.6680)  can1  5847270   [8]  00 00 00 00 00 00 04 9F
 (1.6680)  can1  5937102   [8]  2C 41 06 00 00 00 04 E0
 (1.6680)  can1  5947102   [8]  00 00 00 00 00 00 04 9F
 (1.6690)  can1  404FF02   [1]  00
 (1.6690)  can1  8100302   [5]  01 00 0A 00 18
 (1.6690)  can1  89A0C02   [8]  99 17 00 00 99 17 00 00
 (1.6700)  can1  8030C02   [8]  00 00 2A 68 2A 68 92 17
 (1.6710)  can1  8580C02   [8]  01 00 01 00 00 00 00 00
 (1.6710)  can1  595FF71   [8]  05 80 60 09 60 09 F7 5D
 (1.6710)  can1  596FF71   [8]  00 80 FF FF FF FF F0 CB
 (1.6710)  can1  599FF71   [8]  1A E0 02 82 02 00 F4 D1
 (1.6720)  can1  4100209   [8]  E9 35 13 00 00 00 00 00
 (1.6730)  can1  586FF72   [8]  FE 7F FF FF FF FF F2 4D
 (1.6730)  can1  587FF72   [8]  04 08 C8 0F FF FF F4 B6
 (1.6740)  can1  4100208   [8]  6F 10 13 00 00 00 00 00
 (1.6820)  can1  89A0C02   [8]  00 00 00 00 00 00 00 00
 (1.6820)  can1  8030C02   [8]  00 00 2A 68 2A 68 92 17
 (1.6830)  can1  4100209   [8]  E9 35 13 00 00 00 00 00
 (1.6830)  can1  585FF72   [8]  03 80 60 09 60 09 FE 8A
 (1.6840)  can1  8580C02   [8]  00 00 FF FF 00 00 00 00
 (1.6840)  can1  4100208   [8]  6F 10 13 00 00 00 00 00
 (1.6870)  can1  8100302   [5]  01 00 0A 00 18
 (1.6890)  can1  595FF71   [8]  05 80 60 09 60 09 F8 5D
 (1.6900)  can1  596FF71   [8]  FF 7F FF FF FF FF F1 19
 (1.6910)  can1  597FF71   [8]  07 08 E2 0F FF FF F4 D8
 (1.6910)  can1  598FF71   [8]  40 01 78 FF FF FF F4 CA
 (1.6920)  can1  4100209   [8]  E9 35 13 00 00 00 00 00
 (1.6930)  can1  586FF72   [8]  02 80 FF FF FF FF F3 63
 (1.6930)  can1  4100208   [8]  6F 10 13 00 00 00 00 00
 (1.6960)  can1  18101203   [4]  8F 2C E1 08
 (1.6970)  can1  18800401   [8]  15 8F 8D 72 8D 36 8D 00
 (1.6970)  can1  18840401   [8]  15 A7 8D 8A 8D 4E 8D 00
 (1.6970)  can1  18C00401   [8]  15 F1 30 EF 2F C2 30 00
 (1.7020)  can1  89A0C02   [8]  00 00 00 00 99 17 00 00
 (1.7020)  can1  8030C02   [8]  00 00 2A 68 2A 68 92 17
 (1.7030)  can1  4100209   [8]  E9 35 13 00 00 00 00 00
 (1.7040)  can1  585FF72   [8]  03 80 60 09 60 09 FF 8A
 (1.7040)  can1  8580C02   [8]  00 00 01 00 00 00 00 00
 (1.7050)  can1  4100208   [8]  6F 10 13 00 00 00 00 00
 (1.7090)  can1  595FF71   [8]  05 80 60 09 60 09 F9 5D
 (1.7100)  can1  596FF71   [8]  01 80 FF FF FF FF F2 9F
 (1.7120)  can1  8100302   [5]  01 00 0A 00 18
 (1.7120)  can1  4100209   [8]  E9 35 13 00 00 00 00 00
 (1.7130)  can1  586FF72   [8]  FE 7F FF FF FF FF F4 4D
 (1.7130)  can1  528FF72   [8]  FC FF 39 00 00 00 34 00
 (1.7140)  can1  529FF72   [8]  01 00 42 00 0A 00 03 00
 (1.7150)  can1  4100208   [8]  6F 10 13 00 00 00 00 00
 (1.7150)  can1  52AFF72   [8]  13 13 13 13 13 13 1A 00
 (1.7160)  can1  52BFF72   [8]  11 16 11 13 00 FF 00 00
 (1.7160)  can1  52CFF72   [8]  00 00 EF FF EF FF 3A 00
 (1.7160)  can1  588FF72   [8]  A0 01 54 FF FF FF F5 59
 (1.7170)  can1  589FF72   [8]  1A D0 02 81 02 00 F5 87
 (1.7190)  can1  528FF71   [8]  03 00 4C 00 00 00 56 00
 (1.7200)  can1  529FF71   [8]  07 00 52 00 0C 00 05 00
 (1.7210)  can1  52AFF71   [8]  14 14 14 14 14 14 14 00
 (1.7210)  can1  52BFF71   [8]  10 14 10 14 00 FF 00 00
 (1.7220)  can1  52CFF71   [8]  00 00 EF FF EF FF 3A 00
 (1.7220)  can1  5807202   [8]  03 80 00 00 E0 01 05 BF
 (1.7230)  can1  5817202   [8]  01 00 10 27 10 27 08 E3
 (1.7230)  can1  4100209   [8]  E9 35 13 00 00 00 00 00
 (1.7240)  can1  585FF72   [8]  03 80 60 09 60 09 F0 8A
 (1.7240)  can1  5827202   [8]  FA 00 00 00 00 00 05 D4
 (1.7250)  can1  4100208   [8]  6F 10 13 00 00 00 00 00
 (1.7260)  can1  5907102   [8]  05 80 00 00 E0 01 05 68
 (1.7270)  can1  5917102   [8]  01 00 10 27 10 27 08 E3
 (1.7270)  can1  5927102   [8]  FA 00 00 00 00 00 05 D4
 (1.7270)  can1  5837202   [8]  2C 41 06 00 00 00 05 E0
 (1.7280)  can1  5847270   [8]  00 00 00 00 00 00 05 9F
 (1.7280)  can1  5937102   [8]  2C 41 06 00 00 00 05 E0
 (1.7280)  can1  5947102   [8]  00 00 00 00 00 00 05 9F
 (1.7290)  can1  8580C02   [8]  00 00 FF FF 00 00 00 00
 (1.7290)  can1  89A0C02   [8]  CC 0B 00 00 00 00 00 00
 (1.7290)  can1  8030C02   [8]  00 00 2A 68 2A 68 92 17
 (1.7290)  can1  595FF71   [8]  05 80 60 09 60 09 FA 5D
 (1.7300)  can1  596FF71   [8]  FF 7F FF FF FF FF F3 19
 (1.7320)  can1  586FF72   [8]  02 80 FF FF FF FF F5 63
 (1.7330)  can1  4100209   [8]  E9 35 13 00 00 00 00 00
 (1.7330)  can1  4100208   [8]  6F 10 13 00 00 00 00 00
 (1.7370)  can1  8100302   [5]  01 00 0A 00 18
 (1.7390)  can1  8101201   [8]  DB 62 D5 8D FB 89 57 00
 (1.7400)  can1  8010C01   [8]  59 62 00 00 00 00 00 00
 (1.7420)  can1  89A0C02   [8]  00 00 00 00 99 17 00 00
 (1.7430)  can1  8030C02   [8]  00 00 2A 68 2A 68 92 17
 (1.7430)  can1  4100209   [8]  E9 35 13 00 00 00 00 00
 (1.7440)  can1  585FF72   [8]  03 80 60 09 60 09 F1 8A
 (1.7440)  can1  8580C02   [8]  00 00 01 00 00 00 00 00
 (1.7440)  can1  4100208   [8]  6F 10 13 00 00 00 00 00
 (1.7450)  can1  8041001   [8]  01 02 A0 32 04 AF 3B 00
 (1.7460)  can1  18800401   [8]  16 17 8D 52 8D 88 8D 00
 (1.7470)  can1  18840401   [8]  16 2F 8D 69 8D A2 8D 00
 (1.7470)  can1  18C00401   [8]  16 DD 2F 71 30 65 2F 00
 (1.7490)  can1  595FF71   [8]  05 80 60 09 60 09 FB 5D
 (1.7500)  can1  596FF71   [8]  01 80 FF FF FF FF F4 9F
 (1.7520)  can1  586FF72   [8]  FE 7F FF FF FF FF F6 4D
 (1.7530)  can1  4100209   [8]  E9 35 13 00 00 00 00 00
 (1.7540)  can1  4100208   [8]  6F 10 13 00 00 00 00 00
 (1.7620)  can1  8100302   [5]  01 00 0A 00 18
 (1.7620)  can1  8580C02   [8]  00 00 FF FF 00 00 00 00
 (1.7630)  can1  4100209   [8]  E9 35 13 00 00 00 00 00
 (1.7630)  can1  585FF72   [8]  03 80 60 09 60 09 F2 8A
 (1.7640)  can1  8030C02   [8]  00 00 2A 68 2A 68 92 17
 (1.7640)  can1  89A0C02   [8]  CC 0B 00 00 00 00 00 00
 (1.7640)  can1  4100208   [8]  6F 10 13 00 00 00 00 00
 (1.7690)  can1  595FF71   [8]  05 80 60 09 60 09 FC 5D
 (1.7700)  can1  596FF71   [8]  FE 7F FF FF FF FF F5 4D
 (1.7700)  can1  599FF71   [8]  1A E0 02 82 02 00 F5 D1
 (1.7720)  can1  586FF72   [8]  00 80 FF FF FF FF F7 CB
 (1.7730)  can1  4100209   [8]  E9 35 13 00 00 00 00 00
 (1.7740)  can1  587FF72   [8]  01 08 CA 0F FF FF F5 D8
 (1.7740)  can1  4100208   [8]  6F 10 13 00 00 00 00 00
 (1.7820)  can1  5807202   [8]  03 80 00 00 E0 01 06 BF
 (1.7830)  can1  5817202   [8]  01 00 10 27 10 27 09 E3
 (1.7830)  can1  4100209   [8]  E9 35 13 00 00 00 00 00
 (1.7840)  can1  585FF72   [8]  03 80 60 09 60 09 F3 8A
 (1.7840)  can1  5827202   [8]  FA 00 00 00 00 00 06 D4
 (1.7850)  can1  4100208   [8]  6F 10 13 00 00 00 00 00
 (1.7850)  can1  5907102   [8]  05 80 00 00 E0 01 06 68
 (1.7860)  can1  5917102   [8]  01 00 10 27 10 27 09 E3
 (1.7870)  can1  5927102   [8]  FA 00 00 00 00 00 06 D4
 (1.7870)  can1  5837202   [8]  2C 41 06 00 00 00 06 E0
 (1.7880)  can1  5847270   [8]  00 00 00 00 00 00 06 9F
 (1.7880)  can1  5937102   [8]  2C 41 06 00 00 00 06 E0
 (1.7880)  can1  5947102   [8]  00 00 00 00 00 00 06 9F
 (1.7890)  can1  8580C02   [8]  FF FF 00 00 00 00 00 00
 (1.7890)  can1  89A0C02   [8]  00 00 00 00 00 00 00 00
 (1.7890)  can1  8030C02   [8]  00 00 2A 68 2A 68 92 17
 (1.7900)  can1  8100302   [5]  01 00 0A 00 18
 (1.7900)  can1  595FF71   [8]  05 80 60 09 60 09 FD 5D
 (1.7910)  can1  596FF71   [8]  FF 7F FF FF FF FF F6 19
 (1.7910)  can1  597FF71   [8]  0A 08 E4 0F FF FF F5 C2
 (1.7910)  can1  598FF71   [8]  40 01 78 FF FF FF F5 CA
 (1.7920)  can1  586FF72   [8]  FF 7F FF FF FF FF F8 19
 (1.7930)  can1  4100209   [8]  E9 35 13 00 00 00 00 00
 (1.7930)  can1  4100208   [8]  6F 10 13 00 00 00 00 00
 (1.7960)  can1  18800401   [8]  17 77 8D 00 00 00 00 00
 (1.7970)  can1  18840401   [8]  17 90 8D 00 00 00 00 00
 (1.7980)  can1  18C00401   [8]  17 A4 2F 10 27 10 27 00
 (1.8020)  can1  89A0C02   [8]  00 00 00 00 00 00 00 00
 (1.8030)  can1  8030C02   [8]  00 00 2A 68 2A 68 92 17
 (1.8030)  can1  4100209   [8]  E9 35 13 00 00 00 00 00
 (1.8040)  can1  585FF72   [8]  03 80 60 09 60 09 F4 8A
 (1.8040)  can1  8580C02   [8]  00 00 00 00 00 00 00 00
 (1.8040)  can1  4100208   [8]  6F 10 13 00 00 00 00 00
 (1.8090)  can1  595FF71   [8]  05 80 60 09 60 09 FE 5D
 (1.8100)  can1  596FF71   [8]  00 80 FF FF FF FF F7 CB
 (1.8120)  can1  8100302   [5]  01 00 0A 00 18
 (1.8120)  can1  586FF72   [8]  FF 7F FF FF FF FF F9 19
 (1.8130)  can1  4100209   [8]  E9 35 13 00 00 00 00 00
 (1.8130)  can1  588FF72   [8]  90 01 55 FF FF FF F6 B6
 (1.8140)  can1  589FF72   [8]  1A D0 02 81 02 00 F6 87
 (1.8150)  can1  4100208   [8]  6F 10 13 00 00 00 00 00
 (1.8220)  can1  89A0C02   [8]  00 00 00 00 00 00 00 00
 (1.8230)  can1  8030C02   [8]  00 00 2A 68 2A 68 92 17
 (1.8230)  can1  4100209   [8]  E9 35 13 00 00 00 00 00
 (1.8240)  can1  585FF72   [8]  03 80 60 09 60 09 F5 8A
 (1.8240)  can1  8580C02   [8]  00 00 00 00 00 00 00 00
 (1.8240)  can1  4100208   [8]  6F 10 13 00 00 00 00 00
 (1.8290)  can1  595FF71   [8]  05 80 60 09 60 09 FF 5D
 (1.8300)  can1  596FF71   [8]  FE 7F FF FF FF FF F8 4D
 (1.8320)  can1  586FF72   [8]  00 80 FF FF FF FF FA CB
 (1.8330)  can1  4100209   [8]  E9 35 13 00 00 00 00 00
 (1.8330)  can1  4100208   [8]  6F 10 13 00 00 00 00 00
 (1.8370)  can1  8100302   [5]  01 00 0A 00 18
 (1.8370)  can1  1948FF72   [8]  00 C0 00 55 FF FF 96 A9
 (1.8400)  can1  8101201   [8]  D7 62 D8 8D FC 89 5D 00
 (1.8410)  can1  8010C01   [8]  5D 62 00 00 00 00 00 00
 (1.8420)  can1  5807202   [8]  03 80 00 00 E0 01 07 BF
 (1.8420)  can1  5817202   [8]  01 00 10 27 10 27 0A E3
 (1.8430)  can1  4100209   [8]  E9 35 13 00 00 00 00 00
 (1.8430)  can1  585FF72   [8]  03 80 60 09 60 09 F6 8A
 (1.8440)  can1  5827202   [8]  FA 00 00 00 00 00 07 D4
 (1.8440)  can1  4100208   [8]  6F 10 13 00 00 00 00 00
 (1.8450)  can1  5907102   [8]  05 80 00 00 E0 01 07 68
 (1.8450)  can1  5917102   [8]  01 00 10 27 10 27 0A E3
 (1.8460)  can1  5927102   [8]  FA 00 00 00 00 00 07 D4
 (1.8470)  can1  8041001   [8]  01 02 A0 32 04 AF 3B 00
 (1.8480)  can1  5837202   [8]  2C 41 06 00 00 00 07 E0
 (1.8480)  can1  5847270   [8]  00 00 00 00 00 00 07 9F
 (1.8480)  can1  5937102   [8]  2C 41 06 00 00 00 07 E0
 (1.8490)  can1  5947102   [8]  00 00 00 00 00 00 07 9F
 (1.8490)  can1  8580C02   [8]  FF FF 00 00 00 00 00 00
 (1.8490)  can1  89A0C02   [8]  00 00 00 00 00 00 00 00
 (1.8500)  can1  18800401   [8]  00 D6 8D EF 8C 8B 8C 00
 (1.8500)  can1  8030C02   [8]  00 00 2A 68 2A 68 92 17
 (1.8500)  can1  18840401   [8]  00 F2 8D 0B 8D C2 8C 00
 (1.8510)  can1  18C00401   [8]  00 3D 30 3A 2F CD 30 00
 (1.8510)  can1  595FF71   [8]  05 80 60 09 60 09 F0 5D
 (1.8520)  can1  596FF71   [8]  FD 7F FF FF FF FF F9 B1
 (1.8520)  can1  586FF72   [8]  FF 7F FF FF FF FF FB 19
 (1.8530)  can1  4100209   [8]  E9 35 13 00 00 00 00 00
 (1.8530)  can1  4100208   [8]  6F 10 13 00 00 00 00 00
 (1.8600)  can1  1948FF71   [8]  00 C0 00 55 FF FF 96 A9
 (1.8620)  can1  8100302   [5]  01 00 0A 00 18
 (1.8630)  can1  8580C02   [8]  FE FF 00 00 00 00 00 00
 (1.8640)  can1  4100209   [8]  E9 35 13 00 00 00 00 00
 (1.8640)  can1  585FF72   [8]  03 80 60 09 60 09 F7 8A
 (1.8640)  can1  8030C02   [8]  00 00 2A 68 2A 68 92 17
 (1.8640)  can1  89A0C02   [8]  00 00 00 00 00 00 00 00
 (1.8650)  can1  4100208   [8]  6F 10 13 00 00 00 00 00
 (1.8690)  can1  595FF71   [8]  05 80 60 09 60 09 F1 5D
 (1.8700)  can1  596FF71   [8]  FE 7F FF FF FF FF FA 4D
 (1.8700)  can1  599FF71   [8]  1A E0 02 82 02 00 F6 D1
 (1.8720)  can1  586FF72   [8]  FF 7F FF FF FF FF FC 19
 (1.8730)  can1  4100209   [8]  E9 35 13 00 00 00 00 00
 (1.8730)  can1  587FF72   [8]  01 08 CA 0F FF FF F6 D8
 (1.8740)  can1  4100208   [8]  6F 10 13 00 00 00 00 00
 (1.8750)  can1  1949FF71   [8]  0D 80 00 0D A0 00 97 D1
 (1.8760)  can1  194AFF71   [8]  34 97 56 6C 25 57 98 A1
 (1.8760)  can1  194BFF71   [8]  77 F5 FF FF FF FF 99 01
 (1.8770)  can1  194CFF71   [8]  FF FF FF FF FF FF 9A 94
 (1.8780)  can1  1949FF72   [8]  0D 80 00 0D A0 00 97 D1
 (1.8780)  can1  194AFF72   [8]  62 97 56 69 95 56 98 3B
 (1.8790)  can1  194BFF72   [8]  67 F5 FF FF FF FF 99 F1
 (1.8790)  can1  194CFF72   [8]  FF FF FF FF FF FF 9A 94
 (1.8820)  can1  89A0C02   [8]  00 00 00 00 00 00 00 00
 (1.8820)  can1  8030C02   [8]  00 00 2A 68 2A 68 92 17
 (1.8830)  can1  4100209   [8]  E9 35 13 00 00 00 00 00
 (1.8830)  can1  585FF72   [8]  03 80 60 09 60 09 F8 8A
 (1.8840)  can1  8580C02   [8]  FF FF 00 00 00 00 00 00
 (1.8840)  can1  4100208   [8]  6F 10 13 00 00 00 00 00
 (1.8870)  can1  8100302   [5]  01 00 0A 00 18
 (1.8900)  can1  595FF71   [8]  05 80 60 09 60 09 F2 5D
 (1.8900)  can1  596FF71   [8]  FE 7F FF FF FF FF FB 4D
 (1.8910)  can1  597FF71   [8]  08 08 E4 0F FF FF F6 6A
 (1.8910)  can1  598FF71   [8]  40 01 78 FF FF FF F6 CA
 (1.8920)  can1  586FF72   [8]  00 80 FF FF FF FF FD CB
 (1.8930)  can1  4100209   [8]  E9 35 13 00 00 00 00 00
 (1.8930)  can1  4100208   [8]  6F 10 13 00 00 00 00 00
 (1.8960)  can1  18800401   [8]  01 D5 8C 0C 8D 02 8D 00
 (1.8970)  can1  18840401   [8]  01 EE 8C 27 8D 1F 8D 00
 (1.8970)  can1  18C00401   [8]  01 18 30 03 31 5C 30 00
 (1.9020)  can1  5807202   [8]  03 80 00 00 E0 01 08 BF
 (1.9030)  can1  5817202   [8]  01 00 10 27 10 27 0B E3
 (1.9030)  can1  4100209   [8]  E9 35 13 00 00 00 00 00
 (1.9040)  can1  585FF72   [8]  03 80 60 09 60 09 F9 8A
 (1.9040)  can1  5827202   [8]  FA 00 00 00 00 00 08 D4
 (1.9050)  can1  4100208   [8]  6F 10 13 00 00 00 00 00
 (1.9060)  can1  5907102   [8]  05 80 00 00 E0 01 08 68
 (1.9060)  can1  5917102   [8]  01 00 10 27 10 27 0B E3
 (1.9060)  can1  5927102   [8]  FA 00 00 00 00 00 08 D4
 (1.9070)  can1  5837202   [8]  2C 41 06 00 00 00 08 E0
 (1.9070)  can1  5847270   [8]  00 00 00 00 00 00 08 9F
 (1.9070)  can1  5937102   [8]  2C 41 06 00 00 00 08 E0
 (1.9080)  can1  5947102   [8]  00 00 00 00 00 00 08 9F
 (1.9080)  can1  8580C02   [8]  FF FF 00 00 00 00 00 00
 (1.9080)  can1  89A0C02   [8]  00 00 00 00 00 00 00 00
 (1.9090)  can1  8030C02   [8]  00 00 2A 68 2A 68 92 17
 (1.9100)  can1  595FF71   [8]  05 80 60 09 60 09 F3 5D
 (1.9100)  can1  596FF71   [8]  FF 7F FF FF FF FF FC 19
 (1.9120)  can1  8100302   [5]  01 00 0A 00 18
 (1.9120)  can1  586FF72   [8]  FE 7F FF FF FF FF FE 4D
 (1.9130)  can1  4100209   [8]  E9 35 13 00 00 00 00 00
 (1.9140)  can1  588FF72   [8]  A0 01 54 FF FF FF F7 59
 (1.9140)  can1  589FF72   [8]  1A D0 02 81 02 00 F7 87
 (1.9140)  can1  4100208   [8]  6F 10 13 00 00 00 00 00
 (1.9220)  can1  89A0C02   [8]  00 00 00 00 00 00 00 00
 (1.9220)  can1  8030C02   [8]  00 00 2A 68 2A 68 92 17
 (1.9230)  can1  4100209   [8]  E9 35 13 00 00 00 00 00
 (1.9240)  can1  585FF72   [8]  03 80 60 09 60 09 FA 8A
 (1.9240)  can1  8580C02   [8]  00 00 FF FF 00 00 00 00
 (1.9240)  can1  4100208   [8]  6F 10 13 00 00 00 00 00
 (1.9300)  can1  595FF71   [8]  05 80 60 09 60 09 F4 5D
 (1.9300)  can1  596FF71   [8]  00 80 FF FF FF FF FD CB
 (1.9320)  can1  586FF72   [8]  FF 7F FF FF FF FF FF 19
 (1.9330)  can1  4100209   [8]  E9 35 13 00 00 00 00 00
 (1.9330)  can1  4100208   [8]  6F 10 13 00 00 00 00 00
 (1.9370)  can1  8100302   [5]  01 00 0A 00 18
 (1.9410)  can1  8101201   [8]  DB 62 D6 8D FD 89 64 00
 (1.9420)  can1  8010C01   [8]  60 62 00 00 00 00 00 00
 (1.9420)  can1  89A0C02   [8]  00 00 00 00 00 00 00 00
 (1.9430)  can1  8030C02   [8]  00 00 2A 68 2A 68 92 17
 (1.9430)  can1  4100209   [8]  E9 35 13 00 00 00 00 00
 (1.9440)  can1  585FF72   [8]  03 80 60 09 60 09 FB 8A
 (1.9440)  can1  8580C02   [8]  00 00 00 00 00 00 00 00
 (1.9450)  can1  4100208   [8]  6F 10 13 00 00 00 00 00
 (1.9450)  can1  8041001   [8]  01 02 A0 32 04 AF 3B 00
 (1.9460)  can1  18800401   [8]  02 1D 8D 8A 8D 6E 8D 00
 (1.9480)  can1  18840401   [8]  02 39 8D A6 8D 8A 8D 00
 (1.9480)  can1  18C00401   [8]  02 E0 30 4F 30 B9 30 00
 (1.9500)  can1  595FF71   [8]  05 80 60 09 60 09 F5 5D
 (1.9500)  can1  596FF71   [8]  00 80 FF FF FF FF FE CB
 (1.9520)  can1  586FF72   [8]  FF 7F FF FF FF FF F0 19
 (1.9530)  can1  4100209   [8]  E9 35 13 00 00 00 00 00
 (1.9530)  can1  4100208   [8]  6F 10 13 00 00 00 00 00
 (1.9620)  can1  5807202   [8]  03 80 00 00 E0 01 09 BF
 (1.9630)  can1  5817202   [8]  01 00 10 27 10 27 0C E3
 (1.9630)  can1  4100209   [8]  E9 35 13 00 00 00 00 00
 (1.9640)  can1  585FF72   [8]  03 80 60 09 60 09 FC 8A
 (1.9650)  can1  5827202   [8]  FA 00 00 00 00 00 09 D4
 (1.9650)  can1  5907102   [8]  05 80 00 00 E0 01 09 68
 (1.9660)  can1  4100208   [8]  6F 10 13 00 00 00 00 00
 (1.9660)  can1  5837202   [8]  2C 41 06 00 00 00 09 E0
 (1.9670)  can1  5917102   [8]  01 00 10 27 10 27 0C E3
 (1.9670)  can1  5927102   [8]  FA 00 00 00 00 00 09 D4
 (1.9680)  can1  5937102   [8]  2C 41 06 00 00 00 09 E0
 (1.9680)  can1  5847270   [8]  00 00 00 00 00 00 09 9F
 (1.9680)  can1  5947102   [8]  00 00 00 00 00 00 09 9F
 (1.9690)  can1  8100302   [5]  01 00 0A 00 18
 (1.9690)  can1  8580C02   [8]  00 00 00 00 00 00 00 00
 (1.9690)  can1  89A0C02   [8]  00 00 00 00 00 00 00 00
 (1.9690)  can1  8030C02   [8]  00 00 2A 68 2A 68 92 17
 (1.9700)  can1  595FF71   [8]  05 80 60 09 60 09 F6 5D
 (1.9700)  can1  596FF71   [8]  00 80 FF FF FF FF FF CB
 (1.9710)  can1  599FF71   [8]  1A E0 02 82 02 00 F7 D1
 (1.9720)  can1  586FF72   [8]  01 80 FF FF FF FF F1 9F
 (1.9730)  can1  4100209   [8]  E9 35 13 00 00 00 00 00
 (1.9740)  can1  587FF72   [8]  03 08 CA 0F FF FF F7 70
 (1.9740)  can1  4100208   [8]  6F 10 13 00 00 00 00 00
 (1.9820)  can1  89A0C02   [8]  00 00 00 00 CC 0B 00 00
 (1.9830)  can1  8030C02   [8]  00 00 2A 68 2A 68 92 17
 (1.9830)  can1  4100209   [8]  E9 35 13 00 00 00 00 00
 (1.9840)  can1  585FF72   [8]  03 80 60 09 60 09 FD 8A
 (1.9840)  can1  8580C02   [8]  00 00 00 00 00 00 00 00
 (1.9840)  can1  4100208   [8]  6F 10 13 00 00 00 00 00
 (1.9870)  can1  8100302   [5]  01 00 0A 00 18
 (1.9890)  can1  595FF71   [8]  05 80 60 09 60 09 F7 5D
 (1.9900)  can1  596FF71   [8]  00 80 FF FF FF FF F0 CB
 (1.9900)  can1  597FF71   [8]  07 08 E2 0F FF FF F7 D8
 (1.9910)  can1  598FF71   [8]  40 01 78 FF FF FF F7 CA
 (1.9920)  can1  586FF72   [8]  00 80 FF FF FF FF F2 CB
 (1.9930)  can1  4100209   [8]  E9 35 13 00 00 00 00 00
 (1.9930)  can1  4100208   [8]  6F 10 13 00 00 00 00 00
 (1.9960)  can1  18800401   [8]  03 3F 8D 25 8D 53 8D 00
 (1.9970)  can1  18840401   [8]  03 5A 8D 41 8D 6E 8D 00
 (1.9980)  can1  18C00401   [8]  03 42 30 79 30 F0 2F 00
 (2.0020)  can1  89A0C02   [8]  00 00 00 00 00 00 00 00
 (2.0020)  can1  8030C02   [8]  00 00 2A 68 2A 68 92 17
 (2.0030)  can1  4100209   [8]  E9 35 13 00 00 00 00 00
 (2.0030)  can1  585FF72   [8]  03 80 60 09 60 09 FE 8A
 (2.0040)  can1  8580C02   [8]  00 00 00 00 00 00 00 00
 (2.0040)  can1  4100208   [8]  6F 10 13 00 00 00 00 00
 (2.0100)  can1  595FF71   [8]  05 80 60 09 60 09 F8 5D
 (2.0100)  can1  596FF71   [8]  00 80 FF FF FF FF F1 CB
 (2.0120)  can1  8100302   [5]  01 00 0A 00 18
 (2.0120)  can1  586FF72   [8]  FF 7F FF FF FF FF F3 19
 (2.0220)  can1  4100209   [8]  E9 35 13 00 00 00 00 00
 (2.0230)  can1  588FF72   [8]  A0 01 54 FF FF FF F8 59
 (2.0230)  can1  589FF72   [8]  1A D0 02 81 02 00 F8 87
 (2.0240)  can1  4100208   [8]  6F 10 13 00 00 00 00 00
 (2.0240)  can1  5807202   [8]  03 80 00 00 E0 01 0A BF
 (2.0250)  can1  5817202   [8]  01 00 10 27 10 27 0D E3
 (2.0260)  can1  4100209   [8]  E9 35 13 00 00 00 00 00
 (2.0260)  can1  585FF72   [8]  03 80 60 09 60 09 FF 8A
 (2.0270)  can1  5827202   [8]  FA 00 00 00 00 00 0A D4
 (2.0270)  can1  5907102   [8]  05 80 00 00 E0 01 0A 68
 (2.0270)  can1  4100208   [8]  6F 10 13 00 00 00 00 00
 (2.0280)  can1  5837202   [8]  2C 41 06 00 00 00 0A E0
 (2.0280)  can1  5917102   [8]  01 00 10 27 10 27 0D E3
 (2.0290)  can1  5927102   [8]  FA 00 00 00 00 00 0A D4
 (2.0290)  can1  5937102   [8]  2C 41 06 00 00 00 0A E0
 (2.0290)  can1  5847270   [8]  00 00 00 00 00 00 0A 9F
 (2.0300)  can1  5947102   [8]  00 00 00 00 00 00 0A 9F
 (2.0300)  can1  89A0C02   [8]  00 00 00 00 00 00 00 00
 (2.0300)  can1  8030C02   [8]  00 00 2A 68 2A 68 92 17
 (2.0310)  can1  8580C02   [8]  00 00 00 00 00 00 00 00
 (2.0310)  can1  595FF71   [8]  05 80 60 09 60 09 F9 5D
 (2.0310)  can1  596FF71   [8]  FF 7F FF FF FF FF F2 19
 (2.0320)  can1  586FF72   [8]  FD 7F FF FF FF FF F4 B1
 (2.0330)  can1  4100209   [8]  E9 35 13 00 00 00 00 00
 (2.0330)  can1  4100208   [8]  6F 10 13 00 00 00 00 00
 (2.0370)  can1  8100302   [5]  01 00 0A 00 18
 (2.0420)  can1  89A0C02   [8]  00 00 00 00 00 00 00 00
 (2.0430)  can1  8030C02   [8]  00 00 2A 68 2A 68 92 17
 (2.0430)  can1  4100209   [8]  E9 35 13 00 00 00 00 00
 (2.0440)  can1  585FF72   [8]  03 80 60 09 60 09 F0 8A
 (2.0440)  can1  8010C01   [8]  5A 62 00 00 00 00 00 00
 (2.0450)  can1  8101201   [8]  DB 62 DA 8D 00 8A 56 00
 (2.0450)  can1  4100208   [8]  6F 10 13 00 00 00 00 00
 (2.0450)  can1  8580C02   [8]  00 00 FE FF 00 00 00 00
 (2.0460)  can1  8041001   [8]  01 02 A0 32 04 AF 3B 00
 (2.0460)  can1  18800401   [8]  04 75 8D 61 8D E1 89 00
 (2.0470)  can1  18840401   [8]  04 90 8D 7C 8D FE 89 00
 (2.0470)  can1  18C00401   [8]  04 95 2F 35 2F 46 30 00
 (2.0500)  can1  595FF71   [8]  05 80 60 09 60 09 FA 5D
 (2.0500)  can1  596FF71   [8]  FF 7F FF FF FF FF F3 19
 (2.0520)  can1  586FF72   [8]  FF 7F FF FF FF FF F5 19
 (2.0530)  can1  4100209   [8]  E9 35 13 00 00 00 00 00
 (2.0530)  can1  4100208   [8]  6F 10 13 00 00 00 00 00
 (2.0620)  can1  8100302   [5]  01 00 0A 00 18
 (2.0630)  can1  8580C02   [8]  00 00 00 00 00 00 00 00
 (2.0630)  can1  4100209   [8]  E9 35 13 00 00 00 00 00
 (2.0640)  can1  585FF72   [8]  03 80 60 09 60 09 F1 8A
 (2.0640)  can1  8030C02   [8]  00 00 2A 68 2A 68 92 17
 (2.0640)  can1  89A0C02   [8]  00 00 00 00 00 00 00 00
 (2.0650)  can1  4100208   [8]  6F 10 13 00 00 00 00 00
 (2.0700)  can1  595FF71   [8]  05 80 60 09 60 09 FB 5D
 (2.0700)  can1  596FF71   [8]  00 80 FF FF FF FF F4 CB
 (2.0710)  can1  599FF71   [8]  1A E0 02 82 02 00 F8 D1
 (2.0720)  can1  586FF72   [8]  02 80 FF FF FF FF F6 63
 (2.0730)  can1  4100209   [8]  E9 35 13 00 00 00 00 00
 (2.0740)  can1  587FF72   [8]  01 08 CA 0F FF FF F8 D8
 (2.0740)  can1  4100208   [8]  6F 10 13 00 00 00 00 00
 (2.0820)  can1  5807202   [8]  03 80 00 00 E0 01 0B BF
 (2.0820)  can1  5817202   [8]  01 00 10 27 10 27 0E E3
 (2.0830)  can1  4100209   [8]  E9 35 13 00 00 00 00 00
 (2.0830)  can1  585FF72   [8]  03 80 60 09 60 09 F2 8A
 (2.0840)  can1  5827202   [8]  FA 00 00 00 00 00 0B D4
 (2.0840)  can1  5907102   [8]  05 80 00 00 E0 01 0B 68
 (2.0850)  can1  4100208   [8]  6F 10 13 00 00 00 00 00
 (2.0860)  can1  5837202   [8]  2C 41 06 00 00 00 0B E0
 (2.0860)  can1  5917102   [8]  01 00 10 27 10 27 0E E3
 (2.0870)  can1  5927102   [8]  FA 00 00 00 00 00 0B D4
 (2.0870)  can1  5937102   [8]  2C 41 06 00 00 00 0B E0
 (2.0880)  can1  5847270   [8]  00 00 00 00 00 00 0B 9F
 (2.0880)  can1  5947102   [8]  00 00 00 00 00 00 0B 9F
 (2.0880)  can1  89A0C02   [8]  00 00 00 00 99 17 00 00
 (2.0890)  can1  8030C02   [8]  00 00 2A 68 2A 68 92 17
 (2.0890)  can1  8580C02   [8]  00 00 01 00 00 00 00 00
 (2.0890)  can1  8100302   [5]  01 00 0A 00 18
 (2.0900)  can1  595FF71   [8]  05 80 60 09 60 09 FC 5D
 (2.0900)  can1  596FF71   [8]  FF 7F FF FF FF FF F5 19
 (2.0910)  can1  597FF71   [8]  05 08 E4 0F FF FF F8 BF
 (2.0910)  can1  598FF71   [8]  40 01 78 FF FF FF F8 CA
 (2.0920)  can1  586FF72   [8]  FE 7F FF FF FF FF F7 4D
 (2.0930)  can1  4100209   [8]  E9 35 13 00 00 00 00 00
 (2.0930)  can1  1948FF72   [8]  00 C0 00 55 FF FF 9B AE
 (2.0940)  can1  4100208   [8]  6F 10 13 00 00 00 00 00
 (2.0960)  can1  18800401   [8]  05 50 8D 2B 8D 3B 8D 00
 (2.0970)  can1  18840401   [8]  05 6D 8D 4A 8D 57 8D 00
 (2.0970)  can1  18C00401   [8]  05 A1 30 AF 30 2C 31 00
 (2.1020)  can1  89A0C02   [8]  00 00 00 00 00 00 00 00
 (2.1020)  can1  8030C02   [8]  00 00 2A 68 2A 68 92 17
 (2.1030)  can1  4100209   [8]  E9 35 13 00 00 00 00 00
 (2.1030)  can1  585FF72   [8]  03 80 60 09 60 09 F3 8A
 (2.1040)  can1  8580C02   [8]  00 00 FF FF 00 00 00 00
 (2.1040)  can1  4100208   [8]  6F 10 13 00 00 00 00 00
 (2.1100)  can1  595FF71   [8]  05 80 60 09 60 09 FD 5D
 (2.1100)  can1  596FF71   [8]  00 80 FF FF FF FF F6 CB
 (2.1120)  can1  8100302   [5]  01 00 0A 00 18
 (2.1120)  can1  586FF72   [8]  FD 7F FF FF FF FF F8 B1
 (2.1130)  can1  4100209   [8]  E9 35 13 00 00 00 00 00
 (2.1140)  can1  588FF72   [8]  A0 01 54 FF FF FF F9 59
 (2.1140)  can1  589FF72   [8]  1A D0 02 81 02 00 F9 87
 (2.1150)  can1  4100208   [8]  6F 10 13 00 00 00 00 00
 (2.1150)  can1  1948FF71   [8]  00 C0 00 55 FF FF 9B AE
 (2.1220)  can1  89A0C02   [8]  00 00 00 00 00 00 00 00
 (2.1220)  can1  8030C02   [8]  00 00 2A 68 2A 68 92 17
 (2.1230)  can1  4100209   [8]  E9 35 13 00 00 00 00 00
 (2.1230)  can1  585FF72   [8]  03 80 60 09 60 09 F4 8A
 (2.1240)  can1  8580C02   [8]  00 00 FE FF 00 00 00 00
 (2.1240)  can1  4100208   [8]  6F 10 13 00 00 00 00 00
 (2.1300)  can1  595FF71   [8]  05 80 60 09 60 09 FE 5D
 (2.1310)  can1  596FF71   [8]  01 80 FF FF FF FF F7 9F
 (2.1320)  can1  1949FF71   [8]  0D 80 00 0D 80 00 9C B6
 (2.1320)  can1  194AFF71   [8]  34 97 56 77 55 57 9D E1
 (2.1320)  can1  194BFF71   [8]  77 F5 FF FF FF FF 9E 06
 (2.1330)  can1  194CFF71   [8]  FF FF FF FF FF FF 9F 99
 (2.1330)  can1  586FF72   [8]  02 80 FF FF FF FF F9 63
 (2.1340)  can1  4100209   [8]  E9 35 13 00 00 00 00 00
 (2.1340)  can1  1949FF72   [8]  0D 80 00 0D 90 00 9C C6
 (2.1350)  can1  194AFF72   [8]  61 97 56 69 75 56 9D 1F
 (2.1350)  can1  4100208   [8]  6F 10 13 00 00 00 00 00
 (2.1350)  can1  194BFF72   [8]  69 F5 FF FF FF FF 9E F8
 (2.1360)  can1  194CFF72   [8]  FF FF FF FF FF FF 9F 99
 (2.1370)  can1  8100302   [5]  01 00 0A 00 18
 (2.1420)  can1  5807202   [8]  03 80 00 00 E0 01 0C BF
 (2.1420)  can1  5817202   [8]  01 00 10 27 10 27 0F E3
 (2.1430)  can1  4100209   [8]  E9 35 13 00 00 00 00 00
 (2.1440)  can1  585FF72   [8]  03 80 60 09 60 09 F5 8A
 (2.1450)  can1  5827202   [8]  FA 00 00 00 00 00 0C D4
 (2.1450)  can1  5907102   [8]  05 80 00 00 E0 01 0C 68
 (2.1450)  can1  4100208   [8]  6F 10 13 00 00 00 00 00
 (2.1460)  can1  5837202   [8]  2C 41 06 00 00 00 0C E0
 (2.1460)  can1  5917102   [8]  01 00 10 27 10 27 0F E3
 (2.1470)  can1  5927102   [8]  FA 00 00 00 00 00 0C D4
 (2.1480)  can1  8010C01   [8]  5B 62 00 00 00 00 00 00
 (2.1480)  can1  5847270   [8]  00 00 00 00 00 00 0C 9F
 (2.1490)  can1  5937102   [8]  2C 41 06 00 00 00 0C E0
 (2.1490)  can1  5947102   [8]  00 00 00 00 00 00 0C 9F
 (2.1490)  can1  8041001   [8]  01 02 A0 32 04 AF 3B 00
 (2.1500)  can1  8101201   [8]  D9 62 D8 8D FE 89 59 00
 (2.1500)  can1  8580C02   [8]  00 00 01 00 00 00 00 00
 (2.1510)  can1  89A0C02   [8]  CC 0B 00 00 99 17 00 00
 (2.1510)  can1  8030C02   [8]  00 00 2A 68 2A 68 92 17
 (2.1510)  can1  18800401   [8]  06 5C 8D 93 8D 9D 8D 00
 (2.1510)  can1  18840401   [8]  06 76 8D AC 8D B8 8D 00
 (2.1520)  can1  18C00401   [8]  06 A7 30 65 31 9E 30 00
 (2.1520)  can1  595FF71   [8]  05 80 60 09 60 09 FF 5D
 (2.1530)  can1  596FF71   [8]  02 80 FF FF FF FF F8 63
 (2.1530)  can1  586FF72   [8]  01 80 FF FF FF FF FA 9F
 (2.1530)  can1  4100209   [8]  E9 35 13 00 00 00 00 00
 (2.1540)  can1  4100208   [8]  6F 10 13 00 00 00 00 00
 (2.1620)  can1  8100302   [5]  01 00 0A 00 18
 (2.1620)  can1  8580C02   [8]  01 00 00 00 00 00 00 00
 (2.1630)  can1  4100209   [8]  E9 35 13 00 00 00 00 00
 (2.1640)  can1  585FF72   [8]  03 80 60 09 60 09 F6 8A
 (2.1640)  can1  8030C02   [8]  00 00 2A 68 2A 68 92 17
 (2.1650)  can1  89A0C02   [8]  99 17 00 00 CC 0B 00 00
 (2.1650)  can1  4100208   [8]  6F 10 13 00 00 00 00 00
 (2.1700)  can1  595FF71   [8]  05 80 60 09 60 09 F0 5D
 (2.1700)  can1  596FF71   [8]  FE 7F FF FF FF FF F9 4D
 (2.1700)  can1  599FF71   [8]  1A E0 02 82 02 00 F9 D1
 (2.1720)  can1  586FF72   [8]  01 80 FF FF FF FF FB 9F
 (2.1730)  can1  4100209   [8]  E9 35 13 00 00 00 00 00
 (2.1730)  can1  587FF72   [8]  02 08 CA 0F FF FF F9 24
 (2.1740)  can1  4100208   [8]  6F 10 13 00 00 00 00 00
 (2.1820)  can1  89A0C02   [8]  00 00 00 00 CC 0B 00 00
 (2.1830)  can1  8030C02   [8]  00 00 2A 68 2A 68 92 17
 (2.1830)  can1  4100209   [8]  E9 35 13 00 00 00 00 00
 (2.1840)  can1  585FF72   [8]  03 80 60 09 60 09 F7 8A
 (2.1840)  can1  8580C02   [8]  FF FF 00 00 00 00 00 00
 (2.1850)  can1  4100208   [8]  6F 10 13 00 00 00 00 00
 (2.1870)  can1  8100302   [5]  01 00 0A 00 18
 (2.1900)  can1  595FF71   [8]  05 80 60 09 60 09 F1 5D
 (2.1900)  can1  596FF71   [8]  FE 7F FF FF FF FF FA 4D
 (2.1910)  can1  597FF71   [8]  07 08 E7 0F FF FF F9 E7
 (2.1910)  can1  598FF71   [8]  40 01 78 FF FF FF F9 CA
 (2.1920)  can1  586FF72   [8]  01 80 FF FF FF FF FC 9F
 (2.1930)  can1  4100209   [8]  E9 35 13 00 00 00 00 00
 (2.1930)  can1  4100208   [8]  6F 10 13 00 00 00 00 00
 (2.1960)  can1  18101203   [4]  7B 2C 0E 09
 (2.1970)  can1  18800401   [8]  07 9C 8D 80 8D 40 8D 00
 (2.1980)  can1  18840401   [8]  07 B7 8D 9B 8D 5B 8D 00
 (2.1980)  can1  18C00401   [8]  07 71 31 89 30 68 31 00
 (2.2020)  can1  5807202   [8]  03 80 00 00 E0 01 0D BF
 (2.2030)  can1  5817202   [8]  01 00 10 27 10 27 00 E3
 (2.2040)  can1  4100209   [8]  E9 35 13 00 00 00 00 00
 (2.2040)  can1  585FF72   [8]  03 80 60 09 60 09 F8 8A
 (2.2050)  can1  5827202   [8]  FA 00 00 00 00 00 0D D4
 (2.2050)  can1  5907102   [8]  05 80 00 00 E0 01 0D 68
 (2.2060)  can1  4100208   [8]  6F 10 13 00 00 00 00 00
 (2.2060)  can1  5837202   [8]  2C 41 06 00 00 00 0D E0
 (2.2070)  can1  5917102   [8]  01 00 10 27 10 27 00 E3
 (2.2070)  can1  5927102   [8]  FA 00 00 00 00 00 0D D4
 (2.2080)  can1  5937102   [8]  2C 41 06 00 00 00 0D E0
 (2.2080)  can1  5847270   [8]  00 00 00 00 00 00 0D 9F
 (2.2080)  can1  5947102   [8]  00 00 00 00 00 00 0D 9F
 (2.2080)  can1  89A0C02   [8]  00 00 00 00 CC 0B 00 00
 (2.2090)  can1  8030C02   [8]  00 00 2A 68 2A 68 92 17
 (2.2090)  can1  8580C02   [8]  FF FF 00 00 00 00 00 00
 (2.2100)  can1  595FF71   [8]  05 80 60 09 60 09 F2 5D
 (2.2100)  can1  596FF71   [8]  FF 7F FF FF FF FF FB 19
 (2.2120)  can1  8100302   [5]  01 00 0A 00 18
 (2.2120)  can1  586FF72   [8]  FE 7F FF FF FF FF FD 4D
 (2.2130)  can1  4100209   [8]  E9 35 13 00 00 00 00 00
 (2.2130)  can1  528FF72   [8]  FF FF 35 00 00 00 34 00
 (2.2140)  can1  529FF72   [8]  02 00 43 00 0A 00 03 00
 (2.2140)  can1  4100208   [8]  6F 10 13 00 00 00 00 00
 (2.2150)  can1  52CFF72   [8]  00 00 EF FF EF FF 3A 00
 (2.2150)  can1  588FF72   [8]  90 01 55 FF FF FF FA B6
 (2.2150)  can1  589FF72   [8]  1A D0 02 81 02 00 FA 87
 (2.2200)  can1  528FF71   [8]  08 00 54 00 00 00 56 00
 (2.2210)  can1  529FF71   [8]  06 00 51 00 0C 00 05 00
 (2.2210)  can1  52CFF71   [8]  00 00 EF FF EF FF 3A 00
 (2.2220)  can1  89A0C02   [8]  00 00 00 00 00 00 00 00
 (2.2220)  can1  8030C02   [8]  00 00 2A 68 2A 68 92 17
 (2.2230)  can1  4100209   [8]  E9 35 13 00 00 00 00 00
 (2.2230)  can1  585FF72   [8]  03 80 60 09 60 09 F9 8A
 (2.2240)  can1  8580C02   [8]  00 00 FF FF 00 00 00 00
 (2.2240)  can1  4100208   [8]  6F 10 13 00 00 00 00 00
 (2.2300)  can1  595FF71   [8]  05 80 60 09 60 09 F3 5D
 (2.2300)  can1  596FF71   [8]  02 80 FF FF FF FF FC 63
 (2.2320)  can1  586FF72   [8]  FD 7F FF FF FF FF FE B1
 (2.2330)  can1  4100209   [8]  E9 35 13 00 00 00 00 00
 (2.2340)  can1  4100208   [8]  6F 10 13 00 00 00 00 00
 (2.2370)  can1  8100302   [5]  01 00 0A 00 18
 (2.2420)  can1  89A0C02   [8]  99 17 00 00 00 00 00 00
 (2.2430)  can1  8030C02   [8]  00 00 2A 68 2A 68 92 17
 (2.2440)  can1  4100209   [8]  E9 35 13 00 00 00 00 00
 (2.2440)  can1  585FF72   [8]  03 80 60 09 60 09 FA 8A
 (2.2450)  can1  8580C02   [8]  01 00 FE FF 00 00 00 00
 (2.2450)  can1  4100208   [8]  6F 10 13 00 00 00 00 00
 (2.2450)  can1  8101201   [8]  D7 62 DB 8D FF 89 4B 00
 (2.2460)  can1  8010C01   [8]  5B 62 00 00 00 00 00 00
 (2.2460)  can1  8041001   [8]  01 02 A0 32 04 AF 3B 00
 (2.2460)  can1  18800401   [8]  08 26 8D 13 8A AE 8D 00
 (2.2470)  can1  18840401   [8]  08 40 8D 26 8A C7 8D 00
 (2.2470)  can1  18C00401   [8]  08 3D 30 54 31 ED 2F 00
 (2.2500)  can1  595FF71   [8]  05 80 60 09 60 09 F4 5D
 (2.2500)  can1  596FF71   [8]  FD 7F FF FF FF FF FD B1
 (2.2520)  can1  586FF72   [8]  01 80 FF FF FF FF FF 9F
 (2.2530)  can1  4100209   [8]  E9 35 13 00 00 00 00 00
 (2.2540)  can1  4100208   [8]  6F 10 13 00 00 00 00 00
 (2.2620)  can1  5807202   [8]  03 80 00 00 E0 01 0E BF
 (2.2620)  can1  5817202   [8]  01 00 10 27 10 27 01 E3
 (2.2630)  can1  4100209   [8]  E9 35 13 00 00 00 00 00
 (2.2630)  can1  585FF72   [8]  03 80 60 09 60 09 FB 8A
 (2.2640)  can1  5827202   [8]  FA 00 00 00 00 00 0E D4
 (2.2640)  can1  5907102   [8]  05 80 00 00 E0 01 0E 68
 (2.2650)  can1  4100208   [8]  6F 10 13 00 00 00 00 00
 (2.2660)  can1  5837202   [8]  2C 41 06 00 00 00 0E E0
 (2.2660)  can1  5917102   [8]  01 00 10 27 10 27 01 E3
 (2.2670)  can1  5927102   [8]  FA 00 00 00 00 00 0E D4
 (2.2670)  can1  5937102   [8]  2C 41 06 00 00 00 0E E0
 (2.2680)  can1  5847270   [8]  00 00 00 00 00 00 0E 9F
 (2.2680)  can1  5947102   [8]  00 00 00 00 00 00 0E 9F
 (2.2680)  can1  8100302   [5]  01 00 0A 00 18
 (2.2690)  can1  8580C02   [8]  FE FF 00 00 00 00 00 00
 (2.2690)  can1  89A0C02   [8]  00 00 00 00 CC 0B 00 00
 (2.2690)  can1  8030C02   [8]  00 00 2A 68 2A 68 92 17
 (2.2700)  can1  595FF71   [8]  05 80 60 09 60 09 F5 5D
 (2.2700)  can1  596FF71   [8]  01 80 FF FF FF FF FE 9F
 (2.2710)  can1  599FF71   [8]  1A E0 02 82 02 00 FA D1
 (2.2720)  can1  4100209   [8]  E9 35 13 00 00 00 00 00
 (2.2730)  can1  586FF72   [8]  FE 7F FF FF FF FF F0 4D
 (2.2730)  can1  587FF72   [8]  01 08 CA 0F FF FF FA D8
 (2.2740)  can1  4100208   [8]  6F 10 13 00 00 00 00 00
 (2.2820)  can1  89A0C02   [8]  CC 0B 00 00 00 00 00 00
 (2.2820)  can1  8030C02   [8]  00 00 2A 68 2A 68 92 17
 (2.2830)  can1  4100209   [8]  E9 35 13 00 00 00 00 00
 (2.2840)  can1  585FF72   [8]  03 80 60 09 60 09 FC 8A
 (2.2840)  can1  8580C02   [8]  00 00 FF FF 00 00 00 00
 (2.2850)  can1  4100208   [8]  6F 10 13 00 00 00 00 00
 (2.2870)  can1  8100302   [5]  01 00 0A 00 18
 (2.2900)  can1  595FF71   [8]  05 80 60 09 60 09 F6 5D
 (2.2900)  can1  596FF71   [8]  00 80 FF FF FF FF FF CB
 (2.2910)  can1  597FF71   [8]  06 08 E4 0F FF FF FA 43
 (2.2910)  can1  598FF71   [8]  40 01 78 FF FF FF FA CA
 (2.2920)  can1  586FF72   [8]  FE 7F FF FF FF FF F1 4D
 (2.2930)  can1  4100209   [8]  E9 35 13 00 00 00 00 00
 (2.2930)  can1  4100208   [8]  6F 10 13 00 00 00 00 00
 (2.2960)  can1  18800401   [8]  09 98 8D 67 8D 4B 8D 00
 (2.2970)  can1  18840401   [8]  09 B2 8D 82 8D 65 8D 00
 (2.2980)  can1  18C00401   [8]  09 C8 30 B1 2F AD 30 00
 (2.3020)  can1  89A0C02   [8]  00 00 00 00 00 00 00 00
 (2.3020)  can1  8030C02   [8]  00 00 2A 68 2A 68 92 17
 (2.3030)  can1  4100209   [8]  E9 35 13 00 00 00 00 00
 (2.3030)  can1  585FF72   [8]  03 80 60 09 60 09 FD 8A
 (2.3040)  can1  8580C02   [8]  00 00 FF FF 00 00 00 00
 (2.3040)  can1  4100208   [8]  6F 10 13 00 00 00 00 00
 (2.3100)  can1  595FF71   [8]  05 80 60 09 60 09 F7 5D
 (2.3100)  can1  596FF71   [8]  00 80 FF FF FF FF F0 CB
 (2.3120)  can1  8100302   [5]  01 00 0A 00 18
 (2.3120)  can1  586FF72   [8]  FF 7F FF FF FF FF F2 19
 (2.3130)  can1  4100209   [8]  E9 35 13 00 00 00 00 00
 (2.3130)  can1  588FF72   [8]  A0 01 54 FF FF FF FB 59
 (2.3140)  can1  589FF72   [8]  1A D0 02 81 02 00 FB 87
 (2.3140)  can1  4100208   [8]  6F 10 13 00 00 00 00 00
 (2.3220)  can1  5807202   [8]  03 80 00 00 E0 01 0F BF
 (2.3230)  can1  5817202   [8]  01 00 10 27 10 27 02 E3
 (2.3230)  can1  4100209   [8]  E9 35 13 00 00 00 00 00
 (2.3240)  can1  585FF72   [8]  03 80 60 09 60 09 FE 8A
 (2.3240)  can1  5827202   [8]  FA 00 00 00 00 00 0F D4
 (2.3250)  can1  5907102   [8]  05 80 00 00 E0 01 0F 68
 (2.3250)  can1  4100208   [8]  6F 10 13 00 00 00 00 00
 (2.3260)  can1  5837202   [8]  2C 41 06 00 00 00 0F E0
 (2.3270)  can1  5917102   [8]  01 00 10 27 10 27 02 E3
 (2.3270)  can1  5927102   [8]  FA 00 00 00 00 00 0F D4
 (2.3280)  can1  5937102   [8]  2C 41 06 00 00 00 0F E0
 (2.3280)  can1  5847270   [8]  00 00 00 00 00 00 0F 9F
 (2.3280)  can1  5947102   [8]  00 00 00 00 00 00 0F 9F
 (2.3280)  can1  89A0C02   [8]  00 00 00 00 00 00 00 00
 (2.3290)  can1  8030C02   [8]  00 00 2A 68 2A 68 92 17
 (2.3290)  can1  8580C02   [8]  00 00 00 00 00 00 00 00
 (2.3300)  can1  595FF71   [8]  05 80 60 09 60 09 F8 5D
 (2.3300)  can1  596FF71   [8]  02 80 FF FF FF FF F1 63
 (2.3320)  can1  586FF72   [8]  00 80 FF FF FF FF F3 CB
 (2.3330)  can1  4100209   [8]  E9 35 13 00 00 00 00 00
 (2.3330)  can1  4100208   [8]  6F 10 13 00 00 00 00 00
 (2.3370)  can1  8100302   [5]  01 00 0A 00 18
 (2.3420)  can1  89A0C02   [8]  99 17 00 00 00 00 00 00
 (2.3420)  can1  8030C02   [8]  00 00 2A 68 2A 68 92 17
 (2.3430)  can1  4100209   [8]  E9 35 13 00 00 00 00 00
 (2.3440)  can1  585FF72   [8]  03 80 60 09 60 09 FF 8A
 (2.3450)  can1  8580C02   [8]  01 00 00 00 00 00 00 00
 (2.3450)  can1  4100208   [8]  6F 10 13 00 00 00 00 00
 (2.3450)  can1  8041001   [8]  01 02 A0 32 04 AF 3B 00
 (2.3460)  can1  8101201   [8]  DD 62 D7 8D FB 89 58 00
 (2.3460)  can1  8010C01   [8]  5C 62 00 00 00 00 00 00
 (2.3460)  can1  18800401   [8]  0A FF 8C 38 8D 5F 8D 00
 (2.3470)  can1  18840401   [8]  0A 19 8D 50 8D 79 8D 00
 (2.3470)  can1  18C00401   [8]  0A 95 30 50 31 D3 30 00
 (2.3480)  can1  1948FF72   [8]  00 C0 00 55 FF FF A0 B3
 (2.3490)  can1  595FF71   [8]  05 80 60 09 60 09 F9 5D
 (2.3500)  can1  596FF71   [8]  03 80 FF FF FF FF F2 37
 (2.3520)  can1  4100209   [8]  E9 35 13 00 00 00 00 00
 (2.3530)  can1  586FF72   [8]  FE 7F FF FF FF FF F4 4D
 (2.3530)  can1  4100208   [8]  6F 10 13 00 00 00 00 00
 (2.3620)  can1  8100302   [5]  01 00 0A 00 18
 (2.3630)  can1  8580C02   [8]  02 00 FF FF 00 00 00 00
 (2.3640)  can1  89A0C02   [8]  66 23 00 00 00 00 00 00
 (2.3640)  can1  4100209   [8]  E9 35 13 00 00 00 00 00
 (2.3640)  can1  585FF72   [8]  03 80 60 09 60 09 F0 8A
 (2.3650)  can1  8030C02   [8]  00 00 2A 68 2A 68 92 17
 (2.3650)  can1  4100208   [8]  6F 10 13 00 00 00 00 00
 (2.3690)  can1  595FF71   [8]  05 80 60 09 60 09 FA 5D
 (2.3700)  can1  596FF71   [8]  FE 7F FF FF FF FF F3 4D
 (2.3700)  can1  599FF71   [8]  1A E0 02 82 02 00 FB D1
 (2.3710)  can1  1948FF71   [8]  00 C0 00 55 FF FF A0 B3
 (2.3720)  can1  4100209   [8]  E9 35 13 00 00 00 00 00
 (2.3730)  can1  586FF72   [8]  02 80 FF FF FF FF F5 63
 (2.3730)  can1  587FF72   [8]  05 08 CA 0F FF FF FB A7
 (2.3740)  can1  4100208   [8]  6F 10 13 00 00 00 00 00
 (2.3820)  can1  5807202   [8]  03 80 00 00 E0 01 00 BF
 (2.3830)  can1  5817202   [8]  01 00 10 27 10 27 03 E3
 (2.3830)  can1  4100209   [8]  E9 35 13 00 00 00 00 00
 (2.3830)  can1  585FF72   [8]  03 80 60 09 60 09 F1 8A
 (2.3840)  can1  5827202   [8]  FA 00 00 00 00 00 00 D4
 (2.3850)  can1  5907102   [8]  05 80 00 00 E0 01 00 68
 (2.3850)  can1  4100208   [8]  6F 10 13 00 00 00 00 00
 (2.3860)  can1  5837202   [8]  2C 41 06 00 00 00 00 E0
 (2.3870)  can1  5917102   [8]  01 00 10 27 10 27 03 E3
 (2.3880)  can1  5927102   [8]  FA 00 00 00 00 00 00 D4
 (2.3880)  can1  5937102   [8]  2C 41 06 00 00 00 00 E0
 (2.3890)  can1  5847270   [8]  00 00 00 00 00 00 00 9F
 (2.3890)  can1  5947102   [8]  00 00 00 00 00 00 00 9F
 (2.3900)  can1  1949FF71   [8]  0D 80 00 0D 90 00 A1 CB
 (2.3910)  can1  8030C02   [8]  00 00 2A 68 2A 68 92 17
 (2.3910)  can1  8580C02   [8]  FF FF 01 00 00 00 00 00
 (2.3910)  can1  89A0C02   [8]  00 00 00 00 99 17 00 00
 (2.3920)  can1  194AFF71   [8]  34 C7 56 77 25 57 A2 E6
 (2.3920)  can1  8100302   [5]  01 00 0A 00 18
 (2.3920)  can1  194BFF71   [8]  80 F5 FF FF FF FF A3 14
 (2.3930)  can1  194CFF71   [8]  FF FF FF FF FF FF A4 9E
 (2.3930)  can1  1949FF72   [8]  0D 80 00 0D A0 00 A1 DB
 (2.3940)  can1  194AFF72   [8]  62 97 56 69 75 56 A2 25
 (2.3940)  can1  194BFF72   [8]  69 F5 FF FF FF FF A3 FD
 (2.3950)  can1  194CFF72   [8]  FF FF FF FF FF FF A4 9E
 (2.3950)  can1  595FF71   [8]  05 80 60 09 60 09 FB 5D
 (2.3960)  can1  596FF71   [8]  FE 7F FF FF FF FF F4 4D
 (2.3960)  can1  597FF71   [8]  0C 08 E7 0F FF FF FB E5
 (2.3960)  can1  598FF71   [8]  40 01 78 FF FF FF FB CA
 (2.3970)  can1  586FF72   [8]  01 80 FF FF FF FF F6 9F
 (2.3970)  can1  4100209   [8]  E9 35 13 00 00 00 00 00
 (2.3980)  can1  4100208   [8]  6F 10 13 00 00 00 00 00
 (2.3980)  can1  18800401   [8]  0B 87 8D 86 8D 94 8D 00
 (2.3980)  can1  18840401   [8]  0B A1 8D 9F 8D AD 8D 00
 (2.3980)  can1  18C00401   [8]  0B 8B 31 DC 30 7F 31 00
 (2.4020)  can1  89A0C02   [8]  00 00 00 00 CC 0B 00 00
 (2.4020)  can1  8030C02   [8]  00 00 2A 68 2A 68 92 17
 (2.4030)  can1  4100209   [8]  E9 35 13 00 00 00 00 00
 (2.4030)  can1  585FF72   [8]  03 80 60 09 60 09 F2 8A
 (2.4040)  can1  8580C02   [8]  FF FF 00 00 00 00 00 00
 (2.4040)  can1  4100208   [8]  6F 10 13 00 00 00 00 00
 (2.4090)  can1  595FF71   [8]  05 80 60 09 60 09 FC 5D
 (2.4100)  can1  596FF71   [8]  00 80 FF FF FF FF F5 CB
 (2.4120)  can1  8100302   [5]  01 00 0A 00 18
 (2.4130)  can1  586FF72   [8]  FF 7F FF FF FF FF F7 19
 (2.4140)  can1  4100209   [8]  E9 35 13 00 00 00 00 00
 (2.4140)  can1  588FF72   [8]  90 01 55 FF FF FF FC B6
 (2.4140)  can1  589FF72   [8]  1A D0 02 81 02 00 FC 87
 (2.4140)  can1  4100208   [8]  6F 10 13 00 00 00 00 00
 (2.4220)  can1  89A0C02   [8]  00 00 00 00 00 00 00 00
 (2.4220)  can1  8030C02   [8]  00 00 2A 68 2A 68 92 17
 (2.4230)  can1  4100209   [8]  E9 35 13 00 00 00 00 00
 (2.4230)  can1  585FF72   [8]  03 80 60 09 60 09 F3 8A
 (2.4240)  can1  8580C02   [8]  00 00 00 00 00 00 00 00
 (2.4240)  can1  4100208   [8]  6F 10 13 00 00 00 00 00
 (2.4290)  can1  595FF71   [8]  05 80 60 09 60 09 FD 5D
 (2.4300)  can1  596FF71   [8]  00 80 FF FF FF FF F6 CB
 (2.4320)  can1  586FF72   [8]  FF 7F FF FF FF FF F8 19
 (2.4330)  can1  4100209   [8]  E9 35 13 00 00 00 00 00
 (2.4330)  can1  4100208   [8]  6F 10 13 00 00 00 00 00
 (2.4370)  can1  8100302   [5]  01 00 0A 00 18
 (2.4420)  can1  5807202   [8]  03 80 00 00 E0 01 01 BF
 (2.4420)  can1  5817202   [8]  01 00 10 27 10 27 04 E3
 (2.4430)  can1  4100209   [8]  E9 35 13 00 00 00 00 00
 (2.4430)  can1  585FF72   [8]  03 80 60 09 60 09 F4 8A
 (2.4440)  can1  5827202   [8]  FA 00 00 00 00 00 01 D4
 (2.4450)  can1  5907102   [8]  05 80 00 00 E0 01 01 68
 (2.4460)  can1  4100208   [8]  6F 10 13 00 00 00 00 00
 (2.4460)  can1  5837202   [8]  2C 41 06 00 00 00 01 E0
 (2.4470)  can1  5917102   [8]  01 00 10 27 10 27 04 E3
 (2.4470)  can1  5927102   [8]  FA 00 00 00 00 00 01 D4
 (2.4480)  can1  8041001   [8]  01 02 A0 32 04 AF 3B 00
 (2.4480)  can1  5847270   [8]  00 00 00 00 00 00 01 9F
 (2.4490)  can1  5937102   [8]  2C 41 06 00 00 00 01 E0
 (2.4500)  can1  5947102   [8]  00 00 00 00 00 00 01 9F
 (2.4500)  can1  8010C01   [8]  5A 62 00 00 00 00 00 00
 (2.4500)  can1  8101201   [8]  DC 62 D6 8D FC 89 6A 00
 (2.4510)  can1  8580C02   [8]  00 00 00 00 00 00 00 00
 (2.4510)  can1  89A0C02   [8]  00 00 00 00 00 00 00 00
 (2.4510)  can1  8030C02   [8]  00 00 2A 68 2A 68 92 17
 (2.4520)  can1  18800401   [8]  0C 88 8D 42 8D 3D 8D 00
 (2.4520)  can1  18840401   [8]  0C A3 8D 5E 8D 59 8D 00
 (2.4530)  can1  18C00401   [8]  0C AB 30 35 31 65 30 00
 (2.4530)  can1  595FF71   [8]  05 80 60 09 60 09 FE 5D
 (2.4530)  can1  596FF71   [8]  00 80 FF FF FF FF F7 CB
 (2.4540)  can1  586FF72   [8]  02 80 FF FF FF FF F9 63
 (2.4540)  can1  4100209   [8]  E9 35 13 00 00 00 00 00
 (2.4540)  can1  4100208   [8]  6F 10 13 00 00 00 00 00
 (2.4620)  can1  8100302   [5]  01 00 0A 00 18
 (2.4620)  can1  8580C02   [8]  00 00 01 00 00 00 00 00
 (2.4630)  can1  585FF72   [8]  03 80 60 09 60 09 F5 8A
 (2.4630)  can1  4100209   [8]  E9 35 13 00 00 00 00 00
 (2.4640)  can1  8030C02   [8]  00 00 2A 68 2A 68 92 17
 (2.4640)  can1  89A0C02   [8]  00 00 00 00 99 17 00 00
 (2.4640)  can1  4100208   [8]  6F 10 13 00 00 00 00 00
 (2.4690)  can1  595FF71   [8]  05 80 60 09 60 09 FF 5D
 (2.4700)  can1  596FF71   [8]  01 80 FF FF FF FF F8 9F
 (2.4710)  can1  599FF71   [8]  1A E0 02 82 02 00 FC D1
 (2.4720)  can1  586FF72   [8]  01 80 FF FF FF FF FA 9F
 (2.4730)  can1  4100209   [8]  E9 35 13 00 00 00 00 00
 (2.4730)  can1  587FF72   [8]  03 08 CA 0F FF FF FC 70
 (2.4740)  can1  4100208   [8]  6F 10 13 00 00 00 00 00
 (2.4820)  can1  89A0C02   [8]  CC 0B 00 00 CC 0B 00 00
 (2.4820)  can1  8030C02   [8]  00 00 2A 68 2A 68 92 17
 (2.4830)  can1  4100209   [8]  E9 35 13 00 00 00 00 00
 (2.4830)  can1  585FF72   [8]  03 80 60 09 60 09 F6 8A
 (2.4840)  can1  8580C02   [8]  00 00 00 00 00 00 00 00
 (2.4840)  can1  4100208   [8]  6F 10 13 00 00 00 00 00
 (2.4870)  can1  8100302   [5]  01 00 0A 00 18
 (2.4890)  can1  595FF71   [8]  05 80 60 09 60 09 F0 5D
 (2.4900)  can1  596FF71   [8]  00 80 FF FF FF FF F9 CB
 (2.4910)  can1  597FF71   [8]  06 08 E4 0F FF FF FC 43
 (2.4910)  can1  598FF71   [8]  40 01 78 FF FF FF FC CA
 (2.4920)  can1  586FF72   [8]  01 80 FF FF FF FF FB 9F
 (2.4930)  can1  4100209   [8]  E9 35 13 00 00 00 00 00
 (2.4930)  can1  4100208   [8]  6F 10 13 00 00 00 00 00
 (2.4960)  can1  18800401   [8]  0D 5F 8D 8D 8D 71 8D 00
 (2.4970)  can1  18840401   [8]  0D 7B 8D A8 8D 8D 8D 00
 (2.4970)  can1  18C00401   [8]  0D D8 30 9A 2F E8 2F 00
 (2.5020)  can1  5807202   [8]  03 80 00 00 E0 01 02 BF
 (2.5030)  can1  5817202   [8]  01 00 10 27 10 27 05 E3
 (2.5030)  can1  4100209   [8]  E9 35 13 00 00 00 00 00
 (2.5030)  can1  585FF72   [8]  03 80 60 09 60 09 F7 8A
 (2.5040)  can1  5827202   [8]  FA 00 00 00 00 00 02 D4
 (2.5050)  can1  5907102   [8]  05 80 00 00 E0 01 02 68
 (2.5060)  can1  4100208   [8]  6F 10 13 00 00 00 00 00
 (2.5060)  can1  5837202   [8]  2C 41 06 00 00 00 02 E0
 (2.5070)  can1  5917102   [8]  01 00 10 27 10 27 05 E3
 (2.5070)  can1  5927102   [8]  FA 00 00 00 00 00 02 D4
 (2.5080)  can1  5937102   [8]  2C 41 06 00 00 00 02 E0
 (2.5080)  can1  5847270   [8]  00 00 00 00 00 00 02 9F
 (2.5080)  can1  5947102   [8]  00 00 00 00 00 00 02 9F
 (2.5090)  can1  89A0C02   [8]  00 00 00 00 CC 0B 00 00
 (2.5090)  can1  8030C02   [8]  00 00 2A 68 2A 68 92 17
 (2.5090)  can1  8580C02   [8]  00 00 00 00 00 00 00 00
 (2.5100)  can1  595FF71   [8]  05 80 60 09 60 09 F1 5D
 (2.5100)  can1  596FF71   [8]  00 80 FF FF FF FF FA CB
 (2.5120)  can1  8100302   [5]  01 00 0A 00 18
 (2.5120)  can1  586FF72   [8]  FF 7F FF FF FF FF FC 19
 (2.5130)  can1  4100209   [8]  E9 35 13 00 00 00 00 00
 (2.5140)  can1  588FF72   [8]  A0 01 54 FF FF FF FD 59
 (2.5140)  can1  589FF72   [8]  1A D0 02 81 02 00 FD 87
 (2.5150)  can1  4100208   [8]  6F 10 13 00 00 00 00 00
 (2.5220)  can1  89A0C02   [8]  00 00 00 00 00 00 00 00
 (2.5230)  can1  8030C02   [8]  00 00 2A 68 2A 68 92 17
 (2.5230)  can1  4100209   [8]  E9 35 13 00 00 00 00 00
 (2.5240)  can1  585FF72   [8]  03 80 60 09 60 09 F8 8A
 (2.5240)  can1  8580C02   [8]  00 00 00 00 00 00 00 00
 (2.5240)  can1  4100208   [8]  6F 10 13 00 00 00 00 00
 (2.5290)  can1  595FF71   [8]  05 80 60 09 60 09 F2 5D
 (2.5300)  can1  596FF71   [8]  00 80 FF FF FF FF FB CB
 (2.5320)  can1  586FF72   [8]  FD 7F FF FF FF FF FD B1
 (2.5330)  can1  4100209   [8]  E9 35 13 00 00 00 00 00
 (2.5330)  can1  4100208   [8]  6F 10 13 00 00 00 00 00
 (2.5370)  can1  8100302   [5]  01 00 0A 00 18
 (2.5420)  can1  89A0C02   [8]  00 00 00 00 00 00 00 00
 (2.5430)  can1  8030C02   [8]  00 00 2A 68 2A 68 92 17
 (2.5430)  can1  4100209   [8]  E9 35 13 00 00 00 00 00
 (2.5440)  can1  585FF72   [8]  03 80 60 09 60 09 F9 8A
 (2.5440)  can1  8580C02   [8]  00 00 FE FF 00 00 00 00
 (2.5450)  can1  4100208   [8]  6F 10 13 00 00 00 00 00
 (2.5450)  can1  8041001   [8]  01 02 A0 32 04 AF 3B 00
 (2.5460)  can1  8101201   [8]  DB 62 D9 8D FD 89 61 00
 (2.5470)  can1  8010C01   [8]  5B 62 00 00 00 00 00 00
 (2.5480)  can1  18800401   [8]  0E 37 8D 24 8D EB 8C 00
 (2.5480)  can1  18840401   [8]  0E 50 8D 3E 8D 07 8D 00
 (2.5480)  can1  18C00401   [8]  0E 4D 2F 87 30 55 30 00
 (2.5490)  can1  595FF71   [8]  05 80 60 09 60 09 F3 5D
 (2.5500)  can1  596FF71   [8]  FE 7F FF FF FF FF FC 4D
 (2.5520)  can1  586FF72   [8]  FD 7F FF FF FF FF FE B1
 (2.5530)  can1  4100209   [8]  E9 35 13 00 00 00 00 00
 (2.5530)  can1  4100208   [8]  6F 10 13 00 00 00 00 00
 (2.5620)  can1  5807202   [8]  03 80 00 00 E0 01 03 BF
 (2.5630)  can1  5817202   [8]  01 00 10 27 10 27 06 E3
 (2.5630)  can1  4100209   [8]  E9 35 13 00 00 00 00 00
 (2.5640)  can1  585FF72   [8]  03 80 60 09 60 09 FA 8A
 (2.5640)  can1  5827202   [8]  FA 00 00 00 00 00 03 D4
 (2.5650)  can1  5907102   [8]  05 80 00 00 E0 01 03 68
 (2.5660)  can1  4100208   [8]  6F 10 13 00 00 00 00 00
 (2.5670)  can1  5837202   [8]  2C 41 06 00 00 00 03 E0
 (2.5670)  can1  5917102   [8]  01 00 10 27 10 27 06 E3
 (2.5670)  can1  5927102   [8]  FA 00 00 00 00 00 03 D4
 (2.5680)  can1  5937102   [8]  2C 41 06 00 00 00 03 E0
 (2.5680)  can1  5847270   [8]  00 00 00 00 00 00 03 9F
 (2.5680)  can1  5947102   [8]  00 00 00 00 00 00 03 9F
 (2.5690)  can1  8100302   [5]  01 00 0A 00 18
 (2.5690)  can1  8580C02   [8]  FF FF FE FF 00 00 00 00
 (2.5690)  can1  89A0C02   [8]  00 00 00 00 00 00 00 00
 (2.5700)  can1  8030C02   [8]  00 00 2A 68 2A 68 92 17
 (2.5700)  can1  595FF71   [8]  05 80 60 09 60 09 F4 5D
 (2.5710)  can1  596FF71   [8]  FE 7F FF FF FF FF FD 4D
 (2.5710)  can1  599FF71   [8]  1A E0 02 82 02 00 FD D1
 (2.5720)  can1  586FF72   [8]  01 80 FF FF FF FF FF 9F
 (2.5730)  can1  4100209   [8]  E9 35 13 00 00 00 00 00
 (2.5730)  can1  587FF72   [8]  00 08 C8 0F FF FF FD C9
 (2.5740)  can1  4100208   [8]  6F 10 13 00 00 00 00 00
 (2.5820)  can1  89A0C02   [8]  00 00 00 00 CC 0B 00 00
 (2.5830)  can1  8030C02   [8]  00 00 2A 68 2A 68 92 17
 (2.5830)  can1  4100209   [8]  E9 35 13 00 00 00 00 00
 (2.5840)  can1  585FF72   [8]  03 80 60 09 60 09 FB 8A
 (2.5840)  can1  8580C02   [8]  FF FF 00 00 00 00 00 00
 (2.5840)  can1  4100208   [8]  6F 10 13 00 00 00 00 00
 (2.5870)  can1  8100302   [5]  01 00 0A 00 18
 (2.5890)  can1  595FF71   [8]  05 80 60 09 60 09 F5 5D
 (2.5900)  can1  596FF71   [8]  01 80 FF FF FF FF FE 9F
 (2.5900)  can1  597FF71   [8]  05 08 E2 0F FF FF FD 70
 (2.5910)  can1  598FF71   [8]  40 01 78 FF FF FF FD CA
 (2.5920)  can1  586FF72   [8]  FE 7F FF FF FF FF F0 4D
 (2.5930)  can1  4100209   [8]  E9 35 13 00 00 00 00 00
 (2.5930)  can1  4100208   [8]  6F 10 13 00 00 00 00 00
 (2.5960)  can1  404FF03   [1]  00
 (2.5970)  can1  18800401   [8]  0F 9A 8C 37 8D 6E 8D 00
 (2.5970)  can1  18840401   [8]  0F B6 8C 52 8D 86 8D 00
 (2.5980)  can1  18C00401   [8]  0F 23 31 A6 30 71 31 00
 (2.5980)  can1  8250C03   [8]  DE 00 49 01 00 00 22 00
 (2.5990)  can1  8840C03   [8]  93 00 1D 00 20 00 07 00
 (2.5990)  can1  88D0C03   [8]  13 00 00 00 60 00 63 00
 (2.6020)  can1  89A0C02   [8]  CC 0B 00 00 00 00 00 00
 (2.6020)  can1  8030C02   [8]  00 00 2A 68 2A 68 92 17
 (2.6030)  can1  4100209   [8]  E9 35 13 00 00 00 00 00
 (2.6030)  can1  585FF72   [8]  03 80 60 09 60 09 FC 8A
 (2.6040)  can1  8580C02   [8]  00 00 FF FF 00 00 00 00
 (2.6050)  can1  1948FF72   [8]  00 C0 00 55 FF FF A5 B8
 (2.6050)  can1  4100208   [8]  6F 10 13 00 00 00 00 00
 (2.6090)  can1  595FF71   [8]  05 80 60 09 60 09 F6 5D
 (2.6100)  can1  596FF71   [8]  02 80 FF FF FF FF FF 63
 (2.6120)  can1  8100302   [5]  01 00 0A 00 18
 (2.6120)  can1  586FF72   [8]  00 80 FF FF FF FF F1 CB
 (2.6130)  can1  4100209   [8]  E9 35 13 00 00 00 00 00
 (2.6130)  can1  588FF72   [8]  90 01 55 FF FF FF FE B6
 (2.6140)  can1  589FF72   [8]  1A D0 02 81 02 00 FE 87
 (2.6140)  can1  4100208   [8]  6F 10 13 00 00 00 00 00
 (2.6220)  can1  5807202   [8]  03 80 00 00 E0 01 04 BF
 (2.6220)  can1  5817202   [8]  01 00 10 27 10 27 07 E3
 (2.6230)  can1  4100209   [8]  E9 35 13 00 00 00 00 00
 (2.6240)  can1  585FF72   [8]  03 80 60 09 60 09 FD 8A
 (2.6250)  can1  5827202   [8]  FA 00 00 00 00 00 04 D4
 (2.6260)  can1  5907102   [8]  05 80 00 00 E0 01 04 68
 (2.6260)  can1  4100208   [8]  6F 10 13 00 00 00 00 00
 (2.6270)  can1  5837202   [8]  2C 41 06 00 00 00 04 E0
 (2.6360)  can1  5917102   [8]  01 00 10 27 10 27 07 E3
 (2.6370)  can1  5927102   [8]  FA 00 00 00 00 00 04 D4
 (2.6370)  can1  1948FF71   [8]  00 C0 00 55 FF FF A5 B8
 (2.6380)  can1  5847270   [8]  00 00 00 00 00 00 04 9F
 (2.6380)  can1  5937102   [8]  2C 41 06 00 00 00 04 E0
 (2.6380)  can1  5947102   [8]  00 00 00 00 00 00 04 9F
 (2.6390)  can1  8580C02   [8]  01 00 00 00 00 00 00 00
 (2.6390)  can1  404FF07   [1]  00
 (2.6390)  can1  89A0C02   [8]  99 17 00 00 00 00 00 00
 (2.6390)  can1  8030C02   [8]  00 00 2A 68 2A 68 92 17
 (2.6400)  can1  595FF71   [8]  05 80 60 09 60 09 F7 5D
 (2.6410)  can1  596FF71   [8]  FE 7F FF FF FF FF F0 4D
 (2.6410)  can1  586FF72   [8]  00 80 FF FF FF FF F2 CB
 (2.6410)  can1  4100209   [8]  E9 35 13 00 00 00 00 00
 (2.6420)  can1  4100208   [8]  6F 10 13 00 00 00 00 00
 (2.6420)  can1  8100302   [5]  01 00 0A 00 18
 (2.6430)  can1  1949FF71   [8]  0D 80 00 0D 90 00 A6 D0
 (2.6430)  can1  194AFF71   [8]  34 97 56 6C 25 57 A7 B0
 (2.6440)  can1  194BFF71   [8]  75 F5 FF FF FF FF A8 0E
 (2.6450)  can1  194CFF71   [8]  FF FF FF FF FF FF A9 A3
 (2.6450)  can1  89A0C02   [8]  00 00 00 00 00 00 00 00
 (2.6460)  can1  8030C02   [8]  00 00 2A 68 2A 68 92 17
 (2.6460)  can1  4100209   [8]  E9 35 13 00 00 00 00 00
 (2.6460)  can1  585FF72   [8]  03 80 60 09 60 09 FE 8A
 (2.6470)  can1  8580C02   [8]  FF FF 00 00 00 00 00 00
 (2.6480)  can1  1949FF72   [8]  0D 80 00 0D A0 00 A6 E0
 (2.6480)  can1  4100208   [8]  6F 10 13 00 00 00 00 00
 (2.6490)  can1  194AFF72   [8]  60 97 56 69 45 56 A7 F8
 (2.6490)  can1  404FF01   [1]  00
 (2.6490)  can1  8041001   [8]  01 02 B0 32 04 AF 3B 00
 (2.6500)  can1  194BFF72   [8]  69 F5 FF FF FF FF A8 02
 (2.6500)  can1  194CFF72   [8]  FF FF FF FF FF FF A9 A3
 (2.6510)  can1  8120C01   [8]  05 00 00 00 00 00 00 00
 (2.6510)  can1  80F1201   [4]  58 11 00 00
 (2.6510)  can1  18800401   [8]  10 66 8D 6A 8D 56 8D 00
 (2.6520)  can1  8101201   [8]  DC 62 D6 8D FD 89 74 00
 (2.6520)  can1  8010C01   [8]  5A 62 00 00 00 00 00 00
 (2.6530)  can1  18840401   [8]  10 7F 8D 85 8D 72 8D 00
 (2.6530)  can1  18C00401   [8]  10 B6 30 7D 31 5A 30 00
 (2.6530)  can1  595FF71   [8]  05 80 60 09 60 09 F8 5D
 (2.6540)  can1  596FF71   [8]  FF 7F FF FF FF FF F1 19
 (2.6540)  can1  586FF72   [8]  01 80 FF FF FF FF F3 9F
 (2.6540)  can1  4100209   [8]  E9 35 13 00 00 00 00 00
 (2.6550)  can1  4100208   [8]  6F 10 13 00 00 00 00 00
 (2.6620)  can1  404FF02   [1]  00
 (2.6620)  can1  8100302   [5]  01 00 0A 00 18
 (2.6630)  can1  89A0C02   [8]  00 00 00 00 CC 0B 00 00
 (2.6630)  can1  4100209   [8]  E9 35 13 00 00 00 00 00
 (2.6640)  can1  585FF72   [8]  03 80 60 09 60 09 FF 8A
 (2.6640)  can1  8030C02   [8]  00 00 2A 68 2A 68 92 17
 (2.6650)  can1  8580C02   [8]  00 00 00 00 00 00 00 00
 (2.6650)  can1  4100208   [8]  6F 10 13 00 00 00 00 00
 (2.6700)  can1  595FF71   [8]  05 80 60 09 60 09 F9 5D
 (2.6700)  can1  596FF71   [8]  00 80 FF FF FF FF F2 CB
 (2.6710)  can1  599FF71   [8]  1A E0 02 82 02 00 FE D1
 (2.6720)  can1  586FF72   [8]  FE 7F FF FF FF FF F4 4D
 (2.6730)  can1  4100209   [8]  E9 35 13 00 00 00 00 00
 (2.6730)  can1  587FF72   [8]  FF 07 CA 0F FF FF FE 25
 (2.6740)  can1  4100208   [8]  6F 10 13 00 00 00 00 00
 (2.6820)  can1  5807202   [8]  03 80 00 00 E0 01 05 BF
 (2.6820)  can1  5817202   [8]  01 00 10 27 10 27 08 E3
 (2.6830)  can1  4100209   [8]  E9 35 13 00 00 00 00 00
 (2.6830)  can1  585FF72   [8]  03 80 60 09 60 09 F0 8A
 (2.6840)  can1  5827202   [8]  FA 00 00 00 00 00 05 D4
 (2.6850)  can1  5907102   [8]  05 80 00 00 E0 01 05 68
 (2.6860)  can1  4100208   [8]  6F 10 13 00 00 00 00 00
 (2.6860)  can1  5837202   [8]  2C 41 06 00 00 00 05 E0
 (2.6870)  can1  5917102   [8]  01 00 10 27 10 27 08 E3
 (2.6880)  can1  5927102   [8]  FA 00 00 00 00 00 05 D4
 (2.6880)  can1  5937102   [8]  2C 41 06 00 00 00 05 E0
 (2.6880)  can1  5847270   [8]  00 00 00 00 00 00 05 9F
 (2.6890)  can1  5947102   [8]  00 00 00 00 00 00 05 9F
 (2.6890)  can1  89A0C02   [8]  00 00 00 00 00 00 00 00
 (2.6890)  can1  8030C02   [8]  00 00 2A 68 2A 68 92 17
 (2.6890)  can1  8580C02   [8]  00 00 FF FF 00 00 00 00
 (2.6890)  can1  8100302   [5]  01 00 0A 00 18
 (2.6900)  can1  595FF71   [8]  05 80 60 09 60 09 FA 5D
 (2.6910)  can1  596FF71   [8]  00 80 FF FF FF FF F3 CB
 (2.6910)  can1  597FF71   [8]  07 08 E4 0F FF FF FE 17
 (2.6910)  can1  598FF71   [8]  40 01 78 FF FF FF FE CA
 (2.6920)  can1  586FF72   [8]  01 80 FF FF FF FF F5 9F
 (2.6930)  can1  4100209   [8]  E9 35 13 00 00 00 00 00
 (2.6940)  can1  4100208   [8]  6F 10 13 00 00 00 00 00
 (2.6960)  can1  18101203   [4]  76 2C E3 09
 (2.6970)  can1  18800401   [8]  11 1A 8D FE 8C 2F 8D 00
 (2.6970)  can1  18840401   [8]  11 36 8D 1A 8D 4C 8D 00
 (2.6980)  can1  18C00401   [8]  11 57 31 0C 30 0D 31 00
 (2.7020)  can1  89A0C02   [8]  00 00 00 00 CC 0B 00 00
 (2.7020)  can1  8030C02   [8]  00 00 2A 68 2A 68 92 17
 (2.7030)  can1  4100209   [8]  E9 35 13 00 00 00 00 00
 (2.7030)  can1  585FF72   [8]  03 80 60 09 60 09 F1 8A
 (2.7040)  can1  8580C02   [8]  00 00 00 00 00 00 00 00
 (2.7040)  can1  4100208   [8]  6F 10 13 00 00 00 00 00
 (2.7100)  can1  595FF71   [8]  05 80 60 09 60 09 FB 5D
 (2.7100)  can1  596FF71   [8]  00 80 FF FF FF FF F4 CB
 (2.7120)  can1  8100302   [5]  01 00 0A 00 18
 (2.7130)  can1  586FF72   [8]  02 80 FF FF FF FF F6 63
 (2.7140)  can1  4100209   [8]  E9 35 13 00 00 00 00 00
 (2.7140)  can1  528FF72   [8]  07 00 31 00 00 00 34 00
 (2.7150)  can1  529FF72   [8]  02 00 43 00 0A 00 03 00
 (2.7150)  can1  52AFF72   [8]  13 13 13 13 13 13 1A 00
 (2.7160)  can1  4100208   [8]  6F 10 13 00 00 00 00 00
 (2.7160)  can1  52BFF72   [8]  11 16 11 13 00 FF 00 00
 (2.7160)  can1  52CFF72   [8]  00 00 EF FF EF FF 3A 00
 (2.7160)  can1  588FF72   [8]  A0 01 54 FF FF FF FF 59
 (2.7170)  can1  589FF72   [8]  1A D0 02 81 02 00 FF 87
 (2.7190)  can1  528FF71   [8]  00 00 55 00 00 00 56 00
 (2.7200)  can1  529FF71   [8]  07 00 51 00 0C 00 05 00
 (2.7210)  can1  52AFF71   [8]  14 14 14 14 14 14 14 00
 (2.7210)  can1  52BFF71   [8]  10 14 10 14 00 FF 00 00
 (2.7220)  can1  52CFF71   [8]  00 00 EF FF EF FF 3A 00
 (2.7220)  can1  89A0C02   [8]  00 00 00 00 99 17 00 00
 (2.7230)  can1  8030C02   [8]  00 00 2A 68 2A 68 92 17
 (2.7230)  can1  4100209   [8]  E9 35 13 00 00 00 00 00
 (2.7240)  can1  585FF72   [8]  03 80 60 09 60 09 F2 8A
 (2.7240)  can1  8580C02   [8]  00 00 01 00 00 00 00 00
 (2.7250)  can1  4100208   [8]  6F 10 13 00 00 00 00 00
 (2.7290)  can1  595FF71   [8]  05 80 60 09 60 09 FC 5D
 (2.7300)  can1  596FF71   [8]  FF 7F FF FF FF FF F5 19
 (2.7320)  can1  586FF72   [8]  FE 7F FF FF FF FF F7 4D
 (2.7330)  can1  4100209   [8]  E9 35 13 00 00 00 00 00
 (2.7330)  can1  4100208   [8]  6F 10 13 00 00 00 00 00
 (2.7370)  can1  8100302   [5]  01 00 0A 00 18
 (2.7420)  can1  5807202   [8]  03 80 00 00 E0 01 06 BF
 (2.7430)  can1  5817202   [8]  01 00 10 27 10 27 09 E3
 (2.7440)  can1  4100209   [8]  E9 35 13 00 00 00 00 00
 (2.7440)  can1  585FF72   [8]  03 80 60 09 60 09 F3 8A
 (2.7450)  can1  5827202   [8]  FA 00 00 00 00 00 06 D4
 (2.7450)  can1  5907102   [8]  05 80 00 00 E0 01 06 68
 (2.7460)  can1  4100208   [8]  6F 10 13 00 00 00 00 00
 (2.7470)  can1  5837202   [8]  2C 41 06 00 00 00 06 E0
 (2.7480)  can1  5917102   [8]  01 00 10 27 10 27 09 E3
 (2.7480)  can1  5927102   [8]  FA 00 00 00 00 00 06 D4
 (2.7490)  can1  8041001   [8]  01 02 B0 32 04 AF 3B 00
 (2.7490)  can1  5847270   [8]  00 00 00 00 00 00 06 9F
 (2.7490)  can1  5937102   [8]  2C 41 06 00 00 00 06 E0
 (2.7500)  can1  5947102   [8]  00 00 00 00 00 00 06 9F
 (2.7500)  can1  8580C02   [8]  00 00 FF FF 00 00 00 00
 (2.7510)  can1  89A0C02   [8]  00 00 00 00 00 00 00 00
 (2.7510)  can1  18800401   [8]  12 7F 8D 6C 8D 36 8D 00
 (2.7510)  can1  18840401   [8]  12 98 8D 85 8D 4F 8D 00
 (2.7510)  can1  8030C02   [8]  00 00 2A 68 2A 68 92 17
 (2.7520)  can1  18C00401   [8]  12 5E 30 75 2F 19 2F 00
 (2.7520)  can1  8101201   [8]  DA 62 D8 8D FD 89 4F 00
 (2.7530)  can1  8010C01   [8]  5C 62 00 00 00 00 00 00
 (2.7530)  can1  595FF71   [8]  05 80 60 09 60 09 FD 5D
 (2.7530)  can1  596FF71   [8]  FF 7F FF FF FF FF F6 19
 (2.7540)  can1  586FF72   [8]  01 80 FF FF FF FF F8 9F
 (2.7540)  can1  4100209   [8]  E9 35 13 00 00 00 00 00
 (2.7550)  can1  4100208   [8]  6F 10 13 00 00 00 00 00
 (2.7620)  can1  8100302   [5]  01 00 0A 00 18
 (2.7630)  can1  8580C02   [8]  00 00 00 00 00 00 00 00
 (2.7630)  can1  585FF72   [8]  03 80 60 09 60 09 F4 8A
 (2.7640)  can1  4100209   [8]  E9 35 13 00 00 00 00 00
 (2.7640)  can1  8030C02   [8]  00 00 2A 68 2A 68 92 17
 (2.7650)  can1  89A0C02   [8]  00 00 00 00 CC 0B 00 00
 (2.7650)  can1  4100208   [8]  6F 10 13 00 00 00 00 00
 (2.7690)  can1  595FF71   [8]  05 80 60 09 60 09 FE 5D
 (2.7700)  can1  596FF71   [8]  00 80 FF FF FF FF F7 CB
 (2.7700)  can1  599FF71   [8]  1A E0 02 82 02 00 FF D1
 (2.7720)  can1  586FF72   [8]  00 80 FF FF FF FF F9 CB
 (2.7730)  can1  4100209   [8]  E9 35 13 00 00 00 00 00
 (2.7730)  can1  587FF72   [8]  00 08 CA 0F FF FF FF 8C
 (2.7740)  can1  4100208   [8]  6F 10 13 00 00 00 00 00
 (2.7820)  can1  89A0C02   [8]  00 00 00 00 00 00 00 00
 (2.7830)  can1  8030C02   [8]  00 00 2A 68 2A 68 92 17
 (2.7840)  can1  4100209   [8]  E9 35 13 00 00 00 00 00
 (2.7840)  can1  585FF72   [8]  03 80 60 09 60 09 F5 8A
 (2.7840)  can1  8580C02   [8]  00 00 00 00 00 00 00 00
 (2.7850)  can1  4100208   [8]  6F 10 13 00 00 00 00 00
 (2.7870)  can1  8100302   [5]  01 00 0A 00 18
 (2.7890)  can1  595FF71   [8]  05 80 60 09 60 09 FF 5D
 (2.7900)  can1  596FF71   [8]  FF 7F FF FF FF FF F8 19
 (2.7910)  can1  597FF71   [8]  06 08 E7 0F FF FF FF B3
 (2.7910)  can1  598FF71   [8]  40 01 78 FF FF FF FF CA
 (2.7920)  can1  586FF72   [8]  00 80 FF FF FF FF FA CB
 (2.7930)  can1  4100209   [8]  E9 35 13 00 00 00 00 00
 (2.7930)  can1  4100208   [8]  6F 10 13 00 00 00 00 00
 (2.7960)  can1  18800401   [8]  13 32 8D 0A 8D 1E 8D 00
 (2.7970)  can1  18840401   [8]  13 4C 8D 1A 8D 38 8D 00
 (2.7980)  can1  18C00401   [8]  13 04 30 01 30 BA 30 00
 (2.8020)  can1  5807202   [8]  03 80 00 00 E0 01 07 BF
 (2.8030)  can1  5817202   [8]  01 00 10 27 10 27 0A E3
 (2.8030)  can1  4100209   [8]  E9 35 13 00 00 00 00 00
 (2.8040)  can1  585FF72   [8]  03 80 60 09 60 09 F6 8A
 (2.8040)  can1  5827202   [8]  FA 00 00 00 00 00 07 D4
 (2.8050)  can1  5907102   [8]  05 80 00 00 E0 01 07 68
 (2.8050)  can1  4100208   [8]  6F 10 13 00 00 00 00 00
 (2.8060)  can1  5837202   [8]  2C 41 06 00 00 00 07 E0
 (2.8070)  can1  5917102   [8]  01 00 10 27 10 27 0A E3
 (2.8070)  can1  5927102   [8]  FA 00 00 00 00 00 07 D4
 (2.8070)  can1  5937102   [8]  2C 41 06 00 00 00 07 E0
 (2.8080)  can1  5847270   [8]  00 00 00 00 00 00 07 9F
 (2.8080)  can1  5947102   [8]  00 00 00 00 00 00 07 9F
 (2.8080)  can1  89A0C02   [8]  00 00 00 00 00 00 00 00
 (2.8090)  can1  8030C02   [8]  00 00 2A 68 2A 68 92 17
 (2.8090)  can1  8580C02   [8]  00 00 00 00 00 00 00 00
 (2.8090)  can1  595FF71   [8]  05 80 60 09 60 09 F0 5D
 (2.8100)  can1  596FF71   [8]  00 80 FF FF FF FF F9 CB
 (2.8120)  can1  8100302   [5]  01 00 0A 00 18
 (2.8120)  can1  586FF72   [8]  02 80 FF FF FF FF FB 63
 (2.8130)  can1  4100209   [8]  E9 35 13 00 00 00 00 00
 (2.8130)  can1  588FF72   [8]  A0 01 54 FF FF FF F0 59
 (2.8140)  can1  589FF72   [8]  1A D0 02 81 02 00 F0 87
 (2.8140)  can1  4100208   [8]  6F 10 13 00 00 00 00 00
 (2.8220)  can1  89A0C02   [8]  00 00 00 00 99 17 00 00
 (2.8230)  can1  8030C02   [8]  00 00 2A 68 2A 68 92 17
 (2.8240)  can1  4100209   [8]  E9 35 13 00 00 00 00 00
 (2.8240)  can1  585FF72   [8]  03 80 60 09 60 09 F7 8A
 (2.8240)  can1  8580C02   [8]  00 00 01 00 00 00 00 00
 (2.8250)  can1  4100208   [8]  6F 10 13 00 00 00 00 00
 (2.8290)  can1  595FF71   [8]  05 80 60 09 60 09 F1 5D
 (2.8300)  can1  596FF71   [8]  FE 7F FF FF FF FF FA 4D
 (2.8330)  can1  586FF72   [8]  03 80 FF FF FF FF FC 37
 (2.8330)  can1  4100209   [8]  E9 35 13 00 00 00 00 00
 (2.8330)  can1  4100208   [8]  6F 10 13 00 00 00 00 00
 (2.8370)  can1  8100302   [5]  01 00 0A 00 18
 (2.8420)  can1  89A0C02   [8]  00 00 00 00 66 23 00 00
 (2.8420)  can1  8030C02   [8]  00 00 2A 68 2A 68 92 17
 (2.8430)  can1  585FF72   [8]  03 80 60 09 60 09 F8 8A
 (2.8440)  can1  4100209   [8]  E9 35 13 00 00 00 00 00
 (2.8450)  can1  8580C02   [8]  FF FF 02 00 00 00 00 00
 (2.8450)  can1  4100208   [8]  6F 10 13 00 00 00 00 00
 (2.8450)  can1  8041001   [8]  01 02 B0 32 04 AF 3B 00
 (2.8460)  can1  18800401   [8]  14 59 8D 6F 8D 69 8D 00
 (2.8470)  can1  18840401   [8]  14 6F 8D 89 8D 82 8D 00
 (2.8470)  can1  18C00401   [8]  14 33 30 DA 30 3C 30 00
 (2.8490)  can1  8101201   [8]  D9 62 D6 8D FC 89 5E 00
 (2.8500)  can1  595FF71   [8]  05 80 60 09 60 09 F2 5D
 (2.8510)  can1  596FF71   [8]  FF 7F FF FF FF FF FB 19
 (2.8510)  can1  8010C01   [8]  5B 62 00 00 00 00 00 00
 (2.8520)  can1  586FF72   [8]  FD 7F FF FF FF FF FD B1
 (2.8530)  can1  4100209   [8]  E9 35 13 00 00 00 00 00
 (2.8530)  can1  4100208   [8]  6F 10 13 00 00 00 00 00
 (2.8570)  can1  1948FF72   [8]  00 C0 00 55 FF FF AA BD
 (2.8620)  can1  5807202   [8]  03 80 00 00 E0 01 08 BF
 (2.8630)  can1  5817202   [8]  01 00 10 27 10 27 0B E3
 (2.8640)  can1  4100209   [8]  E9 35 13 00 00 00 00 00
 (2.8640)  can1  585FF72   [8]  03 80 60 09 60 09 F9 8A
 (2.8650)  can1  5827202   [8]  FA 00 00 00 00 00 08 D4
 (2.8650)  can1  5907102   [8]  05 80 00 00 E0 01 08 68
 (2.8660)  can1  4100208   [8]  6F 10 13 00 00 00 00 00
 (2.8670)  can1  5837202   [8]  2C 41 06 00 00 00 08 E0
 (2.8670)  can1  5917102   [8]  01 00 10 27 10 27 0B E3
 (2.8680)  can1  5927102   [8]  FA 00 00 00 00 00 08 D4
 (2.8680)  can1  5937102   [8]  2C 41 06 00 00 00 08 E0
 (2.8690)  can1  5847270   [8]  00 00 00 00 00 00 08 9F
 (2.8690)  can1  5947102   [8]  00 00 00 00 00 00 08 9F
 (2.8690)  can1  8100302   [5]  01 00 0A 00 18
 (2.8700)  can1  8580C02   [8]  00 00 FE FF 00 00 00 00
 (2.8700)  can1  89A0C02   [8]  00 00 00 00 00 00 00 00
 (2.8700)  can1  8030C02   [8]  00 00 2A 68 2A 68 92 17
 (2.8710)  can1  595FF71   [8]  05 80 60 09 60 09 F3 5D
 (2.8710)  can1  596FF71   [8]  FF 7F FF FF FF FF FC 19
 (2.8710)  can1  599FF71   [8]  1A E0 02 82 02 00 F0 D1
 (2.8720)  can1  586FF72   [8]  FF 7F FF FF FF FF FE 19
 (2.8730)  can1  4100209   [8]  E9 35 13 00 00 00 00 00
 (2.8730)  can1  587FF72   [8]  00 08 CA 0F FF FF F0 8C
 (2.8740)  can1  4100208   [8]  6F 10 13 00 00 00 00 00
 (2.8800)  can1  1948FF71   [8]  00 C0 00 55 FF FF AA BD
 (2.8820)  can1  89A0C02   [8]  00 00 00 00 00 00 00 00
 (2.8820)  can1  8030C02   [8]  00 00 2A 68 2A 68 92 17
 (2.8830)  can1  585FF72   [8]  03 80 60 09 60 09 FA 8A
 (2.8840)  can1  4100209   [8]  E9 35 13 00 00 00 00 00
 (2.8840)  can1  8580C02   [8]  00 00 00 00 00 00 00 00
 (2.8850)  can1  4100208   [8]  6F 10 13 00 00 00 00 00
 (2.8870)  can1  8100302   [5]  01 00 0A 00 18
 (2.8900)  can1  595FF71   [8]  05 80 60 09 60 09 F4 5D
 (2.8900)  can1  596FF71   [8]  FF 7F FF FF FF FF FD 19
 (2.8910)  can1  597FF71   [8]  0F 08 E4 0F FF FF F0 E9
 (2.8910)  can1  598FF71   [8]  40 01 78 FF FF FF F0 CA
 (2.8920)  can1  586FF72   [8]  FD 7F FF FF FF FF FF B1
 (2.8930)  can1  4100209   [8]  E9 35 13 00 00 00 00 00
 (2.8930)  can1  4100208   [8]  6F 10 13 00 00 00 00 00
 (2.8950)  can1  1949FF71   [8]  0D 80 00 0D A0 00 AB E5
 (2.8950)  can1  194AFF71   [8]  34 C7 56 77 55 57 AC 20
 (2.8960)  can1  194BFF71   [8]  7A F5 FF FF FF FF AD 18
 (2.8970)  can1  194CFF71   [8]  FF FF FF FF FF FF AE A8
 (2.8970)  can1  18800401   [8]  15 8D 8D 72 8D 35 8D 00
 (2.8980)  can1  18840401   [8]  15 A9 8D 8C 8D 4F 8D 00
 (2.8980)  can1  18C00401   [8]  15 F0 30 EF 2F C2 30 00
 (2.8990)  can1  1949FF72   [8]  0D 80 00 0D 90 00 AB D5
 (2.8990)  can1  194AFF72   [8]  5F F7 56 77 95 56 AC BA
 (2.8990)  can1  194BFF72   [8]  6C F5 FF FF FF FF AD 0A
 (2.9000)  can1  194CFF72   [8]  FF FF FF FF FF FF AE A8
 (2.9020)  can1  89A0C02   [8]  00 00 00 00 00 00 00 00
 (2.9020)  can1  8030C02   [8]  00 00 2A 68 2A 68 92 17
 (2.9030)  can1  585FF72   [8]  03 80 60 09 60 09 FB 8A
 (2.9030)  can1  4100209   [8]  E9 35 13 00 00 00 00 00
 (2.9040)  can1  8580C02   [8]  00 00 FE FF 00 00 00 00
 (2.9040)  can1  4100208   [8]  6F 10 13 00 00 00 00 00
 (2.9090)  can1  595FF71   [8]  05 80 60 09 60 09 F5 5D
 (2.9100)  can1  596FF71   [8]  FF 7F FF FF FF FF FE 19
 (2.9120)  can1  8100302   [5]  01 00 0A 00 18
 (2.9120)  can1  586FF72   [8]  FF 7F FF FF FF FF F0 19
 (2.9130)  can1  4100209   [8]  E9 35 13 00 00 00 00 00
 (2.9130)  can1  588FF72   [8]  90 01 55 FF FF FF F1 B6
 (2.9140)  can1  589FF72   [8]  1A D0 02 81 02 00 F1 87
 (2.9140)  can1  4100208   [8]  6F 10 13 00 00 00 00 00
 (2.9220)  can1  5807202   [8]  03 80 00 00 E0 01 09 BF
 (2.9230)  can1  5817202   [8]  01 00 10 27 10 27 0C E3
 (2.9230)  can1  4100209   [8]  E9 35 13 00 00 00 00 00
 (2.9230)  can1  585FF72   [8]  03 80 60 09 60 09 FC 8A
 (2.9240)  can1  5827202   [8]  FA 00 00 00 00 00 09 D4
 (2.9250)  can1  5907102   [8]  05 80 00 00 E0 01 09 68
 (2.9260)  can1  4100208   [8]  6F 10 13 00 00 00 00 00
 (2.9260)  can1  5837202   [8]  2C 41 06 00 00 00 09 E0
 (2.9270)  can1  5917102   [8]  01 00 10 27 10 27 0C E3
 (2.9270)  can1  5927102   [8]  FA 00 00 00 00 00 09 D4
 (2.9270)  can1  5937102   [8]  2C 41 06 00 00 00 09 E0
 (2.9280)  can1  5847270   [8]  00 00 00 00 00 00 09 9F
 (2.9280)  can1  5947102   [8]  00 00 00 00 00 00 09 9F
 (2.9280)  can1  89A0C02   [8]  00 00 00 00 00 00 00 00
 (2.9280)  can1  8030C02   [8]  00 00 2A 68 2A 68 92 17
 (2.9290)  can1  8580C02   [8]  00 00 00 00 00 00 00 00
 (2.9290)  can1  595FF71   [8]  05 80 60 09 60 09 F6 5D
 (2.9300)  can1  596FF71   [8]  01 80 FF FF FF FF FF 9F
 (2.9320)  can1  586FF72   [8]  FF 7F FF FF FF FF F1 19
 (2.9330)  can1  4100209   [8]  E9 35 13 00 00 00 00 00
 (2.9330)  can1  4100208   [8]  6F 10 13 00 00 00 00 00
 (2.9370)  can1  8100302   [5]  01 00 0A 00 18
 (2.9420)  can1  89A0C02   [8]  CC 0B 00 00 00 00 00 00
 (2.9430)  can1  8030C02   [8]  00 00 2A 68 2A 68 92 17
 (2.9430)  can1  585FF72   [8]  03 80 60 09 60 09 FD 8A
 (2.9440)  can1  4100209   [8]  E9 35 13 00 00 00 00 00
 (2.9440)  can1  8580C02   [8]  00 00 00 00 00 00 00 00
 (2.9450)  can1  4100208   [8]  6F 10 13 00 00 00 00 00
 (2.9450)  can1  8041001   [8]  01 02 B0 32 04 AF 3B 00
 (2.9460)  can1  18800401   [8]  16 17 8D 4A 8D 89 8D 00
 (2.9470)  can1  18840401   [8]  16 30 8D 64 8D A2 8D 00
 (2.9470)  can1  18C00401   [8]  16 DD 2F 70 30 64 2F 00
 (2.9500)  can1  595FF71   [8]  05 80 60 09 60 09 F7 5D
 (2.9500)  can1  596FF71   [8]  FF 7F FF FF FF FF F0 19
 (2.9510)  can1  8101201   [8]  D7 62 D9 8D FC 89 50 00
 (2.9520)  can1  8010C01   [8]  59 62 00 00 00 00 00 00
 (2.9520)  can1  586FF72   [8]  FE 7F FF FF FF FF F2 4D
 (2.9530)  can1  4100209   [8]  E9 35 13 00 00 00 00 00
 (2.9530)  can1  4100208   [8]  6F 10 13 00 00 00 00 00
 (2.9620)  can1  8100302   [5]  01 00 0A 00 18
 (2.9620)  can1  8580C02   [8]  00 00 FF FF 00 00 00 00
 (2.9630)  can1  585FF72   [8]  03 80 60 09 60 09 FE 8A
 (2.9640)  can1  4100209   [8]  E9 35 13 00 00 00 00 00
 (2.9640)  can1  8030C02   [8]  00 00 2A 68 2A 68 92 17
 (2.9640)  can1  89A0C02   [8]  00 00 00 00 00 00 00 00
 (2.9650)  can1  4100208   [8]  6F 10 13 00 00 00 00 00
 (2.9700)  can1  595FF71   [8]  05 80 60 09 60 09 F8 5D
 (2.9700)  can1  596FF71   [8]  01 80 FF FF FF FF F1 9F
 (2.9710)  can1  599FF71   [8]  1A E0 02 82 02 00 F1 D1
 (2.9720)  can1  586FF72   [8]  FF 7F FF FF FF FF F3 19
 (2.9730)  can1  4100209   [8]  E9 35 13 00 00 00 00 00
 (2.9730)  can1  587FF72   [8]  01 08 CA 0F FF FF F1 D8
 (2.9740)  can1  4100208   [8]  6F 10 13 00 00 00 00 00
 (2.9820)  can1  5807202   [8]  03 80 00 00 E0 01 0A BF
 (2.9830)  can1  5817202   [8]  01 00 10 27 10 27 0D E3
 (2.9830)  can1  4100209   [8]  E9 35 13 00 00 00 00 00
 (2.9840)  can1  585FF72   [8]  03 80 60 09 60 09 FF 8A
 (2.9850)  can1  5827202   [8]  FA 00 00 00 00 00 0A D4
 (2.9860)  can1  5907102   [8]  05 80 00 00 E0 01 0A 68
 (2.9860)  can1  4100208   [8]  6F 10 13 00 00 00 00 00
 (2.9870)  can1  5837202   [8]  2C 41 06 00 00 00 0A E0
 (2.9870)  can1  5917102   [8]  01 00 10 27 10 27 0D E3
 (2.9880)  can1  5927102   [8]  FA 00 00 00 00 00 0A D4
 (2.9880)  can1  5937102   [8]  2C 41 06 00 00 00 0A E0
 (2.9880)  can1  5847270   [8]  00 00 00 00 00 00 0A 9F
 (2.9890)  can1  5947102   [8]  00 00 00 00 00 00 0A 9F
 (2.9890)  can1  89A0C02   [8]  CC 0B 00 00 00 00 00 00
 (2.9900)  can1  8030C02   [8]  00 00 2A 68 2A 68 92 17
 (2.9900)  can1  8580C02   [8]  00 00 00 00 00 00 00 00
 (2.9910)  can1  8100302   [5]  01 00 0A 00 18
 (2.9910)  can1  595FF71   [8]  05 80 60 09 60 09 F9 5D
 (2.9910)  can1  596FF71   [8]  FE 7F FF FF FF FF F2 4D
 (2.9910)  can1  597FF71   [8]  07 08 E2 0F FF FF F1 D8
 (2.9920)  can1  598FF71   [8]  40 01 78 FF FF FF F1 CA
 (2.9920)  can1  586FF72   [8]  FD 7F FF FF FF FF F4 B1
 (2.9930)  can1  4100209   [8]  E9 35 13 00 00 00 00 00
 (2.9940)  can1  4100208   [8]  6F 10 13 00 00 00 00 00
 (2.9960)  can1  18800401   [8]  17 76 8D 00 00 00 00 00
 (2.9970)  can1  18840401   [8]  17 8E 8D 00 00 00 00 00
 (2.9970)  can1  18C00401   [8]  17 A4 2F 10 27 10 27 00
 (3.0020)  can1  89A0C02   [8]  00 00 00 00 00 00 00 00
 (3.0020)  can1  8030C02   [8]  00 00 2A 68 2A 68 92 17
 (3.0030)  can1  585FF72   [8]  03 80 60 09 60 09 F0 8A
 (3.0030)  can1  4100209   [8]  E9 35 13 00 00 00 00 00
 (3.0040)  can1  8580C02   [8]  FF FF FE FF 00 00 00 00
 (3.0040)  can1  4100208   [8]  6F 10 13 00 00 00 00 00
 (3.0090)  can1  595FF71   [8]  05 80 60 09 60 09 FA 5D
 (3.0100)  can1  596FF71   [8]  FF 7F FF FF FF FF F3 19
 (3.0120)  can1  8100302   [5]  01 00 0A 00 18
 (3.0120)  can1  586FF72   [8]  00 80 FF FF FF FF F5 CB
 (3.0130)  can1  4100209   [8]  E9 35 13 00 00 00 00 00
 (3.0140)  can1  588FF72   [8]  90 01 55 FF FF FF F2 B6
 (3.0140)  can1  589FF72   [8]  1A D0 02 81 02 00 F2 87
 (3.0140)  can1  4100208   [8]  6F 10 13 00 00 00 00 00
 (3.0220)  can1  89A0C02   [8]  00 00 00 00 00 00 00 00
 (3.0220)  can1  8030C02   [8]  00 00 2A 68 2A 68 92 17
 (3.0230)  can1  585FF72   [8]  03 80 60 09 60 09 F1 8A
 (3.0230)  can1  4100209   [8]  E9 35 13 00 00 00 00 00
 (3.0240)  can1  8580C02   [8]  00 00 00 00 00 00 00 00
 (3.0240)  can1  4100208   [8]  6F 10 13 00 00 00 00 00
 (3.0290)  can1  595FF71   [8]  05 80 60 09 60 09 FB 5D
 (3.0300)  can1  596FF71   [8]  01 80 FF FF FF FF F4 9F
 (3.0320)  can1  586FF72   [8]  01 80 FF FF FF FF F6 9F
 (3.0330)  can1  4100209   [8]  E9 35 13 00 00 00 00 00
 (3.0330)  can1  4100208   [8]  6F 10 13 00 00 00 00 00
 (3.0370)  can1  8100302   [5]  01 00 0A 00 18
 (3.0420)  can1  5807202   [8]  03 80 00 00 E0 01 0B BF
 (3.0420)  can1  5817202   [8]  01 00 10 27 10 27 0E E3
 (3.0430)  can1  4100209   [8]  E9 35 13 00 00 00 00 00
 (3.0440)  can1  585FF72   [8]  03 80 60 09 60 09 F2 8A
 (3.0440)  can1  5827202   [8]  FA 00 00 00 00 00 0B D4
 (3.0450)  can1  5907102   [8]  05 80 00 00 E0 01 0B 68
 (3.0450)  can1  4100208   [8]  6F 10 13 00 00 00 00 00
 (3.0460)  can1  5837202   [8]  2C 41 06 00 00 00 0B E0
 (3.0470)  can1  5917102   [8]  01 00 10 27 10 27 0E E3
 (3.0480)  can1  5927102   [8]  FA 00 00 00 00 00 0B D4
 (3.0480)  can1  8041001   [8]  01 02 B0 32 04 AF 3B 00
 (3.0480)  can1  5847270   [8]  00 00 00 00 00 00 0B 9F
 (3.0480)  can1  5937102   [8]  2C 41 06 00 00 00 0B E0
 (3.0490)  can1  5947102   [8]  00 00 00 00 00 00 0B 9F
 (3.0490)  can1  8580C02   [8]  00 00 00 00 00 00 00 00
 (3.0490)  can1  89A0C02   [8]  CC 0B 00 00 CC 0B 00 00
 (3.0500)  can1  18800401   [8]  00 D8 8D F4 8C AA 8C 00
 (3.0500)  can1  18840401   [8]  00 F3 8D 0C 8D BE 8C 00
 (3.0500)  can1  8030C02   [8]  00 00 2A 68 2A 68 92 17
 (3.0510)  can1  18C00401   [8]  00 3C 30 38 2F CC 30 00
 (3.0510)  can1  595FF71   [8]  05 80 60 09 60 09 FC 5D
 (3.0520)  can1  596FF71   [8]  02 80 FF FF FF FF F5 63
 (3.0520)  can1  8101201   [8]  DA 62 D8 8D FD 89 69 00
 (3.0520)  can1  8010C01   [8]  5A 62 00 00 00 00 00 00
 (3.0530)  can1  586FF72   [8]  00 80 FF FF FF FF F7 CB
 (3.0530)  can1  4100209   [8]  E9 35 13 00 00 00 00 00
 (3.0540)  can1  4100208   [8]  6F 10 13 00 00 00 00 00
 (3.0620)  can1  8100302   [5]  01 00 0A 00 18
 (3.0620)  can1  8580C02   [8]  01 00 00 00 00 00 00 00
 (3.0630)  can1  585FF72   [8]  03 80 60 09 60 09 F3 8A
 (3.0630)  can1  4100209   [8]  E9 35 13 00 00 00 00 00
 (3.0640)  can1  8030C02   [8]  00 00 2A 68 2A 68 92 17
 (3.0640)  can1  89A0C02   [8]  99 17 00 00 00 00 00 00
 (3.0640)  can1  4100208   [8]  6F 10 13 00 00 00 00 00
 (3.0690)  can1  595FF71   [8]  05 80 60 09 60 09 FD 5D
 (3.0700)  can1  596FF71   [8]  02 80 FF FF FF FF F6 63
 (3.0710)  can1  599FF71   [8]  1A E0 02 82 02 00 F2 D1
 (3.0720)  can1  586FF72   [8]  FF 7F FF FF FF FF F8 19
 (3.0730)  can1  4100209   [8]  E9 35 13 00 00 00 00 00
 (3.0730)  can1  587FF72   [8]  FD 07 CA 0F FF FF F2 8D
 (3.0740)  can1  4100208   [8]  6F 10 13 00 00 00 00 00
 (3.0820)  can1  89A0C02   [8]  99 17 00 00 00 00 00 00
 (3.0820)  can1  8030C02   [8]  00 00 2A 68 2A 68 92 17
 (3.0830)  can1  585FF72   [8]  03 80 60 09 60 09 F4 8A
 (3.0840)  can1  4100209   [8]  E9 35 13 00 00 00 00 00
 (3.0840)  can1  8580C02   [8]  01 00 00 00 00 00 00 00
 (3.0840)  can1  4100208   [8]  6F 10 13 00 00 00 00 00
 (3.0870)  can1  8100302   [5]  01 00 0A 00 18
 (3.0890)  can1  595FF71   [8]  05 80 60 09 60 09 FE 5D
 (3.0900)  can1  596FF71   [8]  FF 7F FF FF FF FF F7 19
 (3.0910)  can1  597FF71   [8]  05 08 E4 0F FF FF F2 BF
 (3.0910)  can1  598FF71   [8]  40 01 78 FF FF FF F2 CA
 (3.0920)  can1  586FF72   [8]  01 80 FF FF FF FF F9 9F
 (3.0930)  can1  4100209   [8]  E9 35 13 00 00 00 00 00
 (3.0930)  can1  4100208   [8]  6F 10 13 00 00 00 00 00
 (3.0960)  can1  18800401   [8]  01 D0 8C 0D 8D 07 8D 00
 (3.0970)  can1  18840401   [8]  01 EC 8C 27 8D 1F 8D 00
 (3.0970)  can1  18C00401   [8]  01 16 30 03 31 5B 30 00
 (3.1020)  can1  5807202   [8]  03 80 00 00 E0 01 0C BF
 (3.1030)  can1  5817202   [8]  01 00 10 27 10 27 0F E3
 (3.1030)  can1  4100209   [8]  E9 35 13 00 00 00 00 00
 (3.1040)  can1  585FF72   [8]  03 80 60 09 60 09 F5 8A
 (3.1040)  can1  5827202   [8]  FA 00 00 00 00 00 0C D4
 (3.1050)  can1  5907102   [8]  05 80 00 00 E0 01 0C 68
 (3.1060)  can1  4100208   [8]  6F 10 13 00 00 00 00 00
 (3.1070)  can1  5837202   [8]  2C 41 06 00 00 00 0C E0
 (3.1070)  can1  5917102   [8]  01 00 10 27 10 27 0F E3
 (3.1070)  can1  5927102   [8]  FA 00 00 00 00 00 0C D4
 (3.1080)  can1  5937102   [8]  2C 41 06 00 00 00 0C E0
 (3.1080)  can1  5847270   [8]  00 00 00 00 00 00 0C 9F
 (3.1080)  can1  5947102   [8]  00 00 00 00 00 00 0C 9F
 (3.1090)  can1  89A0C02   [8]  00 00 00 00 CC 0B 00 00
 (3.1090)  can1  8030C02   [8]  00 00 2A 68 2A 68 92 17
 (3.1090)  can1  8580C02   [8]  00 00 00 00 00 00 00 00
 (3.1100)  can1  595FF71   [8]  05 80 60 09 60 09 FF 5D
 (3.1100)  can1  596FF71   [8]  00 80 FF FF FF FF F8 CB
 (3.1120)  can1  8100302   [5]  01 00 0A 00 18
 (3.1120)  can1  586FF72   [8]  FE 7F FF FF FF FF FA 4D
 (3.1130)  can1  4100209   [8]  E9 35 13 00 00 00 00 00
 (3.1130)  can1  588FF72   [8]  A0 01 54 FF FF FF F3 59
 (3.1140)  can1  589FF72   [8]  1A D0 02 81 02 00 F3 87
 (3.1150)  can1  4100208   [8]  6F 10 13 00 00 00 00 00
 (3.1150)  can1  1948FF72   [8]  00 C0 00 55 FF FF AF C2
 (3.1220)  can1  89A0C02   [8]  00 00 00 00 00 00 00 00
 (3.1230)  can1  8030C02   [8]  00 00 2A 68 2A 68 92 17
 (3.1230)  can1  585FF72   [8]  03 80 60 09 60 09 F6 8A
 (3.1240)  can1  4100209   [8]  E9 35 13 00 00 00 00 00
 (3.1240)  can1  8580C02   [8]  00 00 FF FF 00 00 00 00
 (3.1240)  can1  4100208   [8]  6F 10 13 00 00 00 00 00
 (3.1300)  can1  595FF71   [8]  05 80 60 09 60 09 F0 5D
 (3.1300)  can1  596FF71   [8]  01 80 FF FF FF FF F9 9F
 (3.1320)  can1  586FF72   [8]  FE 7F FF FF FF FF FB 4D
 (3.1330)  can1  4100209   [8]  E9 35 13 00 00 00 00 00
 (3.1330)  can1  4100208   [8]  6F 10 13 00 00 00 00 00
 (3.1350)  can1  1948FF71   [8]  00 C0 00 55 FF FF AF C2
 (3.1370)  can1  8100302   [5]  01 00 0A 00 18
 (3.1420)  can1  89A0C02   [8]  CC 0B 00 00 00 00 00 00
 (3.1430)  can1  8030C02   [8]  00 00 2A 68 2A 68 92 17
 (3.1440)  can1  585FF72   [8]  03 80 60 09 60 09 F7 8A
 (3.1440)  can1  4100209   [8]  E9 35 13 00 00 00 00 00
 (3.1440)  can1  8580C02   [8]  00 00 FF FF 00 00 00 00
 (3.1450)  can1  4100208   [8]  6F 10 13 00 00 00 00 00
 (3.1450)  can1  8041001   [8]  01 02 B0 32 04 AF 3B 00
 (3.1460)  can1  18800401   [8]  02 21 8D 8A 8D 6E 8D 00
 (3.1470)  can1  18840401   [8]  02 3A 8D A5 8D 88 8D 00
 (3.1470)  can1  18C00401   [8]  02 E0 30 4C 30 B9 30 00
 (3.1500)  can1  595FF71   [8]  05 80 60 09 60 09 F1 5D
 (3.1500)  can1  596FF71   [8]  00 80 FF FF FF FF FA CB
 (3.1510)  can1  1949FF71   [8]  0D 90 00 0D 90 00 B0 EA
 (3.1510)  can1  194AFF71   [8]  35 F7 56 69 C5 56 B1 B7
 (3.1520)  can1  194BFF71   [8]  72 F5 FF FF FF FF B2 15
 (3.1520)  can1  194CFF71   [8]  FF FF FF FF FF FF B3 AD
 (3.1530)  can1  586FF72   [8]  FF 7F FF FF FF FF FC 19
 (3.1530)  can1  4100209   [8]  E9 35 13 00 00 00 00 00
 (3.1540)  can1  8010C01   [8]  5C 62 00 00 00 00 00 00
 (3.1550)  can1  8101201   [8]  D7 62 D7 8D FC 89 50 00
 (3.1550)  can1  4100208   [8]  6F 10 13 00 00 00 00 00
 (3.1560)  can1  1949FF72   [8]  0D 80 00 0C A0 00 B0 E9
 (3.1560)  can1  194AFF72   [8]  60 97 56 69 45 56 B1 02
 (3.1560)  can1  194BFF72   [8]  69 F5 FF FF FF FF B2 0C
 (3.1560)  can1  194CFF72   [8]  FF FF FF FF FF FF B3 AD
 (3.1620)  can1  5807202   [8]  03 80 00 00 E0 01 0D BF
 (3.1620)  can1  5817202   [8]  01 00 10 27 10 27 00 E3
 (3.1630)  can1  4100209   [8]  E9 35 13 00 00 00 00 00
 (3.1640)  can1  585FF72   [8]  03 80 60 09 60 09 F8 8A
 (3.1650)  can1  5827202   [8]  FA 00 00 00 00 00 0D D4
 (3.1660)  can1  5907102   [8]  05 80 00 00 E0 01 0D 68
 (3.1660)  can1  4100208   [8]  6F 10 13 00 00 00 00 00
 (3.1670)  can1  5837202   [8]  2C 41 06 00 00 00 0D E0
 (3.1670)  can1  5917102   [8]  01 00 10 27 10 27 00 E3
 (3.1670)  can1  5927102   [8]  FA 00 00 00 00 00 0D D4
 (3.1680)  can1  5937102   [8]  2C 41 06 00 00 00 0D E0
 (3.1680)  can1  5847270   [8]  00 00 00 00 00 00 0D 9F
 (3.1680)  can1  5947102   [8]  00 00 00 00 00 00 0D 9F
 (3.1690)  can1  8100302   [5]  01 00 0A 00 18
 (3.1690)  can1  8580C02   [8]  00 00 00 00 00 00 00 00
 (3.1690)  can1  89A0C02   [8]  00 00 00 00 00 00 00 00
 (3.1700)  can1  8030C02   [8]  00 00 2A 68 2A 68 92 17
 (3.1710)  can1  595FF71   [8]  05 80 60 09 60 09 F2 5D
 (3.1710)  can1  596FF71   [8]  01 80 FF FF FF FF FB 9F
 (3.1710)  can1  599FF71   [8]  1A E0 02 82 02 00 F3 D1
 (3.1720)  can1  586FF72   [8]  00 80 FF FF FF FF FD CB
 (3.1730)  can1  4100209   [8]  E9 35 13 00 00 00 00 00
 (3.1740)  can1  587FF72   [8]  00 08 CA 0F FF FF F3 8C
 (3.1740)  can1  4100208   [8]  6F 10 13 00 00 00 00 00
 (3.1820)  can1  89A0C02   [8]  CC 0B 00 00 00 00 00 00
 (3.1820)  can1  8030C02   [8]  00 00 2A 68 2A 68 92 17
 (3.1830)  can1  585FF72   [8]  03 80 60 09 60 09 F9 8A
 (3.1840)  can1  4100209   [8]  E9 35 13 00 00 00 00 00
 (3.1840)  can1  8580C02   [8]  00 00 00 00 00 00 00 00
 (3.1840)  can1  4100208   [8]  6F 10 13 00 00 00 00 00
 (3.1870)  can1  8100302   [5]  01 00 0A 00 18
 (3.1890)  can1  595FF71   [8]  05 80 60 09 60 09 F3 5D
 (3.1910)  can1  596FF71   [8]  00 80 FF FF FF FF FC CB
 (3.1910)  can1  597FF71   [8]  0A 08 E4 0F FF FF F3 C2
 (3.1910)  can1  598FF71   [8]  40 01 78 FF FF FF F3 CA
 (3.1920)  can1  586FF72   [8]  00 80 FF FF FF FF FE CB
 (3.1930)  can1  4100209   [8]  E9 35 13 00 00 00 00 00
 (3.1930)  can1  4100208   [8]  6F 10 13 00 00 00 00 00
 (3.1960)  can1  18101203   [4]  A4 2C 80 08
 (3.1970)  can1  18800401   [8]  03 3F 8D 24 8D 53 8D 00
 (3.1970)  can1  18840401   [8]  03 59 8D 3E 8D 71 8D 00
 (3.1970)  can1  18C00401   [8]  03 41 30 7A 30 F0 2F 00
 (3.2020)  can1  89A0C02   [8]  00 00 00 00 00 00 00 00
 (3.2020)  can1  8030C02   [8]  00 00 2A 68 2A 68 92 17
 (3.2030)  can1  585FF72   [8]  03 80 60 09 60 09 FA 8A
 (3.2040)  can1  4100209   [8]  E9 35 13 00 00 00 00 00
 (3.2040)  can1  8580C02   [8]  00 00 00 00 00 00 00 00
 (3.2050)  can1  4100208   [8]  6F 10 13 00 00 00 00 00
 (3.2100)  can1  595FF71   [8]  05 80 60 09 60 09 F4 5D
 (3.2100)  can1  596FF71   [8]  00 80 FF FF FF FF FD CB
 (3.2120)  can1  8100302   [5]  01 00 0A 00 18
 (3.2120)  can1  586FF72   [8]  FF 7F FF FF FF FF FF 19
 (3.2130)  can1  4100209   [8]  E9 35 13 00 00 00 00 00
 (3.2130)  can1  528FF72   [8]  FD FF 30 00 00 00 34 00
 (3.2140)  can1  529FF72   [8]  02 00 43 00 0A 00 03 00
 (3.2140)  can1  4100208   [8]  6F 10 13 00 00 00 00 00
 (3.2150)  can1  52CFF72   [8]  00 00 EF FF EF FF 3A 00
 (3.2150)  can1  588FF72   [8]  90 01 55 FF FF FF F4 B6
 (3.2160)  can1  589FF72   [8]  1A D0 02 81 02 00 F4 87
 (3.2190)  can1  528FF71   [8]  FB FF 53 00 00 00 56 00
 (3.2200)  can1  529FF71   [8]  07 00 51 00 0C 00 05 00
 (3.2210)  can1  52CFF71   [8]  00 00 EF FF EF FF 3A 00
 (3.2220)  can1  5807202   [8]  03 80 00 00 E0 01 0E BF
 (3.2220)  can1  5817202   [8]  01 00 10 27 10 27 01 E3
 (3.2320)  can1  4100209   [8]  E9 35 13 00 00 00 00 00
 (3.2330)  can1  585FF72   [8]  03 80 60 09 60 09 FB 8A
 (3.2330)  can1  5827202   [8]  FA 00 00 00 00 00 0E D4
 (3.2340)  can1  5907102   [8]  05 80 00 00 E0 01 0E 68
 (3.2340)  can1  4100208   [8]  6F 10 13 00 00 00 00 00
 (3.2350)  can1  5837202   [8]  2C 41 06 00 00 00 0E E0
 (3.2350)  can1  5917102   [8]  01 00 10 27 10 27 01 E3
 (3.2350)  can1  5927102   [8]  FA 00 00 00 00 00 0E D4
 (3.2360)  can1  5937102   [8]  2C 41 06 00 00 00 0E E0
 (3.2360)  can1  5847270   [8]  00 00 00 00 00 00 0E 9F
 (3.2360)  can1  5947102   [8]  00 00 00 00 00 00 0E 9F
 (3.2370)  can1  89A0C02   [8]  00 00 00 00 00 00 00 00
 (3.2370)  can1  8030C02   [8]  00 00 2A 68 2A 68 92 17
 (3.2380)  can1  8580C02   [8]  00 00 00 00 00 00 00 00
 (3.2380)  can1  595FF71   [8]  05 80 60 09 60 09 F5 5D
 (3.2380)  can1  596FF71   [8]  00 80 FF FF FF FF FE CB
 (3.2380)  can1  586FF72   [8]  FE 7F FF FF FF FF F0 4D
 (3.2390)  can1  4100209   [8]  E9 35 13 00 00 00 00 00
 (3.2390)  can1  4100208   [8]  6F 10 13 00 00 00 00 00
 (3.2390)  can1  8100302   [5]  01 00 0A 00 18
 (3.2420)  can1  89A0C02   [8]  00 00 00 00 00 00 00 00
 (3.2420)  can1  8030C02   [8]  00 00 2A 68 2A 68 92 17
 (3.2430)  can1  585FF72   [8]  03 80 60 09 60 09 FC 8A
 (3.2440)  can1  4100209   [8]  E9 35 13 00 00 00 00 00
 (3.2440)  can1  8580C02   [8]  00 00 FF FF 00 00 00 00
 (3.2450)  can1  4100208   [8]  6F 10 13 00 00 00 00 00
 (3.2450)  can1  8041001   [8]  01 02 B0 32 04 AF 3B 00
 (3.2460)  can1  18800401   [8]  04 76 8D 5E 8D E3 89 00
 (3.2470)  can1  18840401   [8]  04 92 8D 7E 8D 00 8A 00
