 (1.4100)  can1  4100209   [8]  00 00 00 00 00 00 00 00
 (1.4150)  can1  4100208   [8]  00 00 00 00 00 00 00 00
 (1.4160)  can1  4100209   [8]  00 00 00 00 00 00 00 00
 (1.4170)  can1  4100208   [8]  00 00 00 00 00 00 00 00
 (1.4170)  can1  89A0C02   [8]  00 00 00 00 00 00 00 00
 (1.4170)  can1  4100209   [8]  00 00 00 00 00 00 00 00
 (1.4170)  can1  4100208   [8]  00 00 00 00 00 00 00 00
 (1.4220)  can1  4100209   [8]  00 00 00 00 00 00 00 00
 (1.4230)  can1  4100208   [8]  00 00 00 00 00 00 00 00
 (1.4270)  can1  89A0C02   [8]  00 00 00 00 00 00 00 00
 (1.4270)  can1  8030C02   [8]  00 00 2A 68 2A 68 92 17
 (1.4280)  can1  8580C02   [8]  00 00 00 00 00 00 00 00
 (1.4320)  can1  8100302   [5]  00 02 0A 00 07
 (1.4330)  can1  4100209   [8]  00 00 00 00 00 00 00 00
 (1.4330)  can1  4100208   [8]  00 00 00 00 00 00 00 00
 (1.4380)  can1  18101203   [4]  C9 2E 79 01
 (1.4400)  can1  18800401   [8]  07 14 90 06 90 E7 8F 00
 (1.4400)  can1  18840401   [8]  07 17 90 09 90 EB 8F 00
 (1.4410)  can1  18C00401   [8]  07 AA 30 29 30 9E 30 00
 (1.4420)  can1  4100209   [8]  00 00 00 00 00 00 00 00
 (1.4430)  can1  4100208   [8]  00 00 00 00 00 00 00 00
 (1.4470)  can1  89A0C02   [8]  00 00 00 00 00 00 00 00
 (1.4480)  can1  8030C02   [8]  00 00 2A 68 2A 68 92 17
 (1.4480)  can1  8580C02   [8]  00 00 00 00 00 00 00 00
 (1.4520)  can1  4100209   [8]  00 00 00 00 00 00 00 00
 (1.4530)  can1  4100208   [8]  00 00 00 00 00 00 00 00
 (1.4570)  can1  8100302   [5]  00 02 0A 00 07
 (1.4620)  can1  4100209   [8]  00 00 00 00 00 00 00 00
 (1.4630)  can1  4100208   [8]  00 00 00 00 00 00 00 00
 (1.4670)  can1  89A0C02   [8]  00 00 00 00 00 00 00 00
 (1.4680)  can1  8030C02   [8]  00 00 2A 68 2A 68 92 17
 (1.4680)  can1  8580C02   [8]  00 00 00 00 00 00 00 00
 (1.4720)  can1  4100209   [8]  00 00 00 00 00 00 00 00
 (1.4730)  can1  4100208   [8]  00 00 00 00 00 00 00 00
 (1.4820)  can1  8100302   [5]  00 02 0A 00 07
 (1.4830)  can1  4100209   [8]  00 00 00 00 00 00 00 00
 (1.4830)  can1  4100208   [8]  00 00 00 00 00 00 00 00
 (1.4870)  can1  89A0C02   [8]  00 00 00 00 00 00 00 00
 (1.4870)  can1  8030C02   [8]  00 00 2A 68 2A 68 92 17
 (1.4880)  can1  8041001   [8]  37 02 D0 3C FC A2 3B 00
 (1.4880)  can1  8580C02   [8]  00 00 00 00 00 00 00 00
 (1.4900)  can1  18800401   [8]  08 DE 8F 46 8D 35 90 00
 (1.4900)  can1  18840401   [8]  08 E1 8F 48 8D 38 90 00
 (1.4910)  can1  18C00401   [8]  08 FE 2F 81 30 96 2F 00
 (1.4920)  can1  4100209   [8]  00 00 00 00 00 00 00 00
 (1.4930)  can1  4100208   [8]  00 00 00 00 00 00 00 00
 (1.4970)  can1  8101201   [8]  CC 64 72 90 21 8D 0E 00
 (1.4970)  can1  8010C01   [8]  51 64 00 00 00 00 00 00
 (1.5020)  can1  4100209   [8]  00 00 00 00 00 00 00 00
 (1.5030)  can1  4100208   [8]  00 00 00 00 00 00 00 00
 (1.5070)  can1  8100302   [5]  00 02 0A 00 07
 (1.5080)  can1  8580C02   [8]  00 00 00 00 00 00 00 00
 (1.5080)  can1  89A0C02   [8]  00 00 00 00 00 00 00 00
 (1.5090)  can1  8030C02   [8]  00 00 2A 68 2A 68 92 17
 (1.5120)  can1  4100209   [8]  00 00 00 00 00 00 00 00
 (1.5130)  can1  4100208   [8]  00 00 00 00 00 00 00 00
 (1.5220)  can1  4100209   [8]  00 00 00 00 00 00 00 00
 (1.5230)  can1  4100208   [8]  00 00 00 00 00 00 00 00
 (1.5270)  can1  89A0C02   [8]  00 00 00 00 00 00 00 00
 (1.5280)  can1  8030C02   [8]  00 00 2A 68 2A 68 92 17
 (1.5280)  can1  8580C02   [8]  00 00 00 00 00 00 00 00
 (1.5320)  can1  8100302   [5]  00 02 0A 00 07
 (1.5320)  can1  4100209   [8]  00 00 00 00 00 00 00 00
 (1.5330)  can1  4100208   [8]  00 00 00 00 00 00 00 00
 (1.5400)  can1  18800401   [8]  09 2A 90 E7 8F D5 8F 00
 (1.5410)  can1  18840401   [8]  09 2C 90 E9 8F D7 8F 00
 (1.5410)  can1  18C00401   [8]  09 FD 2F 99 2F 0E 30 00
 (1.5420)  can1  4100209   [8]  00 00 00 00 00 00 00 00
 (1.5430)  can1  4100208   [8]  00 00 00 00 00 00 00 00
 (1.5470)  can1  89A0C02   [8]  00 00 00 00 00 00 00 00
 (1.5470)  can1  8030C02   [8]  00 00 2A 68 2A 68 92 17
 (1.5480)  can1  8580C02   [8]  00 00 00 00 00 00 00 00
 (1.5520)  can1  4100209   [8]  00 00 00 00 00 00 00 00
 (1.5530)  can1  4100208   [8]  00 00 00 00 00 00 00 00
 (1.5570)  can1  8100302   [5]  00 01 0A 00 07
 (1.5620)  can1  4100209   [8]  00 00 00 00 00 00 00 00
 (1.5630)  can1  4100208   [8]  00 00 00 00 00 00 00 00
 (1.5670)  can1  89A0C02   [8]  00 00 00 00 00 00 00 00
 (1.5680)  can1  8030C02   [8]  00 00 2A 68 2A 68 92 17
 (1.5680)  can1  8580C02   [8]  00 00 00 00 00 00 00 00
 (1.5720)  can1  4100209   [8]  00 00 00 00 00 00 00 00
 (1.5730)  can1  4100208   [8]  00 00 00 00 00 00 00 00
 (1.5820)  can1  8100302   [5]  00 02 0A 00 07
 (1.5820)  can1  4100209   [8]  00 00 00 00 00 00 00 00
 (1.5830)  can1  4100208   [8]  00 00 00 00 00 00 00 00
 (1.5870)  can1  89A0C02   [8]  00 00 00 00 00 00 00 00
 (1.5880)  can1  8030C02   [8]  00 00 2A 68 2A 68 92 17
 (1.5880)  can1  8041001   [8]  37 02 D0 3C FC A2 3B 00
 (1.5890)  can1  8580C02   [8]  00 00 00 00 00 00 00 00
 (1.5900)  can1  18800401   [8]  0A B9 8F CA 8F D6 8F 00
 (1.5900)  can1  18840401   [8]  0A BA 8F CD 8F DA 8F 00
 (1.5910)  can1  18C00401   [8]  0A 43 30 9B 30 5F 30 00
 (1.5920)  can1  4100209   [8]  00 00 00 00 00 00 00 00
 (1.5930)  can1  4100208   [8]  00 00 00 00 00 00 00 00
 (1.5980)  can1  8101201   [8]  CE 64 72 90 21 8D 12 00
 (1.5980)  can1  8010C01   [8]  4F 64 00 00 00 00 00 00
 (1.6020)  can1  4100209   [8]  00 00 00 00 00 00 00 00
 (1.6030)  can1  4100208   [8]  00 00 00 00 00 00 00 00
 (1.6070)  can1  8100302   [5]  00 03 0A 00 07
 (1.6080)  can1  8580C02   [8]  00 00 00 00 00 00 00 00
 (1.6080)  can1  89A0C02   [8]  00 00 00 00 00 00 00 00
 (1.6090)  can1  8030C02   [8]  00 00 2A 68 2A 68 92 17
 (1.6120)  can1  4100209   [8]  00 00 00 00 00 00 00 00
 (1.6130)  can1  4100208   [8]  00 00 00 00 00 00 00 00
 (1.6220)  can1  4100209   [8]  00 00 00 00 00 00 00 00
 (1.6230)  can1  4100208   [8]  00 00 00 00 00 00 00 00
 (1.6270)  can1  89A0C02   [8]  00 00 00 00 00 00 00 00
 (1.6280)  can1  8030C02   [8]  00 00 2A 68 2A 68 92 17
 (1.6280)  can1  8580C02   [8]  00 00 00 00 00 00 00 00
 (1.6320)  can1  8100302   [5]  00 02 0A 00 07
 (1.6320)  can1  4100209   [8]  00 00 00 00 00 00 00 00
 (1.6330)  can1  4100208   [8]  00 00 00 00 00 00 00 00
 (1.6400)  can1  18800401   [8]  0B 03 90 04 90 0A 90 00
 (1.6410)  can1  18840401   [8]  0B 08 90 07 90 0D 90 00
 (1.6410)  can1  18C00401   [8]  0B CE 30 6F 30 BD 30 00
 (1.6420)  can1  4100209   [8]  00 00 00 00 00 00 00 00
 (1.6430)  can1  4100208   [8]  00 00 00 00 00 00 00 00
 (1.6470)  can1  89A0C02   [8]  00 00 00 00 00 00 00 00
 (1.6480)  can1  8030C02   [8]  00 00 2A 68 2A 68 92 17
 (1.6480)  can1  8580C02   [8]  00 00 00 00 00 00 00 00
 (1.6520)  can1  4100209   [8]  00 00 00 00 00 00 00 00
 (1.6530)  can1  4100208   [8]  00 00 00 00 00 00 00 00
 (1.6570)  can1  8100302   [5]  00 02 0A 00 07
 (1.6620)  can1  4100209   [8]  00 00 00 00 00 00 00 00
 (1.6630)  can1  4100208   [8]  00 00 00 00 00 00 00 00
 (1.6670)  can1  89A0C02   [8]  00 00 00 00 00 00 00 00
 (1.6670)  can1  8030C02   [8]  00 00 2A 68 2A 68 92 17
 (1.6680)  can1  8580C02   [8]  00 00 00 00 00 00 00 00
 (1.6720)  can1  4100209   [8]  00 00 00 00 00 00 00 00
 (1.6730)  can1  4100208   [8]  00 00 00 00 00 00 00 00
 (1.6820)  can1  8100302   [5]  00 02 0A 00 07
 (1.6830)  can1  4100209   [8]  00 00 00 00 00 00 00 00
 (1.6830)  can1  4100208   [8]  00 00 00 00 00 00 00 00
 (1.6870)  can1  89A0C02   [8]  00 00 00 00 00 00 00 00
 (1.6880)  can1  8030C02   [8]  00 00 2A 68 2A 68 92 17
 (1.6880)  can1  8041001   [8]  37 02 D0 3C FC A2 3B 00
 (1.6880)  can1  8580C02   [8]  00 00 00 00 00 00 00 00
 (1.6900)  can1  18800401   [8]  0C 02 90 E8 8F E6 8F 00
 (1.6900)  can1  18840401   [8]  0C 07 90 ED 8F EB 8F 00
 (1.6910)  can1  18C00401   [8]  0C 48 30 79 30 FA 2F 00
 (1.6920)  can1  4100209   [8]  00 00 00 00 00 00 00 00
 (1.6930)  can1  4100208   [8]  00 00 00 00 00 00 00 00
 (1.6990)  can1  8101201   [8]  CB 64 70 90 23 8D 10 00
 (1.6990)  can1  8010C01   [8]  4F 64 00 00 00 00 00 00
 (1.7020)  can1  4100209   [8]  00 00 00 00 00 00 00 00
 (1.7030)  can1  4100208   [8]  00 00 00 00 00 00 00 00
 (1.7070)  can1  8100302   [5]  00 01 0A 00 07
 (1.7080)  can1  8580C02   [8]  00 00 00 00 00 00 00 00
 (1.7080)  can1  89A0C02   [8]  00 00 00 00 00 00 00 00
 (1.7090)  can1  8030C02   [8]  00 00 2A 68 2A 68 92 17
 (1.7120)  can1  4100209   [8]  00 00 00 00 00 00 00 00
 (1.7130)  can1  4100208   [8]  00 00 00 00 00 00 00 00
 (1.7220)  can1  4100209   [8]  00 00 00 00 00 00 00 00
 (1.7230)  can1  4100208   [8]  00 00 00 00 00 00 00 00
 (1.7270)  can1  89A0C02   [8]  00 00 00 00 00 00 00 00
 (1.7280)  can1  8030C02   [8]  00 00 2A 68 2A 68 92 17
 (1.7280)  can1  8580C02   [8]  00 00 00 00 00 00 00 00
 (1.7320)  can1  8100302   [5]  00 02 0A 00 07
 (1.7330)  can1  4100209   [8]  00 00 00 00 00 00 00 00
 (1.7330)  can1  4100208   [8]  00 00 00 00 00 00 00 00
 (1.7400)  can1  18800401   [8]  0D EC 8F 19 90 0A 90 00
 (1.7400)  can1  18840401   [8]  0D F5 8F 1E 90 0E 90 00
 (1.7410)  can1  18C00401   [8]  0D 20 30 3A 2F 3D 2F 00
 (1.7420)  can1  4100209   [8]  00 00 00 00 00 00 00 00
 (1.7430)  can1  4100208   [8]  00 00 00 00 00 00 00 00
 (1.7470)  can1  89A0C02   [8]  00 00 00 00 00 00 00 00
 (1.7480)  can1  8030C02   [8]  00 00 2A 68 2A 68 92 17
 (1.7480)  can1  8580C02   [8]  00 00 00 00 00 00 00 00
 (1.7520)  can1  4100209   [8]  00 00 00 00 00 00 00 00
 (1.7530)  can1  4100208   [8]  00 00 00 00 00 00 00 00
 (1.7570)  can1  8100302   [5]  00 01 0A 00 07
 (1.7620)  can1  4100209   [8]  00 00 00 00 00 00 00 00
 (1.7630)  can1  4100208   [8]  00 00 00 00 00 00 00 00
 (1.7670)  can1  89A0C02   [8]  00 00 00 00 00 00 00 00
 (1.7680)  can1  8030C02   [8]  00 00 2A 68 2A 68 92 17
 (1.7680)  can1  8580C02   [8]  00 00 00 00 00 00 00 00
 (1.7720)  can1  4100209   [8]  00 00 00 00 00 00 00 00
 (1.7730)  can1  4100208   [8]  00 00 00 00 00 00 00 00
 (1.7820)  can1  8100302   [5]  00 02 0A 00 07
 (1.7820)  can1  4100209   [8]  00 00 00 00 00 00 00 00
 (1.7830)  can1  4100208   [8]  00 00 00 00 00 00 00 00
 (1.7870)  can1  89A0C02   [8]  00 00 00 00 00 00 00 00
 (1.7870)  can1  8030C02   [8]  00 00 2A 68 2A 68 92 17
 (1.7880)  can1  8041001   [8]  37 02 D0 3C FC A2 3B 00
 (1.7890)  can1  8580C02   [8]  00 00 00 00 00 00 00 00
 (1.7900)  can1  18800401   [8]  0E CE 8F C5 8F 9B 8F 00
 (1.7900)  can1  18840401   [8]  0E D2 8F C8 8F A7 8F 00
 (1.7910)  can1  18C00401   [8]  0E 5A 2F E4 2F 0A 30 00
 (1.7920)  can1  4100209   [8]  00 00 00 00 00 00 00 00
 (1.7930)  can1  4100208   [8]  00 00 00 00 00 00 00 00
 (1.8000)  can1  8101201   [8]  CD 64 74 90 23 8D 20 00
 (1.8000)  can1  8010C01   [8]  50 64 00 00 00 00 00 00
 (1.8020)  can1  4100209   [8]  00 00 00 00 00 00 00 00
 (1.8030)  can1  4100208   [8]  00 00 00 00 00 00 00 00
 (1.8070)  can1  8100302   [5]  00 02 0A 00 07
 (1.8080)  can1  8580C02   [8]  00 00 00 00 00 00 00 00
 (1.8080)  can1  89A0C02   [8]  00 00 00 00 00 00 00 00
 (1.8090)  can1  8030C02   [8]  00 00 2A 68 2A 68 92 17
 (1.8120)  can1  4100209   [8]  00 00 00 00 00 00 00 00
 (1.8130)  can1  4100208   [8]  00 00 00 00 00 00 00 00
 (1.8220)  can1  4100209   [8]  00 00 00 00 00 00 00 00
 (1.8230)  can1  4100208   [8]  00 00 00 00 00 00 00 00
 (1.8270)  can1  89A0C02   [8]  00 00 00 00 00 00 00 00
 (1.8280)  can1  8030C02   [8]  00 00 2A 68 2A 68 92 17
 (1.8280)  can1  8580C02   [8]  00 00 00 00 00 00 00 00
 (1.8320)  can1  8100302   [5]  00 02 0A 00 07
 (1.8320)  can1  4100209   [8]  00 00 00 00 00 00 00 00
 (1.8330)  can1  4100208   [8]  00 00 00 00 00 00 00 00
 (1.8380)  can1  404FF03   [1]  00
 (1.8400)  can1  8250C03   [8]  00 00 00 00 00 00 00 00
 (1.8400)  can1  8840C03   [8]  33 00 14 00 1E 00 07 00
 (1.8410)  can1  88D0C03   [8]  11 00 00 00 00 00 00 00
 (1.8410)  can1  18800401   [8]  0F 68 8F CA 8F FE 8F 00
 (1.8420)  can1  8A00C03   [1]  0E
 (1.8420)  can1  8B50C03   [2]  BF 1F
 (1.8420)  can1  18840401   [8]  0F 6C 8F D0 8F 02 90 00
 (1.8420)  can1  18C00401   [8]  0F 67 30 50 30 AE 30 00
 (1.8430)  can1  4100209   [8]  00 00 00 00 00 00 00 00
 (1.8430)  can1  4100208   [8]  00 00 00 00 00 00 00 00
 (1.8470)  can1  89A0C02   [8]  00 00 00 00 00 00 00 00
 (1.8480)  can1  8030C02   [8]  00 00 2A 68 2A 68 92 17
 (1.8480)  can1  8580C02   [8]  00 00 00 00 00 00 00 00
 (1.8510)  can1  404FF07   [1]  00
 (1.8520)  can1  4100209   [8]  00 00 00 00 00 00 00 00
 (1.8530)  can1  4100208   [8]  00 00 00 00 00 00 00 00
 (1.8570)  can1  8100302   [5]  00 01 0A 00 07
 (1.8620)  can1  4100209   [8]  00 00 00 00 00 00 00 00
 (1.8630)  can1  4100208   [8]  00 00 00 00 00 00 00 00
 (1.8670)  can1  89A0C02   [8]  00 00 00 00 00 00 00 00
 (1.8680)  can1  8030C02   [8]  00 00 2A 68 2A 68 92 17
 (1.8680)  can1  8580C02   [8]  00 00 00 00 00 00 00 00
 (1.8720)  can1  4100209   [8]  00 00 00 00 00 00 00 00
 (1.8730)  can1  4100208   [8]  00 00 00 00 00 00 00 00
 (1.8820)  can1  8100302   [5]  00 03 0A 00 07
 (1.8830)  can1  4100209   [8]  00 00 00 00 00 00 00 00
 (1.8830)  can1  4100208   [8]  00 00 00 00 00 00 00 00
 (1.8870)  can1  89A0C02   [8]  00 00 00 00 00 00 00 00
 (1.8870)  can1  8030C02   [8]  00 00 2A 68 2A 68 92 17
 (1.8880)  can1  404FF01   [1]  00
 (1.8890)  can1  8041001   [8]  37 02 D0 3C FC A2 3B 00
 (1.8890)  can1  8580C02   [8]  00 00 00 00 00 00 00 00
 (1.8900)  can1  8120C01   [8]  90 00 00 00 00 00 00 00
 (1.8900)  can1  80F1201   [4]  6C 11 00 00
 (1.8910)  can1  18800401   [8]  10 EF 8F F5 8F EB 8F 00
 (1.8910)  can1  18840401   [8]  10 F7 8F F8 8F F0 8F 00
 (1.8920)  can1  18C00401   [8]  10 60 30 B8 30 13 30 00
 (1.8920)  can1  4100209   [8]  00 00 00 00 00 00 00 00
 (1.8930)  can1  4100208   [8]  00 00 00 00 00 00 00 00
 (1.9010)  can1  8101201   [8]  CD 64 70 90 22 8D 0D 00
 (1.9010)  can1  8010C01   [8]  51 64 00 00 00 00 00 00
 (1.9020)  can1  4100209   [8]  00 00 00 00 00 00 00 00
 (1.9030)  can1  4100208   [8]  00 00 00 00 00 00 00 00
 (1.9070)  can1  404FF02   [1]  00
 (1.9070)  can1  8100302   [5]  00 01 0A 00 07
 (1.9080)  can1  89A0C02   [8]  00 00 00 00 00 00 00 00
 (1.9080)  can1  8580C02   [8]  00 00 00 00 00 00 00 00
 (1.9090)  can1  8030C02   [8]  00 00 2A 68 2A 68 92 17
 (1.9120)  can1  4100209   [8]  00 00 00 00 00 00 00 00
 (1.9130)  can1  4100208   [8]  00 00 00 00 00 00 00 00
 (1.9220)  can1  4100209   [8]  00 00 00 00 00 00 00 00
 (1.9230)  can1  4100208   [8]  00 00 00 00 00 00 00 00
 (1.9270)  can1  89A0C02   [8]  00 00 00 00 00 00 00 00
 (1.9280)  can1  8030C02   [8]  00 00 2A 68 2A 68 92 17
 (1.9280)  can1  8580C02   [8]  00 00 00 00 00 00 00 00
 (1.9320)  can1  8100302   [5]  00 02 0A 00 07
 (1.9320)  can1  4100209   [8]  00 00 00 00 00 00 00 00
 (1.9330)  can1  4100208   [8]  00 00 00 00 00 00 00 00
 (1.9380)  can1  18101203   [4]  DD 2E 2B 02
 (1.9400)  can1  18800401   [8]  11 D5 8F CC 8F DC 8F 00
 (1.9400)  can1  18840401   [8]  11 DA 8F D1 8F E1 8F 00
 (1.9410)  can1  18C00401   [8]  11 8F 30 C6 2F 4B 30 00
 (1.9420)  can1  4100209   [8]  00 00 00 00 00 00 00 00
 (1.9430)  can1  4100208   [8]  00 00 00 00 00 00 00 00
 (1.9470)  can1  89A0C02   [8]  00 00 00 00 00 00 00 00
 (1.9480)  can1  8030C02   [8]  00 00 2A 68 2A 68 92 17
 (1.9480)  can1  8580C02   [8]  00 00 00 00 00 00 00 00
 (1.9520)  can1  4100209   [8]  00 00 00 00 00 00 00 00
 (1.9530)  can1  4100208   [8]  00 00 00 00 00 00 00 00
 (1.9570)  can1  8100302   [5]  00 02 0A 00 07
 (1.9620)  can1  4100209   [8]  00 00 00 00 00 00 00 00
 (1.9630)  can1  4100208   [8]  00 00 00 00 00 00 00 00
 (1.9670)  can1  89A0C02   [8]  00 00 00 00 00 00 00 00
 (1.9680)  can1  8030C02   [8]  00 00 2A 68 2A 68 92 17
 (1.9680)  can1  8580C02   [8]  00 00 00 00 00 00 00 00
 (1.9720)  can1  4100209   [8]  00 00 00 00 00 00 00 00
 (1.9730)  can1  4100208   [8]  00 00 00 00 00 00 00 00
 (1.9820)  can1  8100302   [5]  00 02 0A 00 07
 (1.9830)  can1  4100209   [8]  00 00 00 00 00 00 00 00
 (1.9830)  can1  4100208   [8]  00 00 00 00 00 00 00 00
 (1.9870)  can1  89A0C02   [8]  00 00 00 00 00 00 00 00
 (1.9870)  can1  8030C02   [8]  00 00 2A 68 2A 68 92 17
 (1.9880)  can1  8041001   [8]  37 02 D0 3C FC A2 3B 00
 (1.9880)  can1  8580C02   [8]  00 00 00 00 00 00 00 00
 (1.9900)  can1  18800401   [8]  12 16 90 0A 90 CF 8F 00
 (1.9910)  can1  18840401   [8]  12 1A 90 0D 90 D3 8F 00
 (1.9910)  can1  18C00401   [8]  12 AD 2F 2C 2F FB 2E 00
 (1.9920)  can1  4100209   [8]  00 00 00 00 00 00 00 00
 (1.9930)  can1  4100208   [8]  00 00 00 00 00 00 00 00
 (2.0020)  can1  8101201   [8]  CA 64 72 90 21 8D 17 00
 (2.0020)  can1  8010C01   [8]  50 64 00 00 00 00 00 00
 (2.0030)  can1  4100209   [8]  00 00 00 00 00 00 00 00
 (2.0030)  can1  4100208   [8]  00 00 00 00 00 00 00 00
 (2.0070)  can1  8100302   [5]  00 01 0A 00 07
 (2.0080)  can1  8580C02   [8]  00 00 00 00 00 00 00 00
 (2.0080)  can1  89A0C02   [8]  00 00 00 00 00 00 00 00
 (2.0090)  can1  8030C02   [8]  00 00 2A 68 2A 68 92 17
 (2.0120)  can1  4100209   [8]  00 00 00 00 00 00 00 00
 (2.0130)  can1  4100208   [8]  00 00 00 00 00 00 00 00
 (2.0220)  can1  4100209   [8]  00 00 00 00 00 00 00 00
 (2.0230)  can1  4100208   [8]  00 00 00 00 00 00 00 00
 (2.0270)  can1  89A0C02   [8]  00 00 00 00 00 00 00 00
 (2.0280)  can1  8030C02   [8]  00 00 2A 68 2A 68 92 17
 (2.0280)  can1  8580C02   [8]  00 00 00 00 00 00 00 00
 (2.0320)  can1  8100302   [5]  00 01 0A 00 07
 (2.0320)  can1  4100209   [8]  00 00 00 00 00 00 00 00
 (2.0330)  can1  4100208   [8]  00 00 00 00 00 00 00 00
 (2.0400)  can1  18800401   [8]  13 C9 8F AB 8F C6 8F 00
 (2.0410)  can1  18840401   [8]  13 CE 8F C0 8F C9 8F 00
 (2.0410)  can1  18C00401   [8]  13 6C 2F AD 2F 01 30 00
 (2.0420)  can1  4100209   [8]  00 00 00 00 00 00 00 00
 (2.0430)  can1  4100208   [8]  00 00 00 00 00 00 00 00
 (2.0470)  can1  89A0C02   [8]  00 00 00 00 00 00 00 00
 (2.0470)  can1  8030C02   [8]  00 00 2A 68 2A 68 92 17
 (2.0480)  can1  8580C02   [8]  00 00 00 00 00 00 00 00
 (2.0520)  can1  4100209   [8]  00 00 00 00 00 00 00 00
 (2.0530)  can1  4100208   [8]  00 00 00 00 00 00 00 00
 (2.0570)  can1  8100302   [5]  00 01 0A 00 07
 (2.0620)  can1  4100209   [8]  00 00 00 00 00 00 00 00
 (2.0630)  can1  4100208   [8]  00 00 00 00 00 00 00 00
 (2.0670)  can1  89A0C02   [8]  00 00 00 00 00 00 00 00
 (2.0680)  can1  8030C02   [8]  00 00 2A 68 2A 68 92 17
 (2.0680)  can1  8580C02   [8]  00 00 00 00 00 00 00 00
 (2.0720)  can1  4100209   [8]  00 00 00 00 00 00 00 00
 (2.0730)  can1  4100208   [8]  00 00 00 00 00 00 00 00
 (2.0820)  can1  8100302   [5]  00 01 0A 00 07
 (2.0820)  can1  4100209   [8]  00 00 00 00 00 00 00 00
 (2.0830)  can1  4100208   [8]  00 00 00 00 00 00 00 00
 (2.0870)  can1  89A0C02   [8]  00 00 00 00 00 00 00 00
 (2.0880)  can1  8030C02   [8]  00 00 2A 68 2A 68 92 17
 (2.0880)  can1  8041001   [8]  37 02 D0 3C FC A2 3B 00
 (2.0890)  can1  8580C02   [8]  00 00 00 00 00 00 00 00
 (2.0900)  can1  18800401   [8]  14 D7 8F F8 8F F1 8F 00
 (2.0900)  can1  18840401   [8]  14 DA 8F FE 8F F6 8F 00
 (2.0910)  can1  18C00401   [8]  14 D6 2F 17 30 D7 2F 00
 (2.0920)  can1  4100209   [8]  00 00 00 00 00 00 00 00
 (2.0930)  can1  4100208   [8]  00 00 00 00 00 00 00 00
 (2.1020)  can1  4100209   [8]  00 00 00 00 00 00 00 00
 (2.1030)  can1  8101201   [8]  CB 64 70 90 21 8D 15 00
 (2.1030)  can1  4100208   [8]  00 00 00 00 00 00 00 00
 (2.1040)  can1  8010C01   [8]  51 64 00 00 00 00 00 00
 (2.1070)  can1  8100302   [5]  00 02 0A 00 07
 (2.1080)  can1  8580C02   [8]  00 00 00 00 00 00 00 00
 (2.1080)  can1  89A0C02   [8]  00 00 00 00 00 00 00 00
 (2.1090)  can1  8030C02   [8]  00 00 2A 68 2A 68 92 17
 (2.1120)  can1  4100209   [8]  00 00 00 00 00 00 00 00
 (2.1130)  can1  4100208   [8]  00 00 00 00 00 00 00 00
 (2.1220)  can1  4100209   [8]  00 00 00 00 00 00 00 00
 (2.1230)  can1  4100208   [8]  00 00 00 00 00 00 00 00
 (2.1270)  can1  89A0C02   [8]  00 00 00 00 00 00 00 00
 (2.1280)  can1  8030C02   [8]  00 00 2A 68 2A 68 92 17
 (2.1280)  can1  8580C02   [8]  00 00 00 00 00 00 00 00
 (2.1320)  can1  8100302   [5]  00 02 0A 00 07
 (2.1320)  can1  4100209   [8]  00 00 00 00 00 00 00 00
 (2.1330)  can1  4100208   [8]  00 00 00 00 00 00 00 00
 (2.1400)  can1  18800401   [8]  15 0B 90 F9 8F DF 8F 00
 (2.1410)  can1  18840401   [8]  15 0E 90 FD 8F E5 8F 00
 (2.1410)  can1  18C00401   [8]  15 26 30 9D 2F FF 2F 00
 (2.1420)  can1  4100209   [8]  00 00 00 00 00 00 00 00
 (2.1430)  can1  4100208   [8]  00 00 00 00 00 00 00 00
 (2.1470)  can1  89A0C02   [8]  00 00 00 00 00 00 00 00
 (2.1480)  can1  8030C02   [8]  00 00 2A 68 2A 68 92 17
 (2.1480)  can1  8580C02   [8]  00 00 00 00 00 00 00 00
 (2.1520)  can1  4100209   [8]  00 00 00 00 00 00 00 00
 (2.1530)  can1  4100208   [8]  00 00 00 00 00 00 00 00
 (2.1570)  can1  8100302   [5]  00 01 0A 00 07
 (2.1620)  can1  4100209   [8]  00 00 00 00 00 00 00 00
 (2.1630)  can1  4100208   [8]  00 00 00 00 00 00 00 00
 (2.1670)  can1  89A0C02   [8]  00 00 00 00 00 00 00 00
 (2.1670)  can1  8030C02   [8]  00 00 2A 68 2A 68 92 17
 (2.1680)  can1  8580C02   [8]  00 00 00 00 00 00 00 00
 (2.1720)  can1  4100209   [8]  00 00 00 00 00 00 00 00
 (2.1730)  can1  4100208   [8]  00 00 00 00 00 00 00 00
 (2.1820)  can1  8100302   [5]  00 01 0A 00 07
 (2.1830)  can1  4100209   [8]  00 00 00 00 00 00 00 00
 (2.1830)  can1  4100208   [8]  00 00 00 00 00 00 00 00
 (2.1870)  can1  89A0C02   [8]  00 00 00 00 00 00 00 00
 (2.1880)  can1  8030C02   [8]  00 00 2A 68 2A 68 92 17
 (2.1880)  can1  8041001   [8]  37 02 D0 3C FC A2 3B 00
 (2.1880)  can1  8580C02   [8]  00 00 00 00 00 00 00 00
 (2.1900)  can1  18800401   [8]  16 D8 8F ED 8F 19 90 00
 (2.1900)  can1  18840401   [8]  16 DD 8F F1 8F 1D 90 00
 (2.1900)  can1  18C00401   [8]  16 82 2F B3 2F 00 2F 00
 (2.1920)  can1  4100209   [8]  00 00 00 00 00 00 00 00
 (2.1930)  can1  4100208   [8]  00 00 00 00 00 00 00 00
 (2.2020)  can1  4100209   [8]  00 00 00 00 00 00 00 00
 (2.2030)  can1  4100208   [8]  00 00 00 00 00 00 00 00
 (2.2040)  can1  8101201   [8]  CA 64 74 90 22 8D 03 00
 (2.2040)  can1  8010C01   [8]  50 64 00 00 00 00 00 00
 (2.2070)  can1  8100302   [5]  00 02 0A 00 07
 (2.2070)  can1  8580C02   [8]  00 00 00 00 00 00 00 00
 (2.2080)  can1  89A0C02   [8]  00 00 00 00 00 00 00 00
 (2.2080)  can1  8030C02   [8]  00 00 2A 68 2A 68 92 17
 (2.2120)  can1  4100209   [8]  00 00 00 00 00 00 00 00
 (2.2130)  can1  4100208   [8]  00 00 00 00 00 00 00 00
 (2.2220)  can1  4100209   [8]  00 00 00 00 00 00 00 00
 (2.2230)  can1  4100208   [8]  00 00 00 00 00 00 00 00
 (2.2270)  can1  89A0C02   [8]  00 00 00 00 00 00 00 00
 (2.2280)  can1  8030C02   [8]  00 00 2A 68 2A 68 92 17
 (2.2280)  can1  8580C02   [8]  00 00 00 00 00 00 00 00
 (2.2320)  can1  8100302   [5]  00 01 0A 00 07
 (2.2330)  can1  4100209   [8]  00 00 00 00 00 00 00 00
 (2.2330)  can1  4100208   [8]  00 00 00 00 00 00 00 00
 (2.2400)  can1  18800401   [8]  17 0F 90 00 00 00 00 00
 (2.2400)  can1  18840401   [8]  17 11 90 00 00 00 00 00
 (2.2410)  can1  18C00401   [8]  17 F6 2E 10 27 10 27 00
 (2.2420)  can1  4100209   [8]  00 00 00 00 00 00 00 00
 (2.2430)  can1  4100208   [8]  00 00 00 00 00 00 00 00
 (2.2470)  can1  89A0C02   [8]  00 00 00 00 00 00 00 00
 (2.2480)  can1  8030C02   [8]  00 00 2A 68 2A 68 92 17
 (2.2480)  can1  8580C02   [8]  00 00 00 00 00 00 00 00
 (2.2520)  can1  4100209   [8]  00 00 00 00 00 00 00 00
 (2.2530)  can1  4100208   [8]  00 00 00 00 00 00 00 00
 (2.2570)  can1  8100302   [5]  00 02 0A 00 07
 (2.2620)  can1  4100209   [8]  00 00 00 00 00 00 00 00
 (2.2630)  can1  4100208   [8]  00 00 00 00 00 00 00 00
 (2.2670)  can1  89A0C02   [8]  00 00 00 00 00 00 00 00
 (2.2680)  can1  8030C02   [8]  00 00 2A 68 2A 68 92 17
 (2.2680)  can1  8580C02   [8]  00 00 00 00 00 00 00 00
 (2.2720)  can1  4100209   [8]  00 00 00 00 00 00 00 00
 (2.2730)  can1  4100208   [8]  00 00 00 00 00 00 00 00
 (2.2820)  can1  8100302   [5]  00 02 0A 00 07
 (2.2820)  can1  4100209   [8]  00 00 00 00 00 00 00 00
 (2.2830)  can1  4100208   [8]  00 00 00 00 00 00 00 00
 (2.2870)  can1  89A0C02   [8]  00 00 00 00 00 00 00 00
 (2.2870)  can1  8030C02   [8]  00 00 2A 68 2A 68 92 17
 (2.2880)  can1  8041001   [8]  37 02 D0 3C FC A2 3B 00
 (2.2890)  can1  8580C02   [8]  00 00 00 00 00 00 00 00
 (2.2900)  can1  18800401   [8]  00 70 90 85 8F 84 8F 00
 (2.2900)  can1  18840401   [8]  00 76 90 8A 8F 7F 8F 00
 (2.2910)  can1  18C00401   [8]  00 9E 2F 14 2F 11 30 00
 (2.2920)  can1  4100209   [8]  00 00 00 00 00 00 00 00
 (2.2930)  can1  4100208   [8]  00 00 00 00 00 00 00 00
 (2.3020)  can1  4100209   [8]  00 00 00 00 00 00 00 00
 (2.3030)  can1  4100208   [8]  00 00 00 00 00 00 00 00
 (2.3050)  can1  8101201   [8]  CC 64 70 90 23 8D 18 00
 (2.3050)  can1  8010C01   [8]  51 64 00 00 00 00 00 00
 (2.3070)  can1  8100302   [5]  00 03 0A 00 07
 (2.3070)  can1  8580C02   [8]  00 00 00 00 00 00 00 00
 (2.3080)  can1  89A0C02   [8]  00 00 00 00 00 00 00 00
 (2.3090)  can1  8030C02   [8]  00 00 2A 68 2A 68 92 17
 (2.3120)  can1  4100209   [8]  00 00 00 00 00 00 00 00
 (2.3130)  can1  4100208   [8]  00 00 00 00 00 00 00 00
 (2.3220)  can1  4100209   [8]  00 00 00 00 00 00 00 00
 (2.3230)  can1  4100208   [8]  00 00 00 00 00 00 00 00
 (2.3270)  can1  89A0C02   [8]  00 00 00 00 00 00 00 00
 (2.3280)  can1  8030C02   [8]  00 00 2A 68 2A 68 92 17
 (2.3280)  can1  8580C02   [8]  00 00 00 00 00 00 00 00
 (2.3320)  can1  8100302   [5]  00 02 0A 00 07
 (2.3320)  can1  4100209   [8]  00 00 00 00 00 00 00 00
 (2.3330)  can1  4100208   [8]  00 00 00 00 00 00 00 00
 (2.3400)  can1  18800401   [8]  01 74 8F 8E 8F 83 8F 00
 (2.3400)  can1  18840401   [8]  01 7B 8F 93 8F 8A 8F 00
 (2.3410)  can1  18C00401   [8]  01 B7 2F 3A 30 DC 2F 00
 (2.3420)  can1  4100209   [8]  00 00 00 00 00 00 00 00
 (2.3430)  can1  4100208   [8]  00 00 00 00 00 00 00 00
 (2.3470)  can1  89A0C02   [8]  00 00 00 00 00 00 00 00
 (2.3480)  can1  8030C02   [8]  00 00 2A 68 2A 68 92 17
 (2.3480)  can1  8580C02   [8]  00 00 00 00 00 00 00 00
 (2.3520)  can1  4100209   [8]  00 00 00 00 00 00 00 00
 (2.3530)  can1  4100208   [8]  00 00 00 00 00 00 00 00
 (2.3570)  can1  8100302   [5]  00 02 0A 00 07
 (2.3620)  can1  4100209   [8]  00 00 00 00 00 00 00 00
 (2.3630)  can1  4100208   [8]  00 00 00 00 00 00 00 00
 (2.3670)  can1  89A0C02   [8]  00 00 00 00 00 00 00 00
 (2.3670)  can1  8030C02   [8]  00 00 2A 68 2A 68 92 17
 (2.3680)  can1  8580C02   [8]  00 00 00 00 00 00 00 00
 (2.3720)  can1  4100209   [8]  00 00 00 00 00 00 00 00
 (2.3730)  can1  4100208   [8]  00 00 00 00 00 00 00 00
 (2.3820)  can1  8100302   [5]  00 02 0A 00 07
 (2.3830)  can1  4100209   [8]  00 00 00 00 00 00 00 00
 (2.3830)  can1  4100208   [8]  00 00 00 00 00 00 00 00
 (2.3870)  can1  89A0C02   [8]  00 00 00 00 00 00 00 00
 (2.3880)  can1  8030C02   [8]  00 00 2A 68 2A 68 92 17
 (2.3880)  can1  8041001   [8]  37 02 D0 3C FC A2 3B 00
 (2.3890)  can1  8580C02   [8]  00 00 00 00 00 00 00 00
 (2.3900)  can1  18800401   [8]  02 A8 8F 0E 90 F8 8F 00
 (2.3900)  can1  18840401   [8]  02 AB 8F 12 90 FC 8F 00
 (2.3910)  can1  18C00401   [8]  02 17 30 D6 2F FA 2F 00
 (2.3920)  can1  4100209   [8]  00 00 00 00 00 00 00 00
 (2.3930)  can1  4100208   [8]  00 00 00 00 00 00 00 00
 (2.4020)  can1  4100209   [8]  00 00 00 00 00 00 00 00
 (2.4030)  can1  4100208   [8]  00 00 00 00 00 00 00 00
 (2.4060)  can1  8101201   [8]  CD 64 73 90 22 8D 1F 00
 (2.4060)  can1  8010C01   [8]  4F 64 00 00 00 00 00 00
 (2.4070)  can1  8100302   [5]  00 01 0A 00 07
 (2.4070)  can1  8580C02   [8]  00 00 00 00 00 00 00 00
 (2.4080)  can1  89A0C02   [8]  00 00 00 00 00 00 00 00
 (2.4080)  can1  8030C02   [8]  00 00 2A 68 2A 68 92 17
 (2.4130)  can1  4100209   [8]  00 00 00 00 00 00 00 00
 (2.4140)  can1  4100208   [8]  00 00 00 00 00 00 00 00
 (2.4230)  can1  4100209   [8]  00 00 00 00 00 00 00 00
 (2.4230)  can1  4100208   [8]  00 00 00 00 00 00 00 00
 (2.4280)  can1  89A0C02   [8]  00 00 00 00 00 00 00 00
 (2.4280)  can1  8030C02   [8]  00 00 2A 68 2A 68 92 17
 (2.4290)  can1  8580C02   [8]  00 00 00 00 00 00 00 00
 (2.4330)  can1  8100302   [5]  00 02 0A 00 07
 (2.4330)  can1  4100209   [8]  00 00 00 00 00 00 00 00
 (2.4340)  can1  4100208   [8]  00 00 00 00 00 00 00 00
 (2.4380)  can1  18101203   [4]  C9 2E 86 01
 (2.4400)  can1  18800401   [8]  03 E8 8F DC 8F F4 8F 00
 (2.4400)  can1  18840401   [8]  03 EB 8F DF 8F F6 8F 00
 (2.4410)  can1  18C00401   [8]  03 C4 2F C2 2F 82 2F 00
 (2.4430)  can1  4100209   [8]  00 00 00 00 00 00 00 00
 (2.4430)  can1  4100208   [8]  00 00 00 00 00 00 00 00
 (2.4480)  can1  89A0C02   [8]  00 00 00 00 00 00 00 00
 (2.4480)  can1  8030C02   [8]  00 00 2A 68 2A 68 92 17
 (2.4490)  can1  8580C02   [8]  00 00 00 00 00 00 00 00
 (2.4530)  can1  4100209   [8]  00 00 00 00 00 00 00 00
 (2.4530)  can1  4100208   [8]  00 00 00 00 00 00 00 00
 (2.4580)  can1  8100302   [5]  00 01 0A 00 07
 (2.4630)  can1  4100209   [8]  00 00 00 00 00 00 00 00
 (2.4630)  can1  4100208   [8]  00 00 00 00 00 00 00 00
 (2.4680)  can1  89A0C02   [8]  00 00 00 00 00 00 00 00
 (2.4680)  can1  8030C02   [8]  00 00 2A 68 2A 68 92 17
 (2.4690)  can1  8580C02   [8]  00 00 00 00 00 00 00 00
 (2.4730)  can1  4100209   [8]  00 00 00 00 00 00 00 00
 (2.4740)  can1  4100208   [8]  00 00 00 00 00 00 00 00
 (2.4840)  can1  8100302   [5]  00 01 0A 00 07
 (2.4840)  can1  4100209   [8]  00 00 00 00 00 00 00 00
 (2.4840)  can1  4100208   [8]  00 00 00 00 00 00 00 00
 (2.4880)  can1  89A0C02   [8]  00 00 00 00 00 00 00 00
 (2.4890)  can1  8030C02   [8]  00 00 2A 68 2A 68 92 17
 (2.4890)  can1  8041001   [8]  37 02 D0 3C FC A2 3B 00
 (2.4900)  can1  8580C02   [8]  00 00 00 00 00 00 00 00
 (2.4900)  can1  18800401   [8]  04 0F 90 01 90 1F 8D 00
 (2.4910)  can1  18840401   [8]  04 15 90 07 90 24 8D 00
 (2.4920)  can1  18C00401   [8]  04 EE 2E D2 2E F4 2F 00
 (2.4940)  can1  4100209   [8]  00 00 00 00 00 00 00 00
 (2.4940)  can1  4100208   [8]  00 00 00 00 00 00 00 00
 (2.5030)  can1  4100209   [8]  00 00 00 00 00 00 00 00
 (2.5030)  can1  4100208   [8]  00 00 00 00 00 00 00 00
 (2.5070)  can1  8101201   [8]  CC 64 70 90 24 8D 1C 00
 (2.5080)  can1  8010C01   [8]  4F 64 00 00 00 00 00 00
 (2.5080)  can1  8100302   [5]  00 02 0A 00 07
 (2.5080)  can1  8580C02   [8]  00 00 00 00 00 00 00 00
 (2.5090)  can1  89A0C02   [8]  00 00 00 00 00 00 00 00
 (2.5100)  can1  8030C02   [8]  00 00 2A 68 2A 68 92 17
 (2.5130)  can1  4100209   [8]  00 00 00 00 00 00 00 00
 (2.5140)  can1  4100208   [8]  00 00 00 00 00 00 00 00
 (2.5230)  can1  4100209   [8]  00 00 00 00 00 00 00 00
 (2.5230)  can1  4100208   [8]  00 00 00 00 00 00 00 00
 (2.5280)  can1  89A0C02   [8]  00 00 00 00 00 00 00 00
 (2.5280)  can1  8030C02   [8]  00 00 2A 68 2A 68 92 17
 (2.5290)  can1  8580C02   [8]  00 00 00 00 00 00 00 00
 (2.5340)  can1  8100302   [5]  00 01 0A 00 07
 (2.5340)  can1  4100209   [8]  00 00 00 00 00 00 00 00
 (2.5350)  can1  4100208   [8]  00 00 00 00 00 00 00 00
 (2.5400)  can1  18800401   [8]  05 DD 8F AB 8F D2 8F 00
 (2.5400)  can1  18840401   [8]  05 E4 8F CB 8F D9 8F 00
 (2.5400)  can1  18C00401   [8]  05 F2 2F 48 30 69 30 00
 (2.5430)  can1  4100209   [8]  00 00 00 00 00 00 00 00
 (2.5440)  can1  4100208   [8]  00 00 00 00 00 00 00 00
 (2.5480)  can1  89A0C02   [8]  00 00 00 00 00 00 00 00
 (2.5480)  can1  8030C02   [8]  00 00 2A 68 2A 68 92 17
 (2.5490)  can1  8580C02   [8]  00 00 00 00 00 00 00 00
 (2.5530)  can1  4100209   [8]  00 00 00 00 00 00 00 00
 (2.5530)  can1  4100208   [8]  00 00 00 00 00 00 00 00
 (2.5580)  can1  8100302   [5]  00 03 0A 00 07
 (2.5630)  can1  4100209   [8]  00 00 00 00 00 00 00 00
 (2.5640)  can1  4100208   [8]  00 00 00 00 00 00 00 00
 (2.5680)  can1  89A0C02   [8]  00 00 00 00 00 00 00 00
 (2.5680)  can1  8030C02   [8]  00 00 2A 68 2A 68 92 17
 (2.5680)  can1  8580C02   [8]  00 00 00 00 00 00 00 00
 (2.5730)  can1  4100209   [8]  00 00 00 00 00 00 00 00
 (2.5730)  can1  4100208   [8]  00 00 00 00 00 00 00 00
 (2.5830)  can1  8100302   [5]  00 01 0A 00 07
 (2.5840)  can1  4100209   [8]  00 00 00 00 00 00 00 00
 (2.5840)  can1  4100208   [8]  00 00 00 00 00 00 00 00
 (2.5880)  can1  89A0C02   [8]  00 00 00 00 00 00 00 00
 (2.5880)  can1  8030C02   [8]  00 00 2A 68 2A 68 92 17
 (2.5890)  can1  8041001   [8]  37 02 D0 3C FC A2 3B 00
 (2.5890)  can1  8580C02   [8]  00 00 00 00 00 00 00 00
 (2.5900)  can1  18800401   [8]  06 DB 8F 14 90 1E 90 00
 (2.5910)  can1  18840401   [8]  06 E3 8F 19 90 22 90 00
 (2.5920)  can1  18C00401   [8]  06 44 30 A2 30 57 30 00
 (2.5930)  can1  4100209   [8]  00 00 00 00 00 00 00 00
 (2.5940)  can1  4100208   [8]  00 00 00 00 00 00 00 00
 (2.6030)  can1  4100209   [8]  00 00 00 00 00 00 00 00
 (2.6030)  can1  4100208   [8]  00 00 00 00 00 00 00 00
 (2.6080)  can1  8100302   [5]  00 01 0A 00 07
 (2.6090)  can1  8580C02   [8]  00 00 00 00 00 00 00 00
 (2.6090)  can1  89A0C02   [8]  00 00 00 00 00 00 00 00
 (2.6100)  can1  8010C01   [8]  51 64 00 00 00 00 00 00
 (2.6100)  can1  8030C02   [8]  00 00 2A 68 2A 68 92 17
 (2.6110)  can1  8101201   [8]  CA 64 73 90 25 8D 1C 00
 (2.6300)  can1  4100209   [8]  00 00 00 00 00 00 00 00
 (2.6390)  can1  4100208   [8]  00 00 00 00 00 00 00 00
 (2.6400)  can1  4100209   [8]  00 00 00 00 00 00 00 00
 (2.6410)  can1  4100208   [8]  00 00 00 00 00 00 00 00
 (2.6420)  can1  89A0C02   [8]  00 00 00 00 00 00 00 00
 (2.6420)  can1  8030C02   [8]  00 00 2A 68 2A 68 92 17
 (2.6430)  can1  8580C02   [8]  00 00 00 00 00 00 00 00
 (2.6430)  can1  8100302   [5]  00 01 0A 00 07
 (2.6440)  can1  4100209   [8]  00 00 00 00 00 00 00 00
 (2.6440)  can1  4100208   [8]  00 00 00 00 00 00 00 00
 (2.6450)  can1  18800401   [8]  07 12 90 07 90 E9 8F 00
 (2.6450)  can1  18840401   [8]  07 1A 90 0D 90 EE 8F 00
 (2.6460)  can1  18C00401   [8]  07 AA 30 29 30 9E 30 00
 (2.6460)  can1  4100209   [8]  00 00 00 00 00 00 00 00
 (2.6470)  can1  4100208   [8]  00 00 00 00 00 00 00 00
 (2.6480)  can1  89A0C02   [8]  00 00 00 00 00 00 00 00
 (2.6480)  can1  8030C02   [8]  00 00 2A 68 2A 68 92 17
 (2.6490)  can1  8580C02   [8]  00 00 00 00 00 00 00 00
 (2.6530)  can1  4100209   [8]  00 00 00 00 00 00 00 00
 (2.6540)  can1  4100208   [8]  00 00 00 00 00 00 00 00
 (2.6580)  can1  8100302   [5]  00 02 0A 00 07
 (2.6630)  can1  4100209   [8]  00 00 00 00 00 00 00 00
 (2.6640)  can1  4100208   [8]  00 00 00 00 00 00 00 00
 (2.6680)  can1  89A0C02   [8]  00 00 00 00 00 00 00 00
 (2.6680)  can1  8030C02   [8]  00 00 2A 68 2A 68 92 17
 (2.6690)  can1  8580C02   [8]  00 00 00 00 00 00 00 00
 (2.6730)  can1  4100209   [8]  00 00 00 00 00 00 00 00
 (2.6730)  can1  4100208   [8]  00 00 00 00 00 00 00 00
 (2.6840)  can1  8100302   [5]  00 02 0A 00 07
 (2.6850)  can1  4100209   [8]  00 00 00 00 00 00 00 00
 (2.6850)  can1  4100208   [8]  00 00 00 00 00 00 00 00
 (2.6880)  can1  89A0C02   [8]  00 00 00 00 00 00 00 00
 (2.6880)  can1  8030C02   [8]  00 00 2A 68 2A 68 92 17
 (2.6880)  can1  8041001   [8]  37 02 D0 3C FC A2 3B 00
 (2.6890)  can1  8580C02   [8]  00 00 00 00 00 00 00 00
 (2.6900)  can1  18800401   [8]  08 DD 8F 4D 8D 35 90 00
 (2.6900)  can1  18840401   [8]  08 E4 8F 52 8D 3C 90 00
 (2.6910)  can1  18C00401   [8]  08 FE 2F 81 30 96 2F 00
 (2.6930)  can1  4100209   [8]  00 00 00 00 00 00 00 00
 (2.6940)  can1  4100208   [8]  00 00 00 00 00 00 00 00
 (2.7030)  can1  4100209   [8]  00 00 00 00 00 00 00 00
 (2.7030)  can1  4100208   [8]  00 00 00 00 00 00 00 00
 (2.7080)  can1  8100302   [5]  00 02 0A 00 07
 (2.7080)  can1  8580C02   [8]  00 00 00 00 00 00 00 00
 (2.7090)  can1  89A0C02   [8]  00 00 00 00 00 00 00 00
 (2.7100)  can1  8030C02   [8]  00 00 2A 68 2A 68 92 17
 (2.7110)  can1  8101201   [8]  CC 64 6F 90 24 8D 08 00
 (2.7110)  can1  8010C01   [8]  4E 64 00 00 00 00 00 00
 (2.7130)  can1  4100209   [8]  00 00 00 00 00 00 00 00
 (2.7130)  can1  4100208   [8]  00 00 00 00 00 00 00 00
 (2.7230)  can1  4100209   [8]  00 00 00 00 00 00 00 00
 (2.7240)  can1  4100208   [8]  00 00 00 00 00 00 00 00
 (2.7280)  can1  89A0C02   [8]  00 00 00 00 00 00 00 00
 (2.7280)  can1  8030C02   [8]  00 00 2A 68 2A 68 92 17
 (2.7290)  can1  8580C02   [8]  00 00 00 00 00 00 00 00
 (2.7340)  can1  8100302   [5]  00 01 0A 00 07
 (2.7340)  can1  4100209   [8]  00 00 00 00 00 00 00 00
 (2.7350)  can1  4100208   [8]  00 00 00 00 00 00 00 00
 (2.7400)  can1  18800401   [8]  09 28 90 E5 8F D5 8F 00
 (2.7400)  can1  18840401   [8]  09 2F 90 ED 8F DB 8F 00
 (2.7410)  can1  18C00401   [8]  09 FD 2F 99 2F 0D 30 00
 (2.7430)  can1  4100209   [8]  00 00 00 00 00 00 00 00
 (2.7430)  can1  4100208   [8]  00 00 00 00 00 00 00 00
 (2.7480)  can1  89A0C02   [8]  00 00 00 00 00 00 00 00
 (2.7490)  can1  8030C02   [8]  00 00 2A 68 2A 68 92 17
 (2.7490)  can1  8580C02   [8]  00 00 00 00 00 00 00 00
 (2.7530)  can1  4100209   [8]  00 00 00 00 00 00 00 00
 (2.7530)  can1  4100208   [8]  00 00 00 00 00 00 00 00
 (2.7580)  can1  8100302   [5]  00 02 0A 00 07
 (2.7630)  can1  4100209   [8]  00 00 00 00 00 00 00 00
 (2.7630)  can1  4100208   [8]  00 00 00 00 00 00 00 00
 (2.7680)  can1  89A0C02   [8]  00 00 00 00 00 00 00 00
 (2.7690)  can1  8030C02   [8]  00 00 2A 68 2A 68 92 17
 (2.7690)  can1  8580C02   [8]  00 00 00 00 00 00 00 00
 (2.7730)  can1  4100209   [8]  00 00 00 00 00 00 00 00
 (2.7730)  can1  4100208   [8]  00 00 00 00 00 00 00 00
 (2.7820)  can1  8100302   [5]  00 02 0A 00 07
 (2.7840)  can1  4100209   [8]  00 00 00 00 00 00 00 00
 (2.7850)  can1  4100208   [8]  00 00 00 00 00 00 00 00
 (2.7880)  can1  89A0C02   [8]  00 00 00 00 00 00 00 00
 (2.7880)  can1  8030C02   [8]  00 00 2A 68 2A 68 92 17
 (2.7890)  can1  8041001   [8]  37 02 D0 3C FC A2 3B 00
 (2.7890)  can1  8580C02   [8]  00 00 00 00 00 00 00 00
 (2.7900)  can1  18800401   [8]  0A B6 8F CA 8F D6 8F 00
 (2.7910)  can1  18840401   [8]  0A C0 8F CF 8F DC 8F 00
 (2.7910)  can1  18C00401   [8]  0A 42 30 9B 30 5E 30 00
 (2.7930)  can1  4100209   [8]  00 00 00 00 00 00 00 00
 (2.7930)  can1  4100208   [8]  00 00 00 00 00 00 00 00
 (2.8030)  can1  4100209   [8]  00 00 00 00 00 00 00 00
 (2.8040)  can1  4100208   [8]  00 00 00 00 00 00 00 00
 (2.8080)  can1  8100302   [5]  00 01 0A 00 07
 (2.8090)  can1  8580C02   [8]  00 00 00 00 00 00 00 00
 (2.8090)  can1  89A0C02   [8]  00 00 00 00 00 00 00 00
 (2.8090)  can1  8030C02   [8]  00 00 2A 68 2A 68 92 17
 (2.8100)  can1  8101201   [8]  CB 64 73 90 24 8D 18 00
 (2.8110)  can1  8010C01   [8]  4F 64 00 00 00 00 00 00
 (2.8130)  can1  4100209   [8]  00 00 00 00 00 00 00 00
 (2.8130)  can1  4100208   [8]  00 00 00 00 00 00 00 00
 (2.8230)  can1  4100209   [8]  00 00 00 00 00 00 00 00
 (2.8230)  can1  4100208   [8]  00 00 00 00 00 00 00 00
 (2.8280)  can1  89A0C02   [8]  00 00 00 00 00 00 00 00
 (2.8290)  can1  8030C02   [8]  00 00 2A 68 2A 68 92 17
 (2.8290)  can1  8580C02   [8]  00 00 00 00 00 00 00 00
 (2.8340)  can1  8100302   [5]  00 01 0A 00 07
 (2.8340)  can1  4100209   [8]  00 00 00 00 00 00 00 00
 (2.8350)  can1  4100208   [8]  00 00 00 00 00 00 00 00
 (2.8380)  can1  404FF03   [1]  00
 (2.8400)  can1  8250C03   [8]  00 00 00 00 00 00 00 00
 (2.8400)  can1  8840C03   [8]  35 00 12 00 20 00 07 00
 (2.8410)  can1  88D0C03   [8]  11 00 00 00 00 00 00 00
 (2.8420)  can1  18800401   [8]  0B 06 90 05 90 0B 90 00
 (2.8430)  can1  18840401   [8]  0B 0C 90 0A 90 10 90 00
 (2.8430)  can1  18C00401   [8]  0B CE 30 6F 30 BC 30 00
 (2.8440)  can1  4100209   [8]  00 00 00 00 00 00 00 00
 (2.8450)  can1  4100208   [8]  00 00 00 00 00 00 00 00
 (2.8480)  can1  89A0C02   [8]  00 00 00 00 00 00 00 00
 (2.8480)  can1  8030C02   [8]  00 00 2A 68 2A 68 92 17
 (2.8490)  can1  8580C02   [8]  00 00 00 00 00 00 00 00
 (2.8520)  can1  404FF07   [1]  00
 (2.8540)  can1  4100209   [8]  00 00 00 00 00 00 00 00
 (2.8550)  can1  4100208   [8]  00 00 00 00 00 00 00 00
 (2.8580)  can1  8100302   [5]  00 01 0A 00 07
 (2.8630)  can1  4100209   [8]  00 00 00 00 00 00 00 00
 (2.8630)  can1  4100208   [8]  00 00 00 00 00 00 00 00
 (2.8680)  can1  89A0C02   [8]  00 00 00 00 00 00 00 00
 (2.8680)  can1  8030C02   [8]  00 00 2A 68 2A 68 92 17
 (2.8690)  can1  8580C02   [8]  00 00 00 00 00 00 00 00
 (2.8730)  can1  4100209   [8]  00 00 00 00 00 00 00 00
 (2.8740)  can1  4100208   [8]  00 00 00 00 00 00 00 00
 (2.8840)  can1  8100302   [5]  00 02 0A 00 07
 (2.8840)  can1  4100209   [8]  00 00 00 00 00 00 00 00
 (2.8840)  can1  4100208   [8]  00 00 00 00 00 00 00 00
 (2.8880)  can1  89A0C02   [8]  00 00 00 00 00 00 00 00
 (2.8890)  can1  8030C02   [8]  00 00 2A 68 2A 68 92 17
 (2.8890)  can1  404FF01   [1]  00
 (2.8900)  can1  8041001   [8]  37 02 D0 3C FC A2 3B 00
 (2.8910)  can1  8580C02   [8]  00 00 00 00 00 00 00 00
 (2.8910)  can1  8120C01   [8]  90 00 00 00 00 00 00 00
 (2.8920)  can1  80F1201   [4]  26 11 00 00
 (2.8920)  can1  18800401   [8]  0C 02 90 E8 8F E6 8F 00
 (2.8930)  can1  18840401   [8]  0C 09 90 EF 8F ED 8F 00
 (2.8940)  can1  18C00401   [8]  0C 48 30 79 30 FA 2F 00
 (2.8940)  can1  4100209   [8]  00 00 00 00 00 00 00 00
 (2.8950)  can1  4100208   [8]  00 00 00 00 00 00 00 00
 (2.9030)  can1  4100209   [8]  00 00 00 00 00 00 00 00
 (2.9030)  can1  4100208   [8]  00 00 00 00 00 00 00 00
 (2.9070)  can1  404FF02   [1]  00
 (2.9070)  can1  8100302   [5]  00 01 0A 00 07
 (2.9080)  can1  8580C02   [8]  00 00 00 00 00 00 00 00
 (2.9080)  can1  89A0C02   [8]  00 00 00 00 00 00 00 00
 (2.9090)  can1  8030C02   [8]  00 00 2A 68 2A 68 92 17
 (2.9110)  can1  8101201   [8]  CA 64 72 90 24 8D 24 00
 (2.9120)  can1  8010C01   [8]  4F 64 00 00 00 00 00 00
 (2.9130)  can1  4100209   [8]  00 00 00 00 00 00 00 00
 (2.9130)  can1  4100208   [8]  00 00 00 00 00 00 00 00
 (2.9230)  can1  4100209   [8]  00 00 00 00 00 00 00 00
 (2.9230)  can1  4100208   [8]  00 00 00 00 00 00 00 00
 (2.9280)  can1  89A0C02   [8]  00 00 00 00 00 00 00 00
 (2.9290)  can1  8030C02   [8]  00 00 2A 68 2A 68 92 17
 (2.9290)  can1  8580C02   [8]  00 00 00 00 00 00 00 00
 (2.9340)  can1  8100302   [5]  00 02 0A 00 07
 (2.9350)  can1  4100209   [8]  00 00 00 00 00 00 00 00
 (2.9350)  can1  4100208   [8]  00 00 00 00 00 00 00 00
 (2.9380)  can1  18101203   [4]  E2 2E 38 02
 (2.9400)  can1  18800401   [8]  0D F1 8F 1A 90 0A 90 00
 (2.9400)  can1  18840401   [8]  0D F7 8F 20 90 10 90 00
 (2.9410)  can1  18C00401   [8]  0D 21 30 3A 2F 3D 2F 00
 (2.9430)  can1  4100209   [8]  00 00 00 00 00 00 00 00
 (2.9430)  can1  4100208   [8]  00 00 00 00 00 00 00 00
 (2.9480)  can1  89A0C02   [8]  00 00 00 00 00 00 00 00
 (2.9480)  can1  8030C02   [8]  00 00 2A 68 2A 68 92 17
 (2.9490)  can1  8580C02   [8]  00 00 00 00 00 00 00 00
 (2.9530)  can1  4100209   [8]  00 00 00 00 00 00 00 00
 (2.9540)  can1  4100208   [8]  00 00 00 00 00 00 00 00
 (2.9580)  can1  8100302   [5]  00 02 0A 00 07
 (2.9630)  can1  4100209   [8]  00 00 00 00 00 00 00 00
 (2.9640)  can1  4100208   [8]  00 00 00 00 00 00 00 00
 (2.9680)  can1  89A0C02   [8]  00 00 00 00 00 00 00 00
 (2.9680)  can1  8030C02   [8]  00 00 2A 68 2A 68 92 17
 (2.9690)  can1  8580C02   [8]  00 00 00 00 00 00 00 00
 (2.9730)  can1  4100209   [8]  00 00 00 00 00 00 00 00
 (2.9730)  can1  4100208   [8]  00 00 00 00 00 00 00 00
 (2.9840)  can1  8100302   [5]  00 02 0A 00 07
 (2.9850)  can1  4100209   [8]  00 00 00 00 00 00 00 00
 (2.9850)  can1  4100208   [8]  00 00 00 00 00 00 00 00
 (2.9880)  can1  89A0C02   [8]  00 00 00 00 00 00 00 00
 (2.9880)  can1  8030C02   [8]  00 00 2A 68 2A 68 92 17
 (2.9890)  can1  8041001   [8]  37 02 D0 3C FC A2 3B 00
 (2.9890)  can1  8580C02   [8]  00 00 00 00 00 00 00 00
 (2.9900)  can1  18800401   [8]  0E D0 8F C5 8F B1 8F 00
 (2.9900)  can1  18840401   [8]  0E D4 8F CA 8F B4 8F 00
 (2.9910)  can1  18C00401   [8]  0E 5A 2F E5 2F 0A 30 00
 (2.9930)  can1  4100209   [8]  00 00 00 00 00 00 00 00
 (2.9940)  can1  4100208   [8]  00 00 00 00 00 00 00 00
 (3.0030)  can1  4100209   [8]  00 00 00 00 00 00 00 00
 (3.0030)  can1  4100208   [8]  00 00 00 00 00 00 00 00
 (3.0090)  can1  8100302   [5]  00 02 0A 00 07
 (3.0100)  can1  8580C02   [8]  00 00 00 00 00 00 00 00
 (3.0100)  can1  89A0C02   [8]  00 00 00 00 00 00 00 00
 (3.0100)  can1  8030C02   [8]  00 00 2A 68 2A 68 92 17
 (3.0120)  can1  8101201   [8]  C7 64 73 90 25 8D 25 00
 (3.0120)  can1  8010C01   [8]  4C 64 00 00 00 00 00 00
 (3.0130)  can1  4100209   [8]  00 00 00 00 00 00 00 00
 (3.0140)  can1  4100208   [8]  00 00 00 00 00 00 00 00
 (3.0230)  can1  4100209   [8]  00 00 00 00 00 00 00 00
 (3.0230)  can1  4100208   [8]  00 00 00 00 00 00 00 00
 (3.0280)  can1  89A0C02   [8]  00 00 00 00 00 00 00 00
 (3.0280)  can1  8030C02   [8]  00 00 2A 68 2A 68 92 17
 (3.0290)  can1  8580C02   [8]  00 00 00 00 00 00 00 00
 (3.0340)  can1  8100302   [5]  00 01 0A 00 07
 (3.0350)  can1  4100209   [8]  00 00 00 00 00 00 00 00
 (3.0350)  can1  4100208   [8]  00 00 00 00 00 00 00 00
 (3.0400)  can1  18800401   [8]  0F 6A 8F CC 8F FD 8F 00
 (3.0400)  can1  18840401   [8]  0F 6E 8F D0 8F 03 90 00
 (3.0410)  can1  18C00401   [8]  0F 67 30 51 30 AE 30 00
 (3.0430)  can1  4100209   [8]  00 00 00 00 00 00 00 00
 (3.0430)  can1  4100208   [8]  00 00 00 00 00 00 00 00
 (3.0480)  can1  89A0C02   [8]  00 00 00 00 00 00 00 00
 (3.0490)  can1  8030C02   [8]  00 00 2A 68 2A 68 92 17
 (3.0490)  can1  8580C02   [8]  00 00 00 00 00 00 00 00
 (3.0530)  can1  4100209   [8]  00 00 00 00 00 00 00 00
 (3.0530)  can1  4100208   [8]  00 00 00 00 00 00 00 00
 (3.0580)  can1  8100302   [5]  00 02 0A 00 07
 (3.0630)  can1  4100209   [8]  00 00 00 00 00 00 00 00
 (3.0630)  can1  4100208   [8]  00 00 00 00 00 00 00 00
 (3.0680)  can1  89A0C02   [8]  00 00 00 00 00 00 00 00
 (3.0690)  can1  8030C02   [8]  00 00 2A 68 2A 68 92 17
 (3.0690)  can1  8580C02   [8]  00 00 00 00 00 00 00 00
 (3.0730)  can1  4100209   [8]  00 00 00 00 00 00 00 00
 (3.0730)  can1  4100208   [8]  00 00 00 00 00 00 00 00
 (3.0820)  can1  8100302   [5]  00 02 0A 00 07
 (3.0840)  can1  4100209   [8]  00 00 00 00 00 00 00 00
 (3.0850)  can1  4100208   [8]  00 00 00 00 00 00 00 00
 (3.0880)  can1  89A0C02   [8]  00 00 00 00 00 00 00 00
 (3.0880)  can1  8030C02   [8]  00 00 2A 68 2A 68 92 17
 (3.0890)  can1  8041001   [8]  37 02 D0 3C FC A2 3B 00
 (3.0890)  can1  8580C02   [8]  00 00 00 00 00 00 00 00
 (3.0900)  can1  18800401   [8]  10 F0 8F F2 8F EB 8F 00
 (3.0910)  can1  18840401   [8]  10 F9 8F FA 8F F3 8F 00
 (3.0910)  can1  18C00401   [8]  10 60 30 B8 30 13 30 00
 (3.0940)  can1  4100209   [8]  00 00 00 00 00 00 00 00
 (3.0940)  can1  4100208   [8]  00 00 00 00 00 00 00 00
 (3.1030)  can1  4100209   [8]  00 00 00 00 00 00 00 00
 (3.1040)  can1  4100208   [8]  00 00 00 00 00 00 00 00
 (3.1080)  can1  8100302   [5]  00 01 0A 00 07
 (3.1090)  can1  8580C02   [8]  00 00 00 00 00 00 00 00
 (3.1090)  can1  89A0C02   [8]  00 00 00 00 00 00 00 00
 (3.1090)  can1  8030C02   [8]  00 00 2A 68 2A 68 92 17
 (3.1130)  can1  4100209   [8]  00 00 00 00 00 00 00 00
 (3.1130)  can1  8101201   [8]  C9 64 71 90 26 8D 22 00
 (3.1140)  can1  4100208   [8]  00 00 00 00 00 00 00 00
 (3.1150)  can1  8010C01   [8]  4C 64 00 00 00 00 00 00
 (3.1230)  can1  4100209   [8]  00 00 00 00 00 00 00 00
 (3.1230)  can1  4100208   [8]  00 00 00 00 00 00 00 00
 (3.1280)  can1  89A0C02   [8]  00 00 00 00 00 00 00 00
 (3.1290)  can1  8030C02   [8]  00 00 2A 68 2A 68 92 17
 (3.1290)  can1  8580C02   [8]  00 00 00 00 00 00 00 00
 (3.1340)  can1  8100302   [5]  00 02 0A 00 07
 (3.1350)  can1  4100209   [8]  00 00 00 00 00 00 00 00
 (3.1350)  can1  4100208   [8]  00 00 00 00 00 00 00 00
 (3.1400)  can1  18800401   [8]  11 D6 8F CC 8F DB 8F 00
 (3.1400)  can1  18840401   [8]  11 DD 8F D4 8F E4 8F 00
 (3.1410)  can1  18C00401   [8]  11 90 30 C6 2F 4A 30 00
 (3.1430)  can1  4100209   [8]  00 00 00 00 00 00 00 00
 (3.1430)  can1  4100208   [8]  00 00 00 00 00 00 00 00
 (3.1480)  can1  89A0C02   [8]  00 00 00 00 00 00 00 00
 (3.1480)  can1  8030C02   [8]  00 00 2A 68 2A 68 92 17
 (3.1490)  can1  8580C02   [8]  00 00 00 00 00 00 00 00
 (3.1530)  can1  4100209   [8]  00 00 00 00 00 00 00 00
 (3.1540)  can1  4100208   [8]  00 00 00 00 00 00 00 00
 (3.1580)  can1  8100302   [5]  00 00 0A 00 07
 (3.1630)  can1  4100209   [8]  00 00 00 00 00 00 00 00
 (3.1630)  can1  4100208   [8]  00 00 00 00 00 00 00 00
 (3.1680)  can1  89A0C02   [8]  00 00 00 00 00 00 00 00
 (3.1690)  can1  8030C02   [8]  00 00 2A 68 2A 68 92 17
 (3.1690)  can1  8580C02   [8]  00 00 00 00 00 00 00 00
 (3.1730)  can1  4100209   [8]  00 00 00 00 00 00 00 00
 (3.1730)  can1  4100208   [8]  00 00 00 00 00 00 00 00
 (3.1830)  can1  8100302   [5]  00 02 0A 00 07
 (3.1830)  can1  4100209   [8]  00 00 00 00 00 00 00 00
 (3.1840)  can1  4100208   [8]  00 00 00 00 00 00 00 00
 (3.1880)  can1  89A0C02   [8]  00 00 00 00 00 00 00 00
 (3.1890)  can1  8030C02   [8]  00 00 2A 68 2A 68 92 17
 (3.1890)  can1  8041001   [8]  37 02 D0 3C FC A2 3B 00
 (3.1900)  can1  8580C02   [8]  00 00 00 00 00 00 00 00
 (3.1900)  can1  18800401   [8]  12 16 90 09 90 D3 8F 00
 (3.1910)  can1  18840401   [8]  12 1D 90 10 90 D6 8F 00
 (3.1910)  can1  18C00401   [8]  12 AC 2F 2C 2F FA 2E 00
 (3.1940)  can1  4100209   [8]  00 00 00 00 00 00 00 00
 (3.1950)  can1  4100208   [8]  00 00 00 00 00 00 00 00
 (3.2030)  can1  4100209   [8]  00 00 00 00 00 00 00 00
 (3.2030)  can1  4100208   [8]  00 00 00 00 00 00 00 00
 (3.2080)  can1  8100302   [5]  00 02 0A 00 07
 (3.2080)  can1  8580C02   [8]  00 00 00 00 00 00 00 00
 (3.2090)  can1  89A0C02   [8]  00 00 00 00 00 00 00 00
 (3.2090)  can1  8030C02   [8]  00 00 2A 68 2A 68 92 17
 (3.2130)  can1  4100209   [8]  00 00 00 00 00 00 00 00
 (3.2130)  can1  4100208   [8]  00 00 00 00 00 00 00 00
 (3.2150)  can1  8101201   [8]  C9 64 74 90 26 8D 1E 00
 (3.2150)  can1  8010C01   [8]  4E 64 00 00 00 00 00 00
 (3.2230)  can1  4100209   [8]  00 00 00 00 00 00 00 00
 (3.2230)  can1  4100208   [8]  00 00 00 00 00 00 00 00
 (3.2280)  can1  89A0C02   [8]  00 00 00 00 00 00 00 00
 (3.2290)  can1  8030C02   [8]  00 00 2A 68 2A 68 92 17
 (3.2290)  can1  8580C02   [8]  00 00 00 00 00 00 00 00
 (3.2330)  can1  8100302   [5]  00 02 0A 00 07
 (3.2330)  can1  4100209   [8]  00 00 00 00 00 00 00 00
 (3.2340)  can1  4100208   [8]  00 00 00 00 00 00 00 00
 (3.2400)  can1  18800401   [8]  13 CB 8F BC 8F C7 8F 00
 (3.2400)  can1  18840401   [8]  13 D0 8F C5 8F CD 8F 00
 (3.2410)  can1  18C00401   [8]  13 6C 2F AD 2F 01 30 00
 (3.2430)  can1  4100209   [8]  00 00 00 00 00 00 00 00
 (3.2440)  can1  4100208   [8]  00 00 00 00 00 00 00 00
 (3.2480)  can1  89A0C02   [8]  00 00 00 00 00 00 00 00
 (3.2490)  can1  8030C02   [8]  00 00 2A 68 2A 68 92 17
 (3.2490)  can1  8580C02   [8]  00 00 00 00 00 00 00 00
 (3.2530)  can1  4100209   [8]  00 00 00 00 00 00 00 00
 (3.2530)  can1  4100208   [8]  00 00 00 00 00 00 00 00
 (3.2590)  can1  8100302   [5]  00 02 0A 00 07
 (3.2630)  can1  4100209   [8]  00 00 00 00 00 00 00 00
 (3.2630)  can1  4100208   [8]  00 00 00 00 00 00 00 00
 (3.2680)  can1  89A0C02   [8]  00 00 00 00 00 00 00 00
 (3.2680)  can1  8030C02   [8]  00 00 2A 68 2A 68 92 17
 (3.2690)  can1  8580C02   [8]  00 00 00 00 00 00 00 00
 (3.2730)  can1  4100209   [8]  00 00 00 00 00 00 00 00
 (3.2740)  can1  4100208   [8]  00 00 00 00 00 00 00 00
 (3.2840)  can1  8100302   [5]  00 03 0A 00 07
 (3.2840)  can1  4100209   [8]  00 00 00 00 00 00 00 00
 (3.2850)  can1  4100208   [8]  00 00 00 00 00 00 00 00
 (3.2880)  can1  89A0C02   [8]  00 00 00 00 00 00 00 00
 (3.2890)  can1  8030C02   [8]  00 00 2A 68 2A 68 92 17
 (3.2890)  can1  8041001   [8]  37 02 D0 3C FC A2 3B 00
 (3.2890)  can1  8580C02   [8]  00 00 00 00 00 00 00 00
 (3.2900)  can1  18800401   [8]  14 D2 8F F8 8F EF 8F 00
 (3.2910)  can1  18840401   [8]  14 D8 8F 00 90 F9 8F 00
 (3.2910)  can1  18C00401   [8]  14 D4 2F 17 30 D7 2F 00
 (3.2940)  can1  4100209   [8]  00 00 00 00 00 00 00 00
 (3.2940)  can1  4100208   [8]  00 00 00 00 00 00 00 00
 (3.3030)  can1  4100209   [8]  00 00 00 00 00 00 00 00
 (3.3030)  can1  4100208   [8]  00 00 00 00 00 00 00 00
 (3.3080)  can1  8100302   [5]  00 02 0A 00 07
 (3.3090)  can1  8580C02   [8]  00 00 00 00 00 00 00 00
 (3.3090)  can1  89A0C02   [8]  00 00 00 00 00 00 00 00
 (3.3100)  can1  8030C02   [8]  00 00 2A 68 2A 68 92 17
 (3.3130)  can1  4100209   [8]  00 00 00 00 00 00 00 00
 (3.3130)  can1  4100208   [8]  00 00 00 00 00 00 00 00
 (3.3150)  can1  8101201   [8]  CB 64 6C 90 22 8D 12 00
 (3.3150)  can1  8010C01   [8]  4D 64 00 00 00 00 00 00
 (3.3230)  can1  4100209   [8]  00 00 00 00 00 00 00 00
 (3.3230)  can1  4100208   [8]  00 00 00 00 00 00 00 00
 (3.3290)  can1  89A0C02   [8]  00 00 00 00 00 00 00 00
 (3.3300)  can1  8030C02   [8]  00 00 2A 68 2A 68 92 17
 (3.3300)  can1  8580C02   [8]  00 00 00 00 00 00 00 00
 (3.3320)  can1  8100302   [5]  00 01 0A 00 07
 (3.3340)  can1  4100209   [8]  00 00 00 00 00 00 00 00
 (3.3340)  can1  4100208   [8]  00 00 00 00 00 00 00 00
 (3.3400)  can1  18800401   [8]  15 0D 90 F9 8F E2 8F 00
 (3.3400)  can1  18840401   [8]  15 0E 90 FE 8F E7 8F 00
 (3.3410)  can1  18C00401   [8]  15 24 30 9D 2F FF 2F 00
 (3.3430)  can1  4100209   [8]  00 00 00 00 00 00 00 00
 (3.3440)  can1  4100208   [8]  00 00 00 00 00 00 00 00
 (3.3480)  can1  89A0C02   [8]  00 00 00 00 00 00 00 00
 (3.3480)  can1  8030C02   [8]  00 00 2A 68 2A 68 92 17
 (3.3490)  can1  8580C02   [8]  00 00 00 00 00 00 00 00
 (3.3530)  can1  4100209   [8]  00 00 00 00 00 00 00 00
 (3.3530)  can1  4100208   [8]  00 00 00 00 00 00 00 00
 (3.3580)  can1  8100302   [5]  00 03 0A 00 07
 (3.3630)  can1  4100209   [8]  00 00 00 00 00 00 00 00
 (3.3640)  can1  4100208   [8]  00 00 00 00 00 00 00 00
 (3.3680)  can1  89A0C02   [8]  00 00 00 00 00 00 00 00
 (3.3690)  can1  8030C02   [8]  00 00 2A 68 2A 68 92 17
 (3.3690)  can1  8580C02   [8]  00 00 00 00 00 00 00 00
 (3.3730)  can1  4100209   [8]  00 00 00 00 00 00 00 00
 (3.3730)  can1  4100208   [8]  00 00 00 00 00 00 00 00
 (3.3840)  can1  8100302   [5]  00 01 0A 00 07
 (3.3840)  can1  4100209   [8]  00 00 00 00 00 00 00 00
 (3.3850)  can1  4100208   [8]  00 00 00 00 00 00 00 00
 (3.3880)  can1  89A0C02   [8]  00 00 00 00 00 00 00 00
 (3.3890)  can1  8030C02   [8]  00 00 2A 68 2A 68 92 17
 (3.3890)  can1  8041001   [8]  37 02 D0 3C FC A2 3B 00
 (3.3900)  can1  8580C02   [8]  00 00 00 00 00 00 00 00
 (3.3900)  can1  18800401   [8]  16 D9 8F F1 8F 19 90 00
 (3.3910)  can1  18840401   [8]  16 DC 8F F2 8F 1C 90 00
 (3.3910)  can1  18C00401   [8]  16 81 2F B3 2F FF 2E 00
 (3.3930)  can1  4100209   [8]  00 00 00 00 00 00 00 00
 (3.3930)  can1  4100208   [8]  00 00 00 00 00 00 00 00
 (3.4030)  can1  4100209   [8]  00 00 00 00 00 00 00 00
 (3.4040)  can1  4100208   [8]  00 00 00 00 00 00 00 00
 (3.4080)  can1  8100302   [5]  00 01 0A 00 07
 (3.4080)  can1  8580C02   [8]  00 00 00 00 00 00 00 00
 (3.4090)  can1  89A0C02   [8]  00 00 00 00 00 00 00 00
 (3.4090)  can1  8030C02   [8]  00 00 2A 68 2A 68 92 17
 (3.4130)  can1  4100209   [8]  00 00 00 00 00 00 00 00
 (3.4130)  can1  4100208   [8]  00 00 00 00 00 00 00 00
 (3.4160)  can1  8101201   [8]  CA 64 71 90 21 8D 1A 00
 (3.4160)  can1  8010C01   [8]  4F 64 00 00 00 00 00 00
 (3.4230)  can1  4100209   [8]  00 00 00 00 00 00 00 00
 (3.4230)  can1  4100208   [8]  00 00 00 00 00 00 00 00
 (3.4280)  can1  89A0C02   [8]  00 00 00 00 00 00 00 00
 (3.4290)  can1  8030C02   [8]  00 00 2A 68 2A 68 92 17
 (3.4290)  can1  8580C02   [8]  00 00 00 00 00 00 00 00
 (3.4330)  can1  8100302   [5]  00 02 0A 00 07
 (3.4330)  can1  4100209   [8]  00 00 00 00 00 00 00 00
 (3.4340)  can1  4100208   [8]  00 00 00 00 00 00 00 00
 (3.4380)  can1  18101203   [4]  D8 2E 82 01
 (3.4400)  can1  18800401   [8]  17 0D 90 00 00 00 00 00
 (3.4400)  can1  18840401   [8]  17 11 90 00 00 00 00 00
 (3.4410)  can1  18C00401   [8]  17 F6 2E 10 27 10 27 00
 (3.4430)  can1  4100209   [8]  00 00 00 00 00 00 00 00
 (3.4430)  can1  4100208   [8]  00 00 00 00 00 00 00 00
 (3.4480)  can1  89A0C02   [8]  00 00 00 00 00 00 00 00
 (3.4490)  can1  8030C02   [8]  00 00 2A 68 2A 68 92 17
 (3.4490)  can1  8580C02   [8]  00 00 00 00 00 00 00 00
 (3.4530)  can1  4100209   [8]  00 00 00 00 00 00 00 00
 (3.4540)  can1  4100208   [8]  00 00 00 00 00 00 00 00
 (3.4580)  can1  8100302   [5]  00 01 0A 00 07
 (3.4630)  can1  4100209   [8]  00 00 00 00 00 00 00 00
 (3.4630)  can1  4100208   [8]  00 00 00 00 00 00 00 00
 (3.4680)  can1  89A0C02   [8]  00 00 00 00 00 00 00 00
 (3.4680)  can1  8030C02   [8]  00 00 2A 68 2A 68 92 17
 (3.4690)  can1  8580C02   [8]  00 00 00 00 00 00 00 00
 (3.4730)  can1  4100209   [8]  00 00 00 00 00 00 00 00
 (3.4740)  can1  4100208   [8]  00 00 00 00 00 00 00 00
 (3.4840)  can1  8100302   [5]  00 02 0A 00 07
 (3.4840)  can1  4100209   [8]  00 00 00 00 00 00 00 00
 (3.4840)  can1  4100208   [8]  00 00 00 00 00 00 00 00
 (3.4880)  can1  89A0C02   [8]  00 00 00 00 00 00 00 00
 (3.4890)  can1  8030C02   [8]  00 00 2A 68 2A 68 92 17
 (3.4890)  can1  8041001   [8]  37 02 D0 3C FC A2 3B 00
 (3.4900)  can1  8580C02   [8]  00 00 00 00 00 00 00 00
 (3.4910)  can1  18800401   [8]  00 70 90 84 8F 69 8F 00
 (3.4910)  can1  18840401   [8]  00 75 90 8A 8F 75 8F 00
 (3.4920)  can1  18C00401   [8]  00 9E 2F 14 2F 10 30 00
 (3.4940)  can1  4100209   [8]  00 00 00 00 00 00 00 00
 (3.4940)  can1  4100208   [8]  00 00 00 00 00 00 00 00
 (3.5030)  can1  4100209   [8]  00 00 00 00 00 00 00 00
 (3.5030)  can1  4100208   [8]  00 00 00 00 00 00 00 00
 (3.5080)  can1  8100302   [5]  00 02 0A 00 07
 (3.5080)  can1  8580C02   [8]  00 00 00 00 00 00 00 00
 (3.5090)  can1  89A0C02   [8]  00 00 00 00 00 00 00 00
 (3.5090)  can1  8030C02   [8]  00 00 2A 68 2A 68 92 17
 (3.5130)  can1  4100209   [8]  00 00 00 00 00 00 00 00
 (3.5140)  can1  4100208   [8]  00 00 00 00 00 00 00 00
 (3.5170)  can1  8101201   [8]  CC 64 70 90 22 8D 1B 00
 (3.5170)  can1  8010C01   [8]  4D 64 00 00 00 00 00 00
 (3.5230)  can1  4100209   [8]  00 00 00 00 00 00 00 00
 (3.5230)  can1  4100208   [8]  00 00 00 00 00 00 00 00
 (3.5280)  can1  89A0C02   [8]  00 00 00 00 00 00 00 00
 (3.5280)  can1  8030C02   [8]  00 00 2A 68 2A 68 92 17
 (3.5290)  can1  8580C02   [8]  00 00 00 00 00 00 00 00
 (3.5340)  can1  8100302   [5]  00 01 0A 00 07
 (3.5350)  can1  4100209   [8]  00 00 00 00 00 00 00 00
 (3.5350)  can1  4100208   [8]  00 00 00 00 00 00 00 00
 (3.5400)  can1  18800401   [8]  01 77 8F 8D 8F 86 8F 00
 (3.5400)  can1  18840401   [8]  01 7C 8F 91 8F 8A 8F 00
 (3.5400)  can1  18C00401   [8]  01 B7 2F 3A 30 DC 2F 00
 (3.5430)  can1  4100209   [8]  00 00 00 00 00 00 00 00
 (3.5440)  can1  4100208   [8]  00 00 00 00 00 00 00 00
 (3.5480)  can1  89A0C02   [8]  00 00 00 00 00 00 00 00
 (3.5480)  can1  8030C02   [8]  00 00 2A 68 2A 68 92 17
 (3.5490)  can1  8580C02   [8]  00 00 00 00 00 00 00 00
 (3.5530)  can1  4100209   [8]  00 00 00 00 00 00 00 00
 (3.5530)  can1  4100208   [8]  00 00 00 00 00 00 00 00
 (3.5580)  can1  8100302   [5]  00 01 0A 00 07
 (3.5630)  can1  4100209   [8]  00 00 00 00 00 00 00 00
 (3.5640)  can1  4100208   [8]  00 00 00 00 00 00 00 00
 (3.5680)  can1  89A0C02   [8]  00 00 00 00 00 00 00 00
 (3.5680)  can1  8030C02   [8]  00 00 2A 68 2A 68 92 17
 (3.5680)  can1  8580C02   [8]  00 00 00 00 00 00 00 00
 (3.5730)  can1  4100209   [8]  00 00 00 00 00 00 00 00
 (3.5740)  can1  4100208   [8]  00 00 00 00 00 00 00 00
 (3.5830)  can1  8100302   [5]  00 02 0A 00 07
 (3.5830)  can1  4100209   [8]  00 00 00 00 00 00 00 00
 (3.5840)  can1  4100208   [8]  00 00 00 00 00 00 00 00
 (3.5880)  can1  89A0C02   [8]  00 00 00 00 00 00 00 00
 (3.5880)  can1  8030C02   [8]  00 00 2A 68 2A 68 92 17
 (3.5890)  can1  8041001   [8]  37 02 D0 3C FC A2 3B 00
 (3.5890)  can1  8580C02   [8]  00 00 00 00 00 00 00 00
 (3.5900)  can1  18800401   [8]  02 A7 8F 0F 90 F8 8F 00
 (3.5910)  can1  18840401   [8]  02 AC 8F 14 90 FC 8F 00
 (3.5920)  can1  18C00401   [8]  02 17 30 D6 2F FA 2F 00
 (3.5940)  can1  4100209   [8]  00 00 00 00 00 00 00 00
 (3.5940)  can1  4100208   [8]  00 00 00 00 00 00 00 00
 (3.6030)  can1  4100209   [8]  00 00 00 00 00 00 00 00
 (3.6040)  can1  4100208   [8]  00 00 00 00 00 00 00 00
 (3.6080)  can1  8100302   [5]  00 01 0A 00 07
 (3.6080)  can1  8580C02   [8]  00 00 00 00 00 00 00 00
 (3.6090)  can1  89A0C02   [8]  00 00 00 00 00 00 00 00
 (3.6090)  can1  8030C02   [8]  00 00 2A 68 2A 68 92 17
 (3.6130)  can1  4100209   [8]  00 00 00 00 00 00 00 00
 (3.6130)  can1  4100208   [8]  00 00 00 00 00 00 00 00
 (3.6180)  can1  8101201   [8]  CA 64 72 90 23 8D 11 00
 (3.6180)  can1  8010C01   [8]  4E 64 00 00 00 00 00 00
 (3.6230)  can1  4100209   [8]  00 00 00 00 00 00 00 00
 (3.6240)  can1  4100208   [8]  00 00 00 00 00 00 00 00
 (3.6280)  can1  89A0C02   [8]  00 00 00 00 00 00 00 00
 (3.6280)  can1  8030C02   [8]  00 00 2A 68 2A 68 92 17
 (3.6290)  can1  8580C02   [8]  00 00 00 00 00 00 00 00
 (3.6330)  can1  8100302   [5]  00 01 0A 00 07
 (3.6340)  can1  4100209   [8]  00 00 00 00 00 00 00 00
 (3.6340)  can1  4100208   [8]  00 00 00 00 00 00 00 00
 (3.6400)  can1  18800401   [8]  03 E7 8F DC 8F F2 8F 00
 (3.6400)  can1  18840401   [8]  03 EC 8F E0 8F F6 8F 00
 (3.6410)  can1  18C00401   [8]  03 C4 2F C1 2F 82 2F 00
 (3.6430)  can1  4100209   [8]  00 00 00 00 00 00 00 00
 (3.6430)  can1  4100208   [8]  00 00 00 00 00 00 00 00
 (3.6480)  can1  89A0C02   [8]  00 00 00 00 00 00 00 00
 (3.6490)  can1  8030C02   [8]  00 00 2A 68 2A 68 92 17
 (3.6490)  can1  8580C02   [8]  00 00 00 00 00 00 00 00
 (3.6530)  can1  4100209   [8]  00 00 00 00 00 00 00 00
 (3.6530)  can1  4100208   [8]  00 00 00 00 00 00 00 00
 (3.6580)  can1  8100302   [5]  00 01 0A 00 07
 (3.6630)  can1  4100209   [8]  00 00 00 00 00 00 00 00
 (3.6640)  can1  4100208   [8]  00 00 00 00 00 00 00 00
 (3.6680)  can1  89A0C02   [8]  00 00 00 00 00 00 00 00
 (3.6680)  can1  8030C02   [8]  00 00 2A 68 2A 68 92 17
 (3.6690)  can1  8580C02   [8]  00 00 00 00 00 00 00 00
 (3.6730)  can1  4100209   [8]  00 00 00 00 00 00 00 00
 (3.6730)  can1  4100208   [8]  00 00 00 00 00 00 00 00
 (3.6840)  can1  8100302   [5]  00 02 0A 00 07
 (3.6840)  can1  4100209   [8]  00 00 00 00 00 00 00 00
 (3.6850)  can1  4100208   [8]  00 00 00 00 00 00 00 00
 (3.6880)  can1  89A0C02   [8]  00 00 00 00 00 00 00 00
 (3.6880)  can1  8030C02   [8]  00 00 2A 68 2A 68 92 17
 (3.6890)  can1  8041001   [8]  37 02 C0 3C FC A2 3B 00
 (3.6890)  can1  8580C02   [8]  00 00 00 00 00 00 00 00
 (3.6900)  can1  18800401   [8]  04 0F 90 00 90 1A 8D 00
 (3.6910)  can1  18840401   [8]  04 14 90 06 90 21 8D 00
 (3.6910)  can1  18C00401   [8]  04 EE 2E D2 2E F2 2F 00
 (3.6940)  can1  4100209   [8]  00 00 00 00 00 00 00 00
 (3.6940)  can1  4100208   [8]  00 00 00 00 00 00 00 00
 (3.7030)  can1  4100209   [8]  00 00 00 00 00 00 00 00
 (3.7030)  can1  4100208   [8]  00 00 00 00 00 00 00 00
 (3.7080)  can1  8100302   [5]  00 02 0A 00 07
 (3.7090)  can1  8580C02   [8]  00 00 00 00 00 00 00 00
 (3.7090)  can1  89A0C02   [8]  00 00 00 00 00 00 00 00
 (3.7090)  can1  8030C02   [8]  00 00 2A 68 2A 68 92 17
 (3.7130)  can1  4100209   [8]  00 00 00 00 00 00 00 00
 (3.7130)  can1  4100208   [8]  00 00 00 00 00 00 00 00
 (3.7190)  can1  8101201   [8]  C7 64 6F 90 21 8D 1E 00
 (3.7190)  can1  8010C01   [8]  4E 64 00 00 00 00 00 00
 (3.7230)  can1  4100209   [8]  00 00 00 00 00 00 00 00
 (3.7240)  can1  4100208   [8]  00 00 00 00 00 00 00 00
 (3.7280)  can1  89A0C02   [8]  00 00 00 00 00 00 00 00
 (3.7280)  can1  8030C02   [8]  00 00 2A 68 2A 68 92 17
 (3.7290)  can1  8580C02   [8]  00 00 00 00 00 00 00 00
 (3.7340)  can1  8100302   [5]  00 02 0A 00 07
 (3.7340)  can1  4100209   [8]  00 00 00 00 00 00 00 00
 (3.7350)  can1  4100208   [8]  00 00 00 00 00 00 00 00
 (3.7400)  can1  18800401   [8]  05 DD 8F C0 8F D8 8F 00
 (3.7410)  can1  18840401   [8]  05 E3 8F CF 8F DB 8F 00
 (3.7410)  can1  18C00401   [8]  05 F1 2F 48 30 68 30 00
 (3.7430)  can1  4100209   [8]  00 00 00 00 00 00 00 00
 (3.7430)  can1  4100208   [8]  00 00 00 00 00 00 00 00
 (3.7480)  can1  89A0C02   [8]  00 00 00 00 00 00 00 00
 (3.7490)  can1  8030C02   [8]  00 00 2A 68 2A 68 92 17
 (3.7490)  can1  8580C02   [8]  00 00 00 00 00 00 00 00
 (3.7530)  can1  4100209   [8]  00 00 00 00 00 00 00 00
 (3.7530)  can1  4100208   [8]  00 00 00 00 00 00 00 00
 (3.7580)  can1  8100302   [5]  00 01 0A 00 07
 (3.7630)  can1  4100209   [8]  00 00 00 00 00 00 00 00
 (3.7640)  can1  4100208   [8]  00 00 00 00 00 00 00 00
 (3.7680)  can1  89A0C02   [8]  00 00 00 00 00 00 00 00
 (3.7680)  can1  8030C02   [8]  00 00 2A 68 2A 68 92 17
 (3.7690)  can1  8580C02   [8]  00 00 00 00 00 00 00 00
 (3.7730)  can1  4100209   [8]  00 00 00 00 00 00 00 00
 (3.7730)  can1  4100208   [8]  00 00 00 00 00 00 00 00
 (3.7820)  can1  8100302   [5]  00 02 0A 00 07
 (3.7840)  can1  4100209   [8]  00 00 00 00 00 00 00 00
 (3.7850)  can1  4100208   [8]  00 00 00 00 00 00 00 00
 (3.7880)  can1  89A0C02   [8]  00 00 00 00 00 00 00 00
 (3.7880)  can1  8030C02   [8]  00 00 2A 68 2A 68 92 17
 (3.7890)  can1  8041001   [8]  37 02 C0 3C FC A2 3B 00
 (3.7900)  can1  8580C02   [8]  00 00 00 00 00 00 00 00
 (3.7900)  can1  18800401   [8]  06 D4 8F 13 90 1D 90 00
 (3.7910)  can1  18840401   [8]  06 D9 8F 16 90 21 90 00
 (3.7920)  can1  18C00401   [8]  06 43 30 A2 30 56 30 00
 (3.7940)  can1  4100209   [8]  00 00 00 00 00 00 00 00
 (3.7940)  can1  4100208   [8]  00 00 00 00 00 00 00 00
 (3.8030)  can1  4100209   [8]  00 00 00 00 00 00 00 00
 (3.8040)  can1  4100208   [8]  00 00 00 00 00 00 00 00
 (3.8080)  can1  8100302   [5]  00 02 0A 00 07
 (3.8090)  can1  8580C02   [8]  00 00 00 00 00 00 00 00
 (3.8090)  can1  89A0C02   [8]  00 00 00 00 00 00 00 00
 (3.8090)  can1  8030C02   [8]  00 00 2A 68 2A 68 92 17
 (3.8130)  can1  4100209   [8]  00 00 00 00 00 00 00 00
 (3.8130)  can1  4100208   [8]  00 00 00 00 00 00 00 00
 (3.8200)  can1  8101201   [8]  C9 64 72 90 22 8D 1D 00
 (3.8200)  can1  8010C01   [8]  4D 64 00 00 00 00 00 00
 (3.8230)  can1  4100209   [8]  00 00 00 00 00 00 00 00
 (3.8230)  can1  4100208   [8]  00 00 00 00 00 00 00 00
 (3.8280)  can1  89A0C02   [8]  00 00 00 00 00 00 00 00
 (3.8290)  can1  8030C02   [8]  00 00 2A 68 2A 68 92 17
 (3.8290)  can1  8580C02   [8]  00 00 00 00 00 00 00 00
 (3.8500)  can1  8100302   [5]  00 02 0A 00 07
 (3.8510)  can1  4100209   [8]  00 00 00 00 00 00 00 00
 (3.8520)  can1  4100208   [8]  00 00 00 00 00 00 00 00
 (3.8530)  can1  404FF03   [1]  00
 (3.8530)  can1  8250C03   [8]  00 00 00 00 00 00 00 00
 (3.8540)  can1  8840C03   [8]  34 00 10 00 1F 00 07 00
 (3.8550)  can1  88D0C03   [8]  15 00 00 00 00 00 00 00
 (3.8550)  can1  18800401   [8]  07 13 90 07 90 E9 8F 00
 (3.8560)  can1  18840401   [8]  07 18 90 0B 90 ED 8F 00
 (3.8570)  can1  18C00401   [8]  07 AA 30 29 30 9E 30 00
 (3.8570)  can1  4100209   [8]  00 00 00 00 00 00 00 00
 (3.8580)  can1  4100208   [8]  00 00 00 00 00 00 00 00
 (3.8590)  can1  89A0C02   [8]  00 00 00 00 00 00 00 00
 (3.8590)  can1  8030C02   [8]  00 00 2A 68 2A 68 92 17
 (3.8590)  can1  8580C02   [8]  00 00 00 00 00 00 00 00
 (3.8600)  can1  404FF07   [1]  00
 (3.8600)  can1  4100209   [8]  00 00 00 00 00 00 00 00
 (3.8610)  can1  4100208   [8]  00 00 00 00 00 00 00 00
 (3.8610)  can1  8100302   [5]  00 00 0A 00 07
 (3.8640)  can1  4100209   [8]  00 00 00 00 00 00 00 00
 (3.8640)  can1  4100208   [8]  00 00 00 00 00 00 00 00
 (3.8680)  can1  89A0C02   [8]  00 00 00 00 00 00 00 00
 (3.8680)  can1  8030C02   [8]  00 00 2A 68 2A 68 92 17
 (3.8690)  can1  8580C02   [8]  00 00 00 00 00 00 00 00
 (3.8730)  can1  4100209   [8]  00 00 00 00 00 00 00 00
 (3.8730)  can1  4100208   [8]  00 00 00 00 00 00 00 00
 (3.8840)  can1  8100302   [5]  00 02 0A 00 07
 (3.8840)  can1  4100209   [8]  00 00 00 00 00 00 00 00
 (3.8850)  can1  4100208   [8]  00 00 00 00 00 00 00 00
 (3.8880)  can1  89A0C02   [8]  00 00 00 00 00 00 00 00
 (3.8890)  can1  8030C02   [8]  00 00 2A 68 2A 68 92 17
 (3.8890)  can1  404FF01   [1]  00
 (3.8890)  can1  8041001   [8]  37 02 C0 3C FC A2 3B 00
 (3.8900)  can1  8580C02   [8]  00 00 00 00 00 00 00 00
 (3.8910)  can1  8120C01   [8]  90 00 00 00 00 00 00 00
 (3.8910)  can1  80F1201   [4]  6C 11 00 00
 (3.8920)  can1  18800401   [8]  08 DF 8F 50 8D 36 90 00
 (3.8930)  can1  18840401   [8]  08 E3 8F 54 8D 3B 90 00
 (3.8930)  can1  18C00401   [8]  08 FE 2F 81 30 96 2F 00
 (3.8940)  can1  4100209   [8]  00 00 00 00 00 00 00 00
 (3.8950)  can1  4100208   [8]  00 00 00 00 00 00 00 00
 (3.9030)  can1  4100209   [8]  00 00 00 00 00 00 00 00
 (3.9030)  can1  4100208   [8]  00 00 00 00 00 00 00 00
 (3.9070)  can1  404FF02   [1]  00
 (3.9070)  can1  8100302   [5]  00 01 0A 00 07
 (3.9080)  can1  8580C02   [8]  00 00 00 00 00 00 00 00
 (3.9080)  can1  89A0C02   [8]  00 00 00 00 00 00 00 00
 (3.9100)  can1  8030C02   [8]  00 00 2A 68 2A 68 92 17
 (3.9130)  can1  4100209   [8]  00 00 00 00 00 00 00 00
 (3.9130)  can1  4100208   [8]  00 00 00 00 00 00 00 00
 (3.9210)  can1  8101201   [8]  CB 64 70 90 22 8D 1C 00
 (3.9210)  can1  8010C01   [8]  4F 64 00 00 00 00 00 00
 (3.9230)  can1  4100209   [8]  00 00 00 00 00 00 00 00
 (3.9230)  can1  4100208   [8]  00 00 00 00 00 00 00 00
 (3.9280)  can1  89A0C02   [8]  00 00 00 00 00 00 00 00
 (3.9290)  can1  8030C02   [8]  00 00 2A 68 2A 68 92 17
 (3.9290)  can1  8580C02   [8]  00 00 00 00 00 00 00 00
 (3.9340)  can1  8100302   [5]  00 02 0A 00 07
 (3.9350)  can1  4100209   [8]  00 00 00 00 00 00 00 00
 (3.9350)  can1  4100208   [8]  00 00 00 00 00 00 00 00
 (3.9380)  can1  18101203   [4]  D8 2E 7D 01
 (3.9400)  can1  18800401   [8]  09 2A 90 E7 8F D4 8F 00
 (3.9400)  can1  18840401   [8]  09 2F 90 EC 8F D9 8F 00
 (3.9410)  can1  18C00401   [8]  09 FD 2F 98 2F 0D 30 00
 (3.9430)  can1  4100209   [8]  00 00 00 00 00 00 00 00
 (3.9430)  can1  4100208   [8]  00 00 00 00 00 00 00 00
 (3.9480)  can1  89A0C02   [8]  00 00 00 00 00 00 00 00
 (3.9480)  can1  8030C02   [8]  00 00 2A 68 2A 68 92 17
 (3.9490)  can1  8580C02   [8]  00 00 00 00 00 00 00 00
 (3.9530)  can1  4100209   [8]  00 00 00 00 00 00 00 00
 (3.9540)  can1  4100208   [8]  00 00 00 00 00 00 00 00
 (3.9580)  can1  8100302   [5]  00 02 0A 00 07
 (3.9630)  can1  4100209   [8]  00 00 00 00 00 00 00 00
 (3.9630)  can1  4100208   [8]  00 00 00 00 00 00 00 00
 (3.9680)  can1  89A0C02   [8]  00 00 00 00 00 00 00 00
 (3.9680)  can1  8030C02   [8]  00 00 2A 68 2A 68 92 17
 (3.9690)  can1  8580C02   [8]  00 00 00 00 00 00 00 00
 (3.9730)  can1  4100209   [8]  00 00 00 00 00 00 00 00
 (3.9730)  can1  4100208   [8]  00 00 00 00 00 00 00 00
 (3.9840)  can1  8100302   [5]  00 01 0A 00 07
 (3.9850)  can1  4100209   [8]  00 00 00 00 00 00 00 00
 (3.9850)  can1  4100208   [8]  00 00 00 00 00 00 00 00
 (3.9880)  can1  89A0C02   [8]  00 00 00 00 00 00 00 00
 (3.9880)  can1  8030C02   [8]  00 00 2A 68 2A 68 92 17
 (3.9890)  can1  8041001   [8]  37 02 C0 3C FC A2 3B 00
 (3.9890)  can1  8580C02   [8]  00 00 00 00 00 00 00 00
 (3.9900)  can1  18800401   [8]  0A BC 8F CB 8F D5 8F 00
 (3.9910)  can1  18840401   [8]  0A C0 8F CE 8F DA 8F 00
 (3.9910)  can1  18C00401   [8]  0A 42 30 9A 30 5F 30 00
 (3.9930)  can1  4100209   [8]  00 00 00 00 00 00 00 00
 (3.9930)  can1  4100208   [8]  00 00 00 00 00 00 00 00
 (4.0030)  can1  4100209   [8]  00 00 00 00 00 00 00 00
 (4.0030)  can1  4100208   [8]  00 00 00 00 00 00 00 00
 (4.0090)  can1  8100302   [5]  00 01 0A 00 07
 (4.0100)  can1  8580C02   [8]  00 00 00 00 00 00 00 00
 (4.0100)  can1  89A0C02   [8]  00 00 00 00 00 00 00 00
 (4.0100)  can1  8030C02   [8]  00 00 2A 68 2A 68 92 17
 (4.0130)  can1  4100209   [8]  00 00 00 00 00 00 00 00
 (4.0130)  can1  4100208   [8]  00 00 00 00 00 00 00 00
 (4.0220)  can1  8101201   [8]  CB 64 73 90 22 8D 10 00
 (4.0220)  can1  8010C01   [8]  4F 64 00 00 00 00 00 00
 (4.0230)  can1  4100209   [8]  00 00 00 00 00 00 00 00
 (4.0250)  can1  4100208   [8]  00 00 00 00 00 00 00 00
 (4.0280)  can1  89A0C02   [8]  00 00 00 00 00 00 00 00
 (4.0280)  can1  8030C02   [8]  00 00 2A 68 2A 68 92 17
 (4.0290)  can1  8580C02   [8]  00 00 00 00 00 00 00 00
 (4.0340)  can1  8100302   [5]  00 01 0A 00 07
 (4.0340)  can1  4100209   [8]  00 00 00 00 00 00 00 00
 (4.0350)  can1  4100208   [8]  00 00 00 00 00 00 00 00
 (4.0400)  can1  18800401   [8]  0B 08 90 06 90 0A 90 00
 (4.0400)  can1  18840401   [8]  0B 0A 90 09 90 0E 90 00
 (4.0410)  can1  18C00401   [8]  0B CE 30 6E 30 BD 30 00
 (4.0440)  can1  4100209   [8]  00 00 00 00 00 00 00 00
 (4.0450)  can1  4100208   [8]  00 00 00 00 00 00 00 00
 (4.0480)  can1  89A0C02   [8]  00 00 00 00 00 00 00 00
 (4.0480)  can1  8030C02   [8]  00 00 2A 68 2A 68 92 17
 (4.0490)  can1  8580C02   [8]  00 00 00 00 00 00 00 00
 (4.0530)  can1  4100209   [8]  00 00 00 00 00 00 00 00
 (4.0530)  can1  4100208   [8]  00 00 00 00 00 00 00 00
 (4.0590)  can1  8100302   [5]  00 01 0A 00 07
 (4.0630)  can1  4100209   [8]  00 00 00 00 00 00 00 00
 (4.0640)  can1  4100208   [8]  00 00 00 00 00 00 00 00
 (4.0680)  can1  89A0C02   [8]  00 00 00 00 00 00 00 00
 (4.0680)  can1  8030C02   [8]  00 00 2A 68 2A 68 92 17
 (4.0690)  can1  8580C02   [8]  00 00 00 00 00 00 00 00
 (4.0730)  can1  4100209   [8]  00 00 00 00 00 00 00 00
 (4.0730)  can1  4100208   [8]  00 00 00 00 00 00 00 00
 (4.0820)  can1  8100302   [5]  00 01 0A 00 07
 (4.0840)  can1  4100209   [8]  00 00 00 00 00 00 00 00
 (4.0850)  can1  4100208   [8]  00 00 00 00 00 00 00 00
 (4.0880)  can1  89A0C02   [8]  00 00 00 00 00 00 00 00
 (4.0880)  can1  8030C02   [8]  00 00 2A 68 2A 68 92 17
 (4.0890)  can1  8041001   [8]  37 02 C0 3C FC A2 3B 00
 (4.0900)  can1  8580C02   [8]  00 00 00 00 00 00 00 00
 (4.0910)  can1  18800401   [8]  0C 02 90 E9 8F E7 8F 00
 (4.0910)  can1  18840401   [8]  0C 08 90 EF 8F ED 8F 00
 (4.0920)  can1  18C00401   [8]  0C 47 30 79 30 FA 2F 00
 (4.0940)  can1  4100209   [8]  00 00 00 00 00 00 00 00
 (4.0940)  can1  4100208   [8]  00 00 00 00 00 00 00 00
 (4.1030)  can1  4100209   [8]  00 00 00 00 00 00 00 00
 (4.1040)  can1  4100208   [8]  00 00 00 00 00 00 00 00
 (4.1080)  can1  8100302   [5]  00 00 0A 00 07
 (4.1090)  can1  8580C02   [8]  00 00 00 00 00 00 00 00
 (4.1090)  can1  89A0C02   [8]  00 00 00 00 00 00 00 00
 (4.1090)  can1  8030C02   [8]  00 00 2A 68 2A 68 92 17
 (4.1130)  can1  4100209   [8]  00 00 00 00 00 00 00 00
 (4.1130)  can1  4100208   [8]  00 00 00 00 00 00 00 00
 (4.1230)  can1  4100209   [8]  00 00 00 00 00 00 00 00
 (4.1230)  can1  8101201   [8]  C8 64 6F 90 24 8D 07 00
 (4.1240)  can1  4100208   [8]  00 00 00 00 00 00 00 00
 (4.1250)  can1  8010C01   [8]  4E 64 00 00 00 00 00 00
 (4.1280)  can1  89A0C02   [8]  00 00 00 00 00 00 00 00
 (4.1280)  can1  8030C02   [8]  00 00 2A 68 2A 68 92 17
 (4.1290)  can1  8580C02   [8]  00 00 00 00 00 00 00 00
 (4.1340)  can1  8100302   [5]  00 03 0A 00 06
 (4.1350)  can1  4100209   [8]  00 00 00 00 00 00 00 00
 (4.1350)  can1  4100208   [8]  00 00 00 00 00 00 00 00
 (4.1400)  can1  18800401   [8]  0D F4 8F 1A 90 0A 90 00
 (4.1400)  can1  18840401   [8]  0D F8 8F 20 90 10 90 00
 (4.1410)  can1  18C00401   [8]  0D 21 30 39 2F 3C 2F 00
 (4.1430)  can1  4100209   [8]  00 00 00 00 00 00 00 00
 (4.1430)  can1  4100208   [8]  00 00 00 00 00 00 00 00
 (4.1480)  can1  89A0C02   [8]  00 00 00 00 00 00 00 00
 (4.1480)  can1  8030C02   [8]  00 00 2A 68 2A 68 92 17
 (4.1490)  can1  8580C02   [8]  00 00 00 00 00 00 00 00
 (4.1530)  can1  4100209   [8]  00 00 00 00 00 00 00 00
 (4.1540)  can1  4100208   [8]  00 00 00 00 00 00 00 00
 (4.1580)  can1  8100302   [5]  00 02 0A 00 07
 (4.1630)  can1  4100209   [8]  00 00 00 00 00 00 00 00
 (4.1630)  can1  4100208   [8]  00 00 00 00 00 00 00 00
 (4.1680)  can1  89A0C02   [8]  00 00 00 00 00 00 00 00
 (4.1690)  can1  8030C02   [8]  00 00 2A 68 2A 68 92 17
 (4.1690)  can1  8580C02   [8]  00 00 00 00 00 00 00 00
 (4.1730)  can1  4100209   [8]  00 00 00 00 00 00 00 00
 (4.1730)  can1  4100208   [8]  00 00 00 00 00 00 00 00
 (4.1840)  can1  8100302   [5]  00 01 0A 00 07
 (4.1840)  can1  4100209   [8]  00 00 00 00 00 00 00 00
 (4.1850)  can1  4100208   [8]  00 00 00 00 00 00 00 00
 (4.1880)  can1  89A0C02   [8]  00 00 00 00 00 00 00 00
 (4.1880)  can1  8030C02   [8]  00 00 2A 68 2A 68 92 17
 (4.1880)  can1  8041001   [8]  37 02 C0 3C FC A2 3B 00
 (4.1890)  can1  8580C02   [8]  00 00 00 00 00 00 00 00
 (4.1900)  can1  18800401   [8]  0E CE 8F C5 8F AE 8F 00
 (4.1900)  can1  18840401   [8]  0E D3 8F C9 8F B2 8F 00
 (4.1910)  can1  18C00401   [8]  0E 59 2F E3 2F 0A 30 00
 (4.1930)  can1  4100209   [8]  00 00 00 00 00 00 00 00
 (4.1940)  can1  4100208   [8]  00 00 00 00 00 00 00 00
 (4.2030)  can1  4100209   [8]  00 00 00 00 00 00 00 00
 (4.2030)  can1  4100208   [8]  00 00 00 00 00 00 00 00
 (4.2080)  can1  8100302   [5]  00 00 0A 00 07
 (4.2080)  can1  8580C02   [8]  00 00 00 00 00 00 00 00
 (4.2090)  can1  89A0C02   [8]  00 00 00 00 00 00 00 00
 (4.2100)  can1  8030C02   [8]  00 00 2A 68 2A 68 92 17
 (4.2130)  can1  4100209   [8]  00 00 00 00 00 00 00 00
 (4.2130)  can1  4100208   [8]  00 00 00 00 00 00 00 00
 (4.2240)  can1  4100209   [8]  00 00 00 00 00 00 00 00
 (4.2240)  can1  4100208   [8]  00 00 00 00 00 00 00 00
 (4.2250)  can1  8101201   [8]  CB 64 73 90 23 8D 0C 00
 (4.2250)  can1  8010C01   [8]  4F 64 00 00 00 00 00 00
 (4.2280)  can1  89A0C02   [8]  00 00 00 00 00 00 00 00
 (4.2290)  can1  8030C02   [8]  00 00 2A 68 2A 68 92 17
 (4.2290)  can1  8580C02   [8]  00 00 00 00 00 00 00 00
 (4.2340)  can1  8100302   [5]  00 02 0A 00 07
 (4.2340)  can1  4100209   [8]  00 00 00 00 00 00 00 00
 (4.2350)  can1  4100208   [8]  00 00 00 00 00 00 00 00
 (4.2400)  can1  18800401   [8]  0F 69 8F CC 8F FE 8F 00
 (4.2400)  can1  18840401   [8]  0F 6E 8F CF 8F 03 90 00
 (4.2410)  can1  18C00401   [8]  0F 66 30 50 30 AD 30 00
 (4.2440)  can1  4100209   [8]  00 00 00 00 00 00 00 00
 (4.2450)  can1  4100208   [8]  00 00 00 00 00 00 00 00
 (4.2480)  can1  89A0C02   [8]  00 00 00 00 00 00 00 00
 (4.2490)  can1  8030C02   [8]  00 00 2A 68 2A 68 92 17
 (4.2490)  can1  8580C02   [8]  00 00 00 00 00 00 00 00
 (4.2540)  can1  4100209   [8]  00 00 00 00 00 00 00 00
 (4.2540)  can1  4100208   [8]  00 00 00 00 00 00 00 00
 (4.2580)  can1  8100302   [5]  00 02 0A 00 07
 (4.2640)  can1  4100209   [8]  00 00 00 00 00 00 00 00
 (4.2640)  can1  4100208   [8]  00 00 00 00 00 00 00 00
 (4.2680)  can1  89A0C02   [8]  00 00 00 00 00 00 00 00
 (4.2690)  can1  8030C02   [8]  00 00 2A 68 2A 68 92 17
 (4.2690)  can1  8580C02   [8]  00 00 00 00 00 00 00 00
 (4.2740)  can1  4100209   [8]  00 00 00 00 00 00 00 00
 (4.2740)  can1  4100208   [8]  00 00 00 00 00 00 00 00
 (4.2820)  can1  8100302   [5]  00 02 0A 00 07
 (4.2840)  can1  4100209   [8]  00 00 00 00 00 00 00 00
 (4.2850)  can1  4100208   [8]  00 00 00 00 00 00 00 00
 (4.2880)  can1  89A0C02   [8]  00 00 00 00 00 00 00 00
 (4.2880)  can1  8030C02   [8]  00 00 2A 68 2A 68 92 17
 (4.2890)  can1  8041001   [8]  37 02 C0 3C FC A2 3B 00
 (4.2890)  can1  8580C02   [8]  00 00 00 00 00 00 00 00
 (4.2900)  can1  18800401   [8]  10 F1 8F F3 8F EC 8F 00
 (4.2910)  can1  18840401   [8]  10 F7 8F F8 8F F1 8F 00
 (4.2910)  can1  18C00401   [8]  10 61 30 B8 30 13 30 00
 (4.2940)  can1  4100209   [8]  00 00 00 00 00 00 00 00
 (4.2940)  can1  4100208   [8]  00 00 00 00 00 00 00 00
 (4.3040)  can1  4100209   [8]  00 00 00 00 00 00 00 00
 (4.3050)  can1  4100208   [8]  00 00 00 00 00 00 00 00
 (4.3080)  can1  8100302   [5]  00 01 0A 00 07
 (4.3090)  can1  8580C02   [8]  00 00 00 00 00 00 00 00
 (4.3090)  can1  89A0C02   [8]  00 00 00 00 00 00 00 00
 (4.3090)  can1  8030C02   [8]  00 00 2A 68 2A 68 92 17
 (4.3140)  can1  4100209   [8]  00 00 00 00 00 00 00 00
 (4.3140)  can1  4100208   [8]  00 00 00 00 00 00 00 00
 (4.3240)  can1  4100209   [8]  00 00 00 00 00 00 00 00
 (4.3240)  can1  4100208   [8]  00 00 00 00 00 00 00 00
 (4.3250)  can1  8101201   [8]  CC 64 6F 90 23 8D 11 00
 (4.3250)  can1  8010C01   [8]  4F 64 00 00 00 00 00 00
 (4.3280)  can1  89A0C02   [8]  00 00 00 00 00 00 00 00
 (4.3280)  can1  8030C02   [8]  00 00 2A 68 2A 68 92 17
 (4.3290)  can1  8580C02   [8]  00 00 00 00 00 00 00 00
 (4.3340)  can1  8100302   [5]  00 01 0A 00 07
 (4.3340)  can1  4100209   [8]  00 00 00 00 00 00 00 00
 (4.3350)  can1  4100208   [8]  00 00 00 00 00 00 00 00
 (4.3400)  can1  18800401   [8]  11 D6 8F CC 8F D3 8F 00
 (4.3400)  can1  18840401   [8]  11 DB 8F D2 8F DF 8F 00
 (4.3410)  can1  18C00401   [8]  11 8F 30 C6 2F 4A 30 00
 (4.3440)  can1  4100209   [8]  00 00 00 00 00 00 00 00
 (4.3450)  can1  4100208   [8]  00 00 00 00 00 00 00 00
 (4.3480)  can1  89A0C02   [8]  00 00 00 00 00 00 00 00
 (4.3480)  can1  8030C02   [8]  00 00 2A 68 2A 68 92 17
 (4.3490)  can1  8580C02   [8]  00 00 00 00 00 00 00 00
 (4.3530)  can1  4100209   [8]  00 00 00 00 00 00 00 00
 (4.3530)  can1  4100208   [8]  00 00 00 00 00 00 00 00
 (4.3580)  can1  8100302   [5]  00 02 0A 00 07
 (4.3640)  can1  4100209   [8]  00 00 00 00 00 00 00 00
 (4.3650)  can1  4100208   [8]  00 00 00 00 00 00 00 00
 (4.3680)  can1  89A0C02   [8]  00 00 00 00 00 00 00 00
 (4.3690)  can1  8030C02   [8]  00 00 2A 68 2A 68 92 17
 (4.3690)  can1  8580C02   [8]  00 00 00 00 00 00 00 00
 (4.3740)  can1  4100209   [8]  00 00 00 00 00 00 00 00
 (4.3740)  can1  4100208   [8]  00 00 00 00 00 00 00 00
 (4.3840)  can1  8100302   [5]  00 02 0A 00 07
 (4.3840)  can1  4100209   [8]  00 00 00 00 00 00 00 00
 (4.3850)  can1  4100208   [8]  00 00 00 00 00 00 00 00
 (4.3880)  can1  89A0C02   [8]  00 00 00 00 00 00 00 00
 (4.3890)  can1  8030C02   [8]  00 00 2A 68 2A 68 92 17
 (4.3890)  can1  8041001   [8]  37 02 C0 3C FC A2 3B 00
 (4.3900)  can1  8580C02   [8]  00 00 00 00 00 00 00 00
 (4.3900)  can1  18800401   [8]  12 17 90 0A 90 D2 8F 00
 (4.3910)  can1  18840401   [8]  12 1A 90 0D 90 D4 8F 00
 (4.3910)  can1  18C00401   [8]  12 AC 2F 2C 2F FA 2E 00
 (4.3940)  can1  4100209   [8]  00 00 00 00 00 00 00 00
 (4.3950)  can1  4100208   [8]  00 00 00 00 00 00 00 00
 (4.4040)  can1  4100209   [8]  00 00 00 00 00 00 00 00
 (4.4040)  can1  4100208   [8]  00 00 00 00 00 00 00 00
 (4.4080)  can1  8100302   [5]  00 01 0A 00 07
 (4.4080)  can1  8580C02   [8]  00 00 00 00 00 00 00 00
 (4.4090)  can1  89A0C02   [8]  00 00 00 00 00 00 00 00
 (4.4090)  can1  8030C02   [8]  00 00 2A 68 2A 68 92 17
 (4.4140)  can1  4100209   [8]  00 00 00 00 00 00 00 00
 (4.4150)  can1  4100208   [8]  00 00 00 00 00 00 00 00
 (4.4240)  can1  4100209   [8]  00 00 00 00 00 00 00 00
 (4.4240)  can1  4100208   [8]  00 00 00 00 00 00 00 00
 (4.4260)  can1  8101201   [8]  CB 64 75 90 23 8D 0F 00
 (4.4260)  can1  8010C01   [8]  4F 64 00 00 00 00 00 00
 (4.4280)  can1  89A0C02   [8]  00 00 00 00 00 00 00 00
 (4.4290)  can1  8030C02   [8]  00 00 2A 68 2A 68 92 17
 (4.4290)  can1  8580C02   [8]  00 00 00 00 00 00 00 00
 (4.4340)  can1  8100302   [5]  00 02 0A 00 07
 (4.4340)  can1  4100209   [8]  00 00 00 00 00 00 00 00
 (4.4350)  can1  4100208   [8]  00 00 00 00 00 00 00 00
 (4.4380)  can1  18101203   [4]  0F 2F 82 01
 (4.4400)  can1  18800401   [8]  13 CA 8F B1 8F C6 8F 00
 (4.4400)  can1  18840401   [8]  13 CD 8F B8 8F C9 8F 00
 (4.4410)  can1  18C00401   [8]  13 6B 2F AC 2F 00 30 00
 (4.4440)  can1  4100209   [8]  00 00 00 00 00 00 00 00
 (4.4440)  can1  4100208   [8]  00 00 00 00 00 00 00 00
 (4.4480)  can1  89A0C02   [8]  00 00 00 00 00 00 00 00
 (4.4490)  can1  8030C02   [8]  00 00 2A 68 2A 68 92 17
 (4.4490)  can1  8580C02   [8]  00 00 00 00 00 00 00 00
 (4.4540)  can1  4100209   [8]  00 00 00 00 00 00 00 00
 (4.4540)  can1  4100208   [8]  00 00 00 00 00 00 00 00
 (4.4580)  can1  8100302   [5]  00 02 0A 00 07
 (4.4640)  can1  4100209   [8]  00 00 00 00 00 00 00 00
 (4.4640)  can1  4100208   [8]  00 00 00 00 00 00 00 00
 (4.4680)  can1  89A0C02   [8]  00 00 00 00 00 00 00 00
 (4.4690)  can1  8030C02   [8]  00 00 2A 68 2A 68 92 17
 (4.4690)  can1  8580C02   [8]  00 00 00 00 00 00 00 00
 (4.4740)  can1  4100209   [8]  00 00 00 00 00 00 00 00
 (4.4740)  can1  4100208   [8]  00 00 00 00 00 00 00 00
 (4.4840)  can1  8100302   [5]  00 02 0A 00 07
 (4.4840)  can1  4100209   [8]  00 00 00 00 00 00 00 00
 (4.4850)  can1  4100208   [8]  00 00 00 00 00 00 00 00
 (4.4880)  can1  89A0C02   [8]  00 00 00 00 00 00 00 00
 (4.4890)  can1  8030C02   [8]  00 00 2A 68 2A 68 92 17
 (4.4890)  can1  8041001   [8]  37 02 C0 3C FC A2 3B 00
 (4.4900)  can1  8580C02   [8]  00 00 00 00 00 00 00 00
 (4.4900)  can1  18800401   [8]  14 E4 8F FC 8F F7 8F 00
 (4.4910)  can1  18840401   [8]  14 E0 8F 00 90 F9 8F 00
 (4.4920)  can1  18C00401   [8]  14 D5 2F 16 30 D6 2F 00
 (4.4940)  can1  4100209   [8]  00 00 00 00 00 00 00 00
 (4.4940)  can1  4100208   [8]  00 00 00 00 00 00 00 00
 (4.5030)  can1  4100209   [8]  00 00 00 00 00 00 00 00
 (4.5030)  can1  4100208   [8]  00 00 00 00 00 00 00 00
 (4.5080)  can1  8100302   [5]  00 01 0A 00 07
 (4.5080)  can1  8580C02   [8]  00 00 00 00 00 00 00 00
 (4.5090)  can1  89A0C02   [8]  00 00 00 00 00 00 00 00
 (4.5090)  can1  8030C02   [8]  00 00 2A 68 2A 68 92 17
 (4.5130)  can1  4100209   [8]  00 00 00 00 00 00 00 00
 (4.5140)  can1  4100208   [8]  00 00 00 00 00 00 00 00
 (4.5230)  can1  4100209   [8]  00 00 00 00 00 00 00 00
 (4.5230)  can1  4100208   [8]  00 00 00 00 00 00 00 00
 (4.5290)  can1  8101201   [8]  CB 64 71 90 24 8D 13 00
 (4.5290)  can1  8010C01   [8]  4E 64 00 00 00 00 00 00
 (4.5300)  can1  8030C02   [8]  00 00 2A 68 2A 68 92 17
 (4.5300)  can1  8580C02   [8]  00 00 00 00 00 00 00 00
 (4.5310)  can1  89A0C02   [8]  00 00 00 00 00 00 00 00
 (4.5340)  can1  8100302   [5]  00 01 0A 00 07
 (4.5340)  can1  4100209   [8]  00 00 00 00 00 00 00 00
 (4.5340)  can1  4100208   [8]  00 00 00 00 00 00 00 00
 (4.5400)  can1  18800401   [8]  15 0A 90 F7 8F E2 8F 00
 (4.5400)  can1  18840401   [8]  15 0E 90 FD 8F E6 8F 00
 (4.5410)  can1  18C00401   [8]  15 25 30 9D 2F FF 2F 00
 (4.5430)  can1  4100209   [8]  00 00 00 00 00 00 00 00
 (4.5440)  can1  4100208   [8]  00 00 00 00 00 00 00 00
 (4.5480)  can1  89A0C02   [8]  00 00 00 00 00 00 00 00
 (4.5480)  can1  8030C02   [8]  00 00 2A 68 2A 68 92 17
 (4.5490)  can1  8580C02   [8]  00 00 00 00 00 00 00 00
 (4.5540)  can1  4100209   [8]  00 00 00 00 00 00 00 00
 (4.5540)  can1  4100208   [8]  00 00 00 00 00 00 00 00
 (4.5580)  can1  8100302   [5]  00 02 0A 00 07
 (4.5630)  can1  4100209   [8]  00 00 00 00 00 00 00 00
 (4.5640)  can1  4100208   [8]  00 00 00 00 00 00 00 00
 (4.5680)  can1  89A0C02   [8]  00 00 00 00 00 00 00 00
 (4.5680)  can1  8030C02   [8]  00 00 2A 68 2A 68 92 17
 (4.5690)  can1  8580C02   [8]  00 00 00 00 00 00 00 00
 (4.5730)  can1  4100209   [8]  00 00 00 00 00 00 00 00
 (4.5730)  can1  4100208   [8]  00 00 00 00 00 00 00 00
 (4.5840)  can1  8100302   [5]  00 01 0A 00 07
 (4.5840)  can1  4100209   [8]  00 00 00 00 00 00 00 00
 (4.5850)  can1  4100208   [8]  00 00 00 00 00 00 00 00
 (4.5880)  can1  89A0C02   [8]  00 00 00 00 00 00 00 00
 (4.5890)  can1  8030C02   [8]  00 00 2A 68 2A 68 92 17
 (4.5890)  can1  8041001   [8]  37 02 C0 3C FC A2 3B 00
 (4.5890)  can1  8580C02   [8]  00 00 00 00 00 00 00 00
 (4.5900)  can1  18800401   [8]  16 DA 8F F7 8F 1A 90 00
 (4.5900)  can1  18840401   [8]  16 DD 8F F4 8F 1D 90 00
 (4.5910)  can1  18C00401   [8]  16 81 2F B2 2F FE 2E 00
 (4.5930)  can1  4100209   [8]  00 00 00 00 00 00 00 00
 (4.5930)  can1  4100208   [8]  00 00 00 00 00 00 00 00
 (4.6030)  can1  4100209   [8]  00 00 00 00 00 00 00 00
 (4.6040)  can1  4100208   [8]  00 00 00 00 00 00 00 00
 (4.6080)  can1  8100302   [5]  00 01 0A 00 07
 (4.6080)  can1  8580C02   [8]  00 00 00 00 00 00 00 00
 (4.6090)  can1  89A0C02   [8]  00 00 00 00 00 00 00 00
 (4.6090)  can1  8030C02   [8]  00 00 2A 68 2A 68 92 17
 (4.6130)  can1  4100209   [8]  00 00 00 00 00 00 00 00
 (4.6130)  can1  4100208   [8]  00 00 00 00 00 00 00 00
 (4.6230)  can1  4100209   [8]  00 00 00 00 00 00 00 00
 (4.6230)  can1  4100208   [8]  00 00 00 00 00 00 00 00
 (4.6280)  can1  89A0C02   [8]  00 00 00 00 00 00 00 00
 (4.6280)  can1  8030C02   [8]  00 00 2A 68 2A 68 92 17
 (4.6290)  can1  8580C02   [8]  00 00 00 00 00 00 00 00
 (4.6290)  can1  8010C01   [8]  51 64 00 00 00 00 00 00
 (4.6300)  can1  8101201   [8]  CB 64 74 90 24 8D 14 00
 (4.6330)  can1  8100302   [5]  00 01 0A 00 07
 (4.6330)  can1  4100209   [8]  00 00 00 00 00 00 00 00
 (4.6340)  can1  4100208   [8]  00 00 00 00 00 00 00 00
 (4.6400)  can1  18800401   [8]  17 0D 90 00 00 00 00 00
 (4.6400)  can1  18840401   [8]  17 12 90 00 00 00 00 00
 (4.6410)  can1  18C00401   [8]  17 F5 2E 10 27 10 27 00
 (4.6430)  can1  4100209   [8]  00 00 00 00 00 00 00 00
 (4.6430)  can1  4100208   [8]  00 00 00 00 00 00 00 00
 (4.6490)  can1  89A0C02   [8]  00 00 00 00 00 00 00 00
 (4.6490)  can1  8030C02   [8]  00 00 2A 68 2A 68 92 17
 (4.6500)  can1  8580C02   [8]  00 00 00 00 00 00 00 00
 (4.6530)  can1  4100209   [8]  00 00 00 00 00 00 00 00
 (4.6530)  can1  4100208   [8]  00 00 00 00 00 00 00 00
 (4.6580)  can1  8100302   [5]  00 02 0A 00 07
 (4.6630)  can1  4100209   [8]  00 00 00 00 00 00 00 00
 (4.6630)  can1  4100208   [8]  00 00 00 00 00 00 00 00
 (4.6680)  can1  89A0C02   [8]  00 00 00 00 00 00 00 00
 (4.6680)  can1  8030C02   [8]  00 00 2A 68 2A 68 92 17
 (4.6690)  can1  8580C02   [8]  00 00 00 00 00 00 00 00
 (4.6730)  can1  4100209   [8]  00 00 00 00 00 00 00 00
 (4.6730)  can1  4100208   [8]  00 00 00 00 00 00 00 00
 (4.6840)  can1  8100302   [5]  00 02 0A 00 07
 (4.6840)  can1  4100209   [8]  00 00 00 00 00 00 00 00
 (4.6840)  can1  4100208   [8]  00 00 00 00 00 00 00 00
 (4.6880)  can1  89A0C02   [8]  00 00 00 00 00 00 00 00
 (4.6890)  can1  8030C02   [8]  00 00 2A 68 2A 68 92 17
 (4.6890)  can1  8041001   [8]  37 02 C0 3C FC A2 3B 00
 (4.6900)  can1  8580C02   [8]  00 00 00 00 00 00 00 00
 (4.6910)  can1  18800401   [8]  00 6F 90 84 8F 7C 8F 00
 (4.6910)  can1  18840401   [8]  00 76 90 8B 8F 7A 8F 00
 (4.6920)  can1  18C00401   [8]  00 9D 2F 13 2F 10 30 00
 (4.6930)  can1  4100209   [8]  00 00 00 00 00 00 00 00
 (4.6930)  can1  4100208   [8]  00 00 00 00 00 00 00 00
 (4.7030)  can1  4100209   [8]  00 00 00 00 00 00 00 00
 (4.7030)  can1  4100208   [8]  00 00 00 00 00 00 00 00
 (4.7080)  can1  8100302   [5]  00 04 0A 00 07
 (4.7080)  can1  8580C02   [8]  00 00 00 00 00 00 00 00
 (4.7090)  can1  89A0C02   [8]  00 00 00 00 00 00 00 00
 (4.7090)  can1  8030C02   [8]  00 00 2A 68 2A 68 92 17
 (4.7130)  can1  4100209   [8]  00 00 00 00 00 00 00 00
 (4.7130)  can1  4100208   [8]  00 00 00 00 00 00 00 00
 (4.7230)  can1  4100209   [8]  00 00 00 00 00 00 00 00
 (4.7240)  can1  4100208   [8]  00 00 00 00 00 00 00 00
 (4.7280)  can1  89A0C02   [8]  00 00 00 00 00 00 00 00
 (4.7280)  can1  8030C02   [8]  00 00 2A 68 2A 68 92 17
 (4.7290)  can1  8580C02   [8]  00 00 00 00 00 00 00 00
 (4.7300)  can1  8101201   [8]  C9 64 6F 90 23 8D 10 00
 (4.7300)  can1  8010C01   [8]  4E 64 00 00 00 00 00 00
 (4.7340)  can1  8100302   [5]  00 02 0A 00 07
 (4.7340)  can1  4100209   [8]  00 00 00 00 00 00 00 00
 (4.7350)  can1  4100208   [8]  00 00 00 00 00 00 00 00
 (4.7400)  can1  18800401   [8]  01 79 8F 8D 8F 80 8F 00
 (4.7400)  can1  18840401   [8]  01 7D 8F 91 8F 88 8F 00
 (4.7410)  can1  18C00401   [8]  01 B7 2F 3A 30 DC 2F 00
 (4.7430)  can1  4100209   [8]  00 00 00 00 00 00 00 00
 (4.7440)  can1  4100208   [8]  00 00 00 00 00 00 00 00
 (4.7480)  can1  89A0C02   [8]  00 00 00 00 00 00 00 00
 (4.7480)  can1  8030C02   [8]  00 00 2A 68 2A 68 92 17
 (4.7490)  can1  8580C02   [8]  00 00 00 00 00 00 00 00
 (4.7530)  can1  4100209   [8]  00 00 00 00 00 00 00 00
 (4.7530)  can1  4100208   [8]  00 00 00 00 00 00 00 00
 (4.7590)  can1  8100302   [5]  00 02 0A 00 07
 (4.7630)  can1  4100209   [8]  00 00 00 00 00 00 00 00
 (4.7640)  can1  4100208   [8]  00 00 00 00 00 00 00 00
 (4.7680)  can1  89A0C02   [8]  00 00 00 00 00 00 00 00
 (4.7680)  can1  8030C02   [8]  00 00 2A 68 2A 68 92 17
 (4.7690)  can1  8580C02   [8]  00 00 00 00 00 00 00 00
 (4.7730)  can1  4100209   [8]  00 00 00 00 00 00 00 00
 (4.7730)  can1  4100208   [8]  00 00 00 00 00 00 00 00
 (4.7830)  can1  8100302   [5]  00 01 0A 00 07
 (4.7840)  can1  4100209   [8]  00 00 00 00 00 00 00 00
 (4.7840)  can1  4100208   [8]  00 00 00 00 00 00 00 00
 (4.7880)  can1  89A0C02   [8]  00 00 00 00 00 00 00 00
 (4.7880)  can1  8030C02   [8]  00 00 2A 68 2A 68 92 17
 (4.7890)  can1  8041001   [8]  37 02 C0 3C FC A2 3B 00
 (4.7890)  can1  8580C02   [8]  00 00 00 00 00 00 00 00
 (4.7900)  can1  18800401   [8]  02 A9 8F 10 90 F9 8F 00
 (4.7910)  can1  18840401   [8]  02 AD 8F 14 90 FD 8F 00
 (4.7910)  can1  18C00401   [8]  02 17 30 D8 2F FA 2F 00
 (4.7930)  can1  4100209   [8]  00 00 00 00 00 00 00 00
 (4.7930)  can1  4100208   [8]  00 00 00 00 00 00 00 00
 (4.8030)  can1  4100209   [8]  00 00 00 00 00 00 00 00
 (4.8030)  can1  4100208   [8]  00 00 00 00 00 00 00 00
 (4.8080)  can1  8100302   [5]  00 01 0A 00 07
 (4.8090)  can1  8580C02   [8]  00 00 00 00 00 00 00 00
 (4.8090)  can1  89A0C02   [8]  00 00 00 00 00 00 00 00
 (4.8100)  can1  8030C02   [8]  00 00 2A 68 2A 68 92 17
 (4.8130)  can1  4100209   [8]  00 00 00 00 00 00 00 00
 (4.8130)  can1  4100208   [8]  00 00 00 00 00 00 00 00
 (4.8230)  can1  4100209   [8]  00 00 00 00 00 00 00 00
 (4.8240)  can1  4100208   [8]  00 00 00 00 00 00 00 00
 (4.8280)  can1  89A0C02   [8]  00 00 00 00 00 00 00 00
 (4.8280)  can1  8030C02   [8]  00 00 2A 68 2A 68 92 17
 (4.8280)  can1  8580C02   [8]  00 00 00 00 00 00 00 00
 (4.8300)  can1  8101201   [8]  CB 64 70 90 23 8D 08 00
 (4.8300)  can1  8010C01   [8]  4D 64 00 00 00 00 00 00
 (4.8320)  can1  8100302   [5]  00 01 0A 00 07
 (4.8340)  can1  4100209   [8]  00 00 00 00 00 00 00 00
 (4.8350)  can1  4100208   [8]  00 00 00 00 00 00 00 00
 (4.8390)  can1  404FF03   [1]  00
 (4.8400)  can1  8250C03   [8]  00 00 00 00 00 00 00 00
 (4.8400)  can1  8840C03   [8]  32 00 13 00 20 00 07 00
 (4.8410)  can1  88D0C03   [8]  11 00 00 00 00 00 00 00
 (4.8420)  can1  18800401   [8]  03 E8 8F DB 8F F3 8F 00
 (4.8430)  can1  18840401   [8]  03 ED 8F E1 8F F6 8F 00
 (4.8430)  can1  18C00401   [8]  03 C5 2F C1 2F 82 2F 00
 (4.8440)  can1  4100209   [8]  00 00 00 00 00 00 00 00
 (4.8450)  can1  4100208   [8]  00 00 00 00 00 00 00 00
 (4.8480)  can1  89A0C02   [8]  00 00 00 00 00 00 00 00
 (4.8490)  can1  8030C02   [8]  00 00 2A 68 2A 68 92 17
 (4.8490)  can1  8580C02   [8]  00 00 00 00 00 00 00 00
 (4.8520)  can1  404FF07   [1]  00
 (4.8530)  can1  4100209   [8]  00 00 00 00 00 00 00 00
 (4.8530)  can1  4100208   [8]  00 00 00 00 00 00 00 00
 (4.8580)  can1  8100302   [5]  00 02 0A 00 07
 (4.8630)  can1  4100209   [8]  00 00 00 00 00 00 00 00
 (4.8630)  can1  4100208   [8]  00 00 00 00 00 00 00 00
 (4.8680)  can1  89A0C02   [8]  00 00 00 00 00 00 00 00
 (4.8690)  can1  8030C02   [8]  00 00 2A 68 2A 68 92 17
 (4.8690)  can1  8580C02   [8]  00 00 00 00 00 00 00 00
 (4.8730)  can1  4100209   [8]  00 00 00 00 00 00 00 00
 (4.8730)  can1  4100208   [8]  00 00 00 00 00 00 00 00
 (4.8820)  can1  8100302   [5]  00 02 0A 00 07
 (4.8830)  can1  4100209   [8]  00 00 00 00 00 00 00 00
 (4.8830)  can1  4100208   [8]  00 00 00 00 00 00 00 00
 (4.8880)  can1  89A0C02   [8]  00 00 00 00 00 00 00 00
 (4.8890)  can1  8030C02   [8]  00 00 2A 68 2A 68 92 17
 (4.8890)  can1  404FF01   [1]  00
 (4.8900)  can1  8041001   [8]  37 02 C0 3C FC A2 3B 00
 (4.8910)  can1  8580C02   [8]  00 00 00 00 00 00 00 00
 (4.8910)  can1  8120C01   [8]  90 00 00 00 00 00 00 00
 (4.8920)  can1  80F1201   [4]  72 10 00 00
 (4.8920)  can1  18800401   [8]  04 10 90 02 90 1D 8D 00
 (4.8930)  can1  18840401   [8]  04 15 90 07 90 23 8D 00
 (4.8940)  can1  18C00401   [8]  04 ED 2E D1 2E F1 2F 00
 (4.8940)  can1  4100209   [8]  00 00 00 00 00 00 00 00
 (4.8950)  can1  4100208   [8]  00 00 00 00 00 00 00 00
 (4.9030)  can1  4100209   [8]  00 00 00 00 00 00 00 00
 (4.9040)  can1  4100208   [8]  00 00 00 00 00 00 00 00
 (4.9090)  can1  404FF02   [1]  00
 (4.9100)  can1  8100302   [5]  00 02 0A 00 07
 (4.9100)  can1  89A0C02   [8]  00 00 00 00 00 00 00 00
 (4.9110)  can1  8580C02   [8]  00 00 00 00 00 00 00 00
 (4.9120)  can1  8030C02   [8]  00 00 2A 68 2A 68 92 17
 (4.9130)  can1  4100209   [8]  00 00 00 00 00 00 00 00
 (4.9130)  can1  4100208   [8]  00 00 00 00 00 00 00 00
 (4.9230)  can1  4100209   [8]  00 00 00 00 00 00 00 00
 (4.9240)  can1  4100208   [8]  00 00 00 00 00 00 00 00
 (4.9280)  can1  89A0C02   [8]  00 00 00 00 00 00 00 00
 (4.9280)  can1  8030C02   [8]  00 00 2A 68 2A 68 92 17
 (4.9280)  can1  8580C02   [8]  00 00 00 00 00 00 00 00
 (4.9310)  can1  8101201   [8]  CB 64 71 90 23 8D 14 00
 (4.9310)  can1  8010C01   [8]  4F 64 00 00 00 00 00 00
 (4.9340)  can1  8100302   [5]  00 01 0A 00 07
 (4.9350)  can1  4100209   [8]  00 00 00 00 00 00 00 00
 (4.9350)  can1  4100208   [8]  00 00 00 00 00 00 00 00
 (4.9380)  can1  18101203   [4]  E2 2E 75 01
 (4.9400)  can1  18800401   [8]  05 DE 8F B8 8F D3 8F 00
 (4.9400)  can1  18840401   [8]  05 E4 8F CC 8F DA 8F 00
 (4.9410)  can1  18C00401   [8]  05 F0 2F 48 30 69 30 00
 (4.9430)  can1  4100209   [8]  00 00 00 00 00 00 00 00
 (4.9430)  can1  4100208   [8]  00 00 00 00 00 00 00 00
 (4.9480)  can1  89A0C02   [8]  00 00 00 00 00 00 00 00
 (4.9480)  can1  8030C02   [8]  00 00 2A 68 2A 68 92 17
 (4.9490)  can1  8580C02   [8]  00 00 00 00 00 00 00 00
 (4.9530)  can1  4100209   [8]  00 00 00 00 00 00 00 00
 (4.9530)  can1  4100208   [8]  00 00 00 00 00 00 00 00
 (4.9580)  can1  8100302   [5]  00 01 0A 00 07
 (4.9630)  can1  4100209   [8]  00 00 00 00 00 00 00 00
 (4.9630)  can1  4100208   [8]  00 00 00 00 00 00 00 00
 (4.9680)  can1  89A0C02   [8]  00 00 00 00 00 00 00 00
 (4.9680)  can1  8030C02   [8]  00 00 2A 68 2A 68 92 17
 (4.9690)  can1  8580C02   [8]  00 00 00 00 00 00 00 00
 (4.9730)  can1  4100209   [8]  00 00 00 00 00 00 00 00
 (4.9740)  can1  4100208   [8]  00 00 00 00 00 00 00 00
 (4.9820)  can1  8100302   [5]  00 01 0A 00 07
 (4.9830)  can1  4100209   [8]  00 00 00 00 00 00 00 00
 (4.9830)  can1  4100208   [8]  00 00 00 00 00 00 00 00
 (4.9880)  can1  89A0C02   [8]  00 00 00 00 00 00 00 00
 (4.9890)  can1  8030C02   [8]  00 00 2A 68 2A 68 92 17
 (4.9890)  can1  8041001   [8]  37 02 C0 3C FC A2 3B 00
 (4.9900)  can1  8580C02   [8]  00 00 00 00 00 00 00 00
 (4.9910)  can1  18800401   [8]  06 DB 8F 13 90 1E 90 00
 (4.9910)  can1  18840401   [8]  06 DE 8F 16 90 21 90 00
 (4.9920)  can1  18C00401   [8]  06 42 30 A2 30 56 30 00
 (4.9930)  can1  4100209   [8]  00 00 00 00 00 00 00 00
 (4.9930)  can1  4100208   [8]  00 00 00 00 00 00 00 00
 (5.0030)  can1  4100209   [8]  00 00 00 00 00 00 00 00
 (5.0030)  can1  4100208   [8]  00 00 00 00 00 00 00 00
 (5.0080)  can1  8100302   [5]  00 01 0A 00 07
 (5.0080)  can1  8580C02   [8]  00 00 00 00 00 00 00 00
 (5.0090)  can1  89A0C02   [8]  00 00 00 00 00 00 00 00
 (5.0090)  can1  8030C02   [8]  00 00 2A 68 2A 68 92 17
 (5.0130)  can1  4100209   [8]  00 00 00 00 00 00 00 00
 (5.0130)  can1  4100208   [8]  00 00 00 00 00 00 00 00
 (5.0230)  can1  4100209   [8]  00 00 00 00 00 00 00 00
 (5.0240)  can1  4100208   [8]  00 00 00 00 00 00 00 00
 (5.0280)  can1  89A0C02   [8]  00 00 00 00 00 00 00 00
 (5.0280)  can1  8030C02   [8]  00 00 2A 68 2A 68 92 17
 (5.0290)  can1  8580C02   [8]  00 00 00 00 00 