 (1.4800)  can1  4100208   [8]  00 00 00 00 00 00 00 00
 (1.5290)  can1  8100302   [5]  00 02 0A 00 05
 (1.5300)  can1  8580C02   [8]  00 00 00 00 00 00 00 00
 (1.5310)  can1  89A0C02   [8]  00 00 00 00 00 00 00 00
 (1.5310)  can1  8030C02   [8]  00 00 2A 68 2A 68 92 17
 (1.5310)  can1  4100208   [8]  00 00 00 00 00 00 00 00
 (1.5310)  can1  8100302   [5]  00 03 0A 00 05
 (1.5320)  can1  8580C02   [8]  00 00 00 00 00 00 00 00
 (1.5320)  can1  89A0C02   [8]  00 00 00 00 00 00 00 00
 (1.5320)  can1  8030C02   [8]  00 00 2A 68 2A 68 92 17
 (1.5330)  can1  4100209   [8]  00 00 00 00 00 00 00 00
 (1.5330)  can1  4100208   [8]  00 00 00 00 00 00 00 00
 (1.5330)  can1  4100209   [8]  00 00 00 00 00 00 00 00
 (1.5340)  can1  4100208   [8]  00 00 00 00 00 00 00 00
 (1.5340)  can1  8580C02   [8]  00 00 00 00 00 00 00 00
 (1.5350)  can1  8030C02   [8]  00 00 2A 68 2A 68 92 17
 (1.5350)  can1  89A0C02   [8]  00 00 00 00 00 00 00 00
 (1.5350)  can1  4100209   [8]  00 00 00 00 00 00 00 00
 (1.5360)  can1  8100302   [5]  00 06 0A 00 05
 (1.5360)  can1  4100208   [8]  00 00 00 00 00 00 00 00
 (1.5360)  can1  4100209   [8]  00 00 00 00 00 00 00 00
 (1.5360)  can1  18800401   [8]  0D E2 82 21 83 5C 83 00
 (1.5370)  can1  18840401   [8]  0D E2 82 20 83 5B 83 00
 (1.5370)  can1  18C00401   [8]  0D 52 32 D8 2F 3F 31 00
 (1.5370)  can1  4100208   [8]  00 00 00 00 00 00 00 00
 (1.5370)  can1  8580C02   [8]  00 00 00 00 00 00 00 00
 (1.5380)  can1  8030C02   [8]  00 00 2A 68 2A 68 92 17
 (1.5380)  can1  89A0C02   [8]  00 00 00 00 00 00 00 00
 (1.5380)  can1  4100209   [8]  00 00 00 00 00 00 00 00
 (1.5390)  can1  4100208   [8]  00 00 00 00 00 00 00 00
 (1.5390)  can1  8100302   [5]  00 06 0A 00 05
 (1.5390)  can1  4100209   [8]  00 00 00 00 00 00 00 00
 (1.5430)  can1  4100208   [8]  00 00 00 00 00 00 00 00
 (1.5430)  can1  8580C02   [8]  00 00 00 00 00 00 00 00
 (1.5440)  can1  8030C02   [8]  00 00 2A 68 2A 68 92 17
 (1.5440)  can1  89A0C02   [8]  00 00 00 00 00 00 00 00
 (1.5450)  can1  4100209   [8]  00 00 00 00 00 00 00 00
 (1.5530)  can1  4100208   [8]  00 00 00 00 00 00 00 00
 (1.5540)  can1  4100209   [8]  00 00 00 00 00 00 00 00
 (1.5580)  can1  8100302   [5]  00 03 0A 00 05
 (1.5630)  can1  4100208   [8]  00 00 00 00 00 00 00 00
 (1.5640)  can1  8580C02   [8]  00 00 00 00 00 00 00 00
 (1.5640)  can1  8030C02   [8]  00 00 2A 68 2A 68 92 17
 (1.5640)  can1  89A0C02   [8]  00 00 00 00 00 00 00 00
 (1.5650)  can1  4100209   [8]  00 00 00 00 00 00 00 00
 (1.5650)  can1  8041001   [8]  CC 00 E0 15 18 97 1B 00
 (1.5660)  can1  18800401   [8]  0E D3 82 3F 82 BF 81 00
 (1.5660)  can1  18840401   [8]  0E D2 82 3E 82 BE 81 00
 (1.5670)  can1  18C00401   [8]  0E EA 2E C8 31 FA 2F 00
 (1.5730)  can1  4100208   [8]  00 00 00 00 00 00 00 00
 (1.5740)  can1  4100209   [8]  00 00 00 00 00 00 00 00
 (1.5790)  can1  8101201   [8]  00 00 47 84 2B 74 00 00
 (1.5800)  can1  8010C01   [8]  00 00 00 00 00 00 00 00
 (1.5830)  can1  4100208   [8]  00 00 00 00 00 00 00 00
 (1.5830)  can1  8100302   [5]  00 05 0A 00 05
 (1.5840)  can1  8580C02   [8]  00 00 00 00 00 00 00 00
 (1.5850)  can1  89A0C02   [8]  00 00 00 00 00 00 00 00
 (1.5850)  can1  8030C02   [8]  00 00 2A 68 2A 68 92 17
 (1.5850)  can1  4100209   [8]  00 00 00 00 00 00 00 00
 (1.5930)  can1  4100208   [8]  00 00 00 00 00 00 00 00
 (1.5940)  can1  4100209   [8]  00 00 00 00 00 00 00 00
 (1.6030)  can1  4100208   [8]  00 00 00 00 00 00 00 00
 (1.6040)  can1  8580C02   [8]  00 00 00 00 00 00 00 00
 (1.6040)  can1  8030C02   [8]  00 00 2A 68 2A 68 92 17
 (1.6040)  can1  89A0C02   [8]  00 00 00 00 00 00 00 00
 (1.6050)  can1  4100209   [8]  00 00 00 00 00 00 00 00
 (1.6080)  can1  8100302   [5]  00 06 0A 00 05
 (1.6120)  can1  404FF03   [1]  00
 (1.6130)  can1  4100208   [8]  00 00 00 00 00 00 00 00
 (1.6140)  can1  4100209   [8]  00 00 00 00 00 00 00 00
 (1.6140)  can1  8250C03   [8]  00 00 00 00 00 00 00 00
 (1.6150)  can1  8840C03   [8]  2C 00 13 00 19 00 07 00
 (1.6160)  can1  88D0C03   [8]  2F 00 00 00 00 00 00 00
 (1.6160)  can1  18800401   [8]  0F B1 80 62 82 A8 82 00
 (1.6170)  can1  18840401   [8]  0F B0 80 62 82 A8 82 00
 (1.6170)  can1  18C00401   [8]  0F C4 32 A3 30 62 33 00
 (1.6220)  can1  404FF07   [1]  00
 (1.6230)  can1  4100208   [8]  00 00 00 00 00 00 00 00
 (1.6230)  can1  8030C02   [8]  00 00 2A 68 2A 68 92 17
 (1.6230)  can1  8580C02   [8]  00 00 00 00 00 00 00 00
 (1.6240)  can1  89A0C02   [8]  00 00 00 00 00 00 00 00
 (1.6240)  can1  4100209   [8]  00 00 00 00 00 00 00 00
 (1.6330)  can1  4100208   [8]  00 00 00 00 00 00 00 00
 (1.6330)  can1  8100302   [5]  00 01 0A 00 05
 (1.6340)  can1  4100209   [8]  00 00 00 00 00 00 00 00
 (1.6430)  can1  4100208   [8]  00 00 00 00 00 00 00 00
 (1.6430)  can1  8580C02   [8]  00 00 00 00 00 00 00 00
 (1.6440)  can1  8030C02   [8]  00 00 2A 68 2A 68 92 17
 (1.6440)  can1  89A0C02   [8]  00 00 00 00 00 00 00 00
 (1.6450)  can1  4100209   [8]  00 00 00 00 00 00 00 00
 (1.6530)  can1  4100208   [8]  00 00 00 00 00 00 00 00
 (1.6540)  can1  4100209   [8]  00 00 00 00 00 00 00 00
 (1.6580)  can1  8100302   [5]  00 06 0A 00 05
 (1.6630)  can1  4100208   [8]  00 00 00 00 00 00 00 00
 (1.6630)  can1  8580C02   [8]  00 00 00 00 00 00 00 00
 (1.6630)  can1  404FF01   [1]  00
 (1.6640)  can1  8030C02   [8]  00 00 2A 68 2A 68 92 17
 (1.6640)  can1  89A0C02   [8]  00 00 00 00 00 00 00 00
 (1.6650)  can1  4100209   [8]  00 00 00 00 00 00 00 00
 (1.6650)  can1  8041001   [8]  CC 00 E0 15 18 97 1B 00
 (1.6660)  can1  8120C01   [8]  64 00 00 00 00 00 00 00
 (1.6660)  can1  80F1201   [4]  B2 11 00 00
 (1.6660)  can1  18800401   [8]  10 A6 82 C0 82 97 82 00
 (1.6660)  can1  18840401   [8]  10 A6 82 BF 82 97 82 00
 (1.6670)  can1  18C00401   [8]  10 BD 30 74 33 19 30 00
 (1.6730)  can1  4100208   [8]  00 00 00 00 00 00 00 00
 (1.6740)  can1  4100209   [8]  00 00 00 00 00 00 00 00
 (1.6800)  can1  8101201   [8]  00 00 46 84 2B 74 00 00
 (1.6810)  can1  8010C01   [8]  00 00 00 00 00 00 00 00
 (1.6830)  can1  4100208   [8]  00 00 00 00 00 00 00 00
 (1.6830)  can1  404FF02   [1]  00
 (1.6840)  can1  8100302   [5]  00 03 0A 00 05
 (1.6840)  can1  89A0C02   [8]  00 00 00 00 00 00 00 00
 (1.6850)  can1  8580C02   [8]  00 00 00 00 00 00 00 00
 (1.6850)  can1  4100209   [8]  00 00 00 00 00 00 00 00
 (1.6850)  can1  8030C02   [8]  00 00 2A 68 2A 68 92 17
 (1.6930)  can1  4100208   [8]  00 00 00 00 00 00 00 00
 (1.6940)  can1  4100209   [8]  00 00 00 00 00 00 00 00
 (1.7030)  can1  4100208   [8]  00 00 00 00 00 00 00 00
 (1.7030)  can1  8580C02   [8]  00 00 00 00 00 00 00 00
 (1.7040)  can1  8030C02   [8]  00 00 2A 68 2A 68 92 17
 (1.7040)  can1  89A0C02   [8]  00 00 00 00 00 00 00 00
 (1.7040)  can1  4100209   [8]  00 00 00 00 00 00 00 00
 (1.7080)  can1  8100302   [5]  00 04 0A 00 05
 (1.7120)  can1  18101203   [4]  3A 2C 63 01
 (1.7130)  can1  4100208   [8]  00 00 00 00 00 00 00 00
 (1.7140)  can1  4100209   [8]  00 00 00 00 00 00 00 00
 (1.7150)  can1  18800401   [8]  11 2A 82 EB 81 34 82 00
 (1.7160)  can1  18840401   [8]  11 29 82 EA 81 33 82 00
 (1.7160)  can1  18C00401   [8]  11 3D 33 D4 2F CB 32 00
 (1.7230)  can1  4100208   [8]  00 00 00 00 00 00 00 00
 (1.7230)  can1  8030C02   [8]  00 00 2A 68 2A 68 92 17
 (1.7240)  can1  8580C02   [8]  00 00 00 00 00 00 00 00
 (1.7240)  can1  89A0C02   [8]  00 00 00 00 00 00 00 00
 (1.7250)  can1  4100209   [8]  00 00 00 00 00 00 00 00
 (1.7330)  can1  4100208   [8]  00 00 00 00 00 00 00 00
 (1.7330)  can1  8100302   [5]  00 02 0A 00 05
 (1.7340)  can1  4100209   [8]  00 00 00 00 00 00 00 00
 (1.7430)  can1  4100208   [8]  00 00 00 00 00 00 00 00
 (1.7430)  can1  8030C02   [8]  00 00 2A 68 2A 68 92 17
 (1.7430)  can1  8580C02   [8]  00 00 00 00 00 00 00 00
 (1.7440)  can1  89A0C02   [8]  00 00 00 00 00 00 00 00
 (1.7440)  can1  4100209   [8]  00 00 00 00 00 00 00 00
 (1.7530)  can1  4100208   [8]  00 00 00 00 00 00 00 00
 (1.7540)  can1  4100209   [8]  00 00 00 00 00 00 00 00
 (1.7580)  can1  8100302   [5]  00 02 0A 00 05
 (1.7630)  can1  4100208   [8]  00 00 00 00 00 00 00 00
 (1.7630)  can1  8030C02   [8]  00 00 2A 68 2A 68 92 17
 (1.7640)  can1  8580C02   [8]  00 00 00 00 00 00 00 00
 (1.7640)  can1  89A0C02   [8]  00 00 00 00 00 00 00 00
 (1.7640)  can1  4100209   [8]  00 00 00 00 00 00 00 00
 (1.7650)  can1  8041001   [8]  CC 00 E0 15 18 97 1B 00
 (1.7650)  can1  18800401   [8]  12 BA 82 EF 82 0B 83 00
 (1.7650)  can1  18840401   [8]  12 BA 82 EE 82 0A 83 00
 (1.7660)  can1  18C00401   [8]  12 DB 31 48 2F 97 2E 00
 (1.7730)  can1  4100208   [8]  00 00 00 00 00 00 00 00
 (1.7740)  can1  4100209   [8]  00 00 00 00 00 00 00 00
 (1.7810)  can1  8101201   [8]  00 00 48 84 2B 74 01 00
 (1.7820)  can1  8010C01   [8]  00 00 00 00 00 00 00 00
 (1.7830)  can1  4100208   [8]  00 00 00 00 00 00 00 00
 (1.7830)  can1  8100302   [5]  00 03 0A 00 05
 (1.7840)  can1  8580C02   [8]  00 00 00 00 00 00 00 00
 (1.7850)  can1  89A0C02   [8]  00 00 00 00 00 00 00 00
 (1.7850)  can1  8030C02   [8]  00 00 2A 68 2A 68 92 17
 (1.7850)  can1  4100209   [8]  00 00 00 00 00 00 00 00
 (1.7930)  can1  4100208   [8]  00 00 00 00 00 00 00 00
 (1.7940)  can1  4100209   [8]  00 00 00 00 00 00 00 00
 (1.8030)  can1  4100208   [8]  00 00 00 00 00 00 00 00
 (1.8030)  can1  8030C02   [8]  00 00 2A 68 2A 68 92 17
 (1.8040)  can1  8580C02   [8]  00 00 00 00 00 00 00 00
 (1.8040)  can1  89A0C02   [8]  00 00 00 00 00 00 00 00
 (1.8040)  can1  4100209   [8]  00 00 00 00 00 00 00 00
 (1.8080)  can1  8100302   [5]  00 03 0A 00 05
 (1.8130)  can1  4100208   [8]  00 00 00 00 00 00 00 00
 (1.8140)  can1  4100209   [8]  00 00 00 00 00 00 00 00
 (1.8150)  can1  18800401   [8]  13 AE 82 09 82 48 82 00
 (1.8160)  can1  18840401   [8]  13 AD 82 0E 82 47 82 00
 (1.8160)  can1  18C00401   [8]  13 EC 30 A0 2F 17 32 00
 (1.8230)  can1  4100208   [8]  00 00 00 00 00 00 00 00
 (1.8230)  can1  8030C02   [8]  00 00 2A 68 2A 68 92 17
 (1.8240)  can1  8580C02   [8]  00 00 00 00 00 00 00 00
 (1.8240)  can1  89A0C02   [8]  00 00 00 00 00 00 00 00
 (1.8250)  can1  4100209   [8]  00 00 00 00 00 00 00 00
 (1.8330)  can1  4100208   [8]  00 00 00 00 00 00 00 00
 (1.8330)  can1  8100302   [5]  00 03 0A 00 05
 (1.8340)  can1  4100209   [8]  00 00 00 00 00 00 00 00
 (1.8430)  can1  4100208   [8]  00 00 00 00 00 00 00 00
 (1.8430)  can1  8030C02   [8]  00 00 2A 68 2A 68 92 17
 (1.8440)  can1  8580C02   [8]  00 00 00 00 00 00 00 00
 (1.8440)  can1  89A0C02   [8]  00 00 00 00 00 00 00 00
 (1.8440)  can1  4100209   [8]  00 00 00 00 00 00 00 00
 (1.8530)  can1  4100208   [8]  00 00 00 00 00 00 00 00
 (1.8540)  can1  4100209   [8]  00 00 00 00 00 00 00 00
 (1.8580)  can1  8100302   [5]  00 05 0A 00 05
 (1.8630)  can1  4100208   [8]  00 00 00 00 00 00 00 00
 (1.8630)  can1  8030C02   [8]  00 00 2A 68 2A 68 92 17
 (1.8630)  can1  8580C02   [8]  00 00 00 00 00 00 00 00
 (1.8640)  can1  89A0C02   [8]  00 00 00 00 00 00 00 00
 (1.8650)  can1  4100209   [8]  00 00 00 00 00 00 00 00
 (1.8650)  can1  8041001   [8]  CC 00 E0 15 18 97 1B 00
 (1.8650)  can1  18800401   [8]  14 DB 82 01 83 11 83 00
 (1.8650)  can1  18840401   [8]  14 D8 82 00 83 10 83 00
 (1.8660)  can1  18C00401   [8]  14 38 30 B6 32 7F 30 00
 (1.8730)  can1  4100208   [8]  00 00 00 00 00 00 00 00
 (1.8740)  can1  4100209   [8]  00 00 00 00 00 00 00 00
 (1.8820)  can1  8101201   [8]  00 00 47 84 2C 74 00 00
 (1.8830)  can1  8010C01   [8]  00 00 00 00 00 00 00 00
 (1.8830)  can1  4100208   [8]  00 00 00 00 00 00 00 00
 (1.8830)  can1  8100302   [5]  00 02 0A 00 05
 (1.8840)  can1  8580C02   [8]  00 00 00 00 00 00 00 00
 (1.8840)  can1  89A0C02   [8]  00 00 00 00 00 00 00 00
 (1.8850)  can1  8030C02   [8]  00 00 2A 68 2A 68 92 17
 (1.8850)  can1  4100209   [8]  00 00 00 00 00 00 00 00
 (1.8930)  can1  4100208   [8]  00 00 00 00 00 00 00 00
 (1.8940)  can1  4100209   [8]  00 00 00 00 00 00 00 00
 (1.9030)  can1  4100208   [8]  00 00 00 00 00 00 00 00
 (1.9030)  can1  8030C02   [8]  00 00 2A 68 2A 68 92 17
 (1.9040)  can1  8580C02   [8]  00 00 00 00 00 00 00 00
 (1.9040)  can1  89A0C02   [8]  00 00 00 00 00 00 00 00
 (1.9040)  can1  4100209   [8]  00 00 00 00 00 00 00 00
 (1.9080)  can1  8100302   [5]  00 00 0A 00 05
 (1.9130)  can1  4100208   [8]  00 00 00 00 00 00 00 00
 (1.9140)  can1  4100209   [8]  00 00 00 00 00 00 00 00
 (1.9150)  can1  18800401   [8]  15 59 83 F3 82 71 82 00
 (1.9150)  can1  18840401   [8]  15 58 83 F2 82 71 82 00
 (1.9160)  can1  18C00401   [8]  15 F8 32 1E 30 A3 32 00
 (1.9230)  can1  4100208   [8]  00 00 00 00 00 00 00 00
 (1.9230)  can1  8030C02   [8]  00 00 2A 68 2A 68 92 17
 (1.9240)  can1  8580C02   [8]  00 00 00 00 00 00 00 00
 (1.9240)  can1  89A0C02   [8]  00 00 00 00 00 00 00 00
 (1.9250)  can1  4100209   [8]  00 00 00 00 00 00 00 00
 (1.9330)  can1  4100208   [8]  00 00 00 00 00 00 00 00
 (1.9340)  can1  8100302   [5]  00 05 0A 00 05
 (1.9340)  can1  4100209   [8]  00 00 00 00 00 00 00 00
 (1.9430)  can1  4100208   [8]  00 00 00 00 00 00 00 00
 (1.9430)  can1  8030C02   [8]  00 00 2A 68 2A 68 92 17
 (1.9430)  can1  8580C02   [8]  00 00 00 00 00 00 00 00
 (1.9440)  can1  89A0C02   [8]  00 00 00 00 00 00 00 00
 (1.9440)  can1  4100209   [8]  00 00 00 00 00 00 00 00
 (1.9530)  can1  4100208   [8]  00 00 00 00 00 00 00 00
 (1.9540)  can1  4100209   [8]  00 00 00 00 00 00 00 00
 (1.9580)  can1  8100302   [5]  00 02 0A 00 05
 (1.9630)  can1  4100208   [8]  00 00 00 00 00 00 00 00
 (1.9630)  can1  8030C02   [8]  00 00 2A 68 2A 68 92 17
 (1.9640)  can1  8580C02   [8]  00 00 00 00 00 00 00 00
 (1.9640)  can1  89A0C02   [8]  00 00 00 00 00 00 00 00
 (1.9640)  can1  4100209   [8]  00 00 00 00 00 00 00 00
 (1.9650)  can1  8041001   [8]  CC 00 E0 15 18 97 1B 00
 (1.9650)  can1  18800401   [8]  16 21 82 AC 82 09 83 00
 (1.9650)  can1  18840401   [8]  16 21 82 AC 82 09 83 00
 (1.9660)  can1  18C00401   [8]  16 E6 2F 31 32 7D 2F 00
 (1.9730)  can1  4100208   [8]  00 00 00 00 00 00 00 00
 (1.9740)  can1  4100209   [8]  00 00 00 00 00 00 00 00
 (1.9830)  can1  4100208   [8]  00 00 00 00 00 00 00 00
 (1.9840)  can1  8100302   [5]  00 02 0A 00 05
 (1.9840)  can1  8010C01   [8]  00 00 00 00 00 00 00 00
 (1.9850)  can1  8101201   [8]  00 00 49 84 2C 74 00 00
 (1.9850)  can1  8580C02   [8]  00 00 00 00 00 00 00 00
 (1.9850)  can1  4100209   [8]  00 00 00 00 00 00 00 00
 (1.9860)  can1  8030C02   [8]  00 00 2A 68 2A 68 92 17
 (1.9860)  can1  89A0C02   [8]  00 00 00 00 00 00 00 00
 (1.9930)  can1  4100208   [8]  00 00 00 00 00 00 00 00
 (1.9940)  can1  4100209   [8]  00 00 00 00 00 00 00 00
 (2.0030)  can1  4100208   [8]  00 00 00 00 00 00 00 00
 (2.0030)  can1  8030C02   [8]  00 00 2A 68 2A 68 92 17
 (2.0030)  can1  8580C02   [8]  00 00 00 00 00 00 00 00
 (2.0040)  can1  89A0C02   [8]  00 00 00 00 00 00 00 00
 (2.0040)  can1  4100209   [8]  00 00 00 00 00 00 00 00
 (2.0080)  can1  8100302   [5]  00 0A 0A 00 05
 (2.0130)  can1  4100208   [8]  00 00 00 00 00 00 00 00
 (2.0140)  can1  4100209   [8]  00 00 00 00 00 00 00 00
 (2.0150)  can1  18800401   [8]  17 3B 83 00 00 00 00 00
 (2.0160)  can1  18840401   [8]  17 3B 83 00 00 00 00 00
 (2.0160)  can1  18C00401   [8]  17 27 31 10 27 10 27 00
 (2.0230)  can1  4100208   [8]  00 00 00 00 00 00 00 00
 (2.0230)  can1  8030C02   [8]  00 00 2A 68 2A 68 92 17
 (2.0240)  can1  8580C02   [8]  00 00 00 00 00 00 00 00
 (2.0240)  can1  89A0C02   [8]  00 00 00 00 00 00 00 00
 (2.0240)  can1  4100209   [8]  00 00 00 00 00 00 00 00
 (2.0330)  can1  4100208   [8]  00 00 00 00 00 00 00 00
 (2.0330)  can1  8100302   [5]  00 03 0A 00 05
 (2.0340)  can1  4100209   [8]  00 00 00 00 00 00 00 00
 (2.0430)  can1  4100208   [8]  00 00 00 00 00 00 00 00
 (2.0430)  can1  8030C02   [8]  00 00 2A 68 2A 68 92 17
 (2.0440)  can1  8580C02   [8]  00 00 00 00 00 00 00 00
 (2.0440)  can1  89A0C02   [8]  00 00 00 00 00 00 00 00
 (2.0450)  can1  4100209   [8]  00 00 00 00 00 00 00 00
 (2.0530)  can1  4100208   [8]  00 00 00 00 00 00 00 00
 (2.0540)  can1  4100209   [8]  00 00 00 00 00 00 00 00
 (2.0580)  can1  8100302   [5]  00 03 0A 00 05
 (2.0630)  can1  4100208   [8]  00 00 00 00 00 00 00 00
 (2.0630)  can1  8030C02   [8]  00 00 2A 68 2A 68 92 17
 (2.0630)  can1  8580C02   [8]  00 00 00 00 00 00 00 00
 (2.0640)  can1  89A0C02   [8]  00 00 00 00 00 00 00 00
 (2.0640)  can1  4100209   [8]  00 00 00 00 00 00 00 00
 (2.0650)  can1  8041001   [8]  CC 00 E0 15 18 97 1B 00
 (2.0650)  can1  18800401   [8]  00 47 84 06 82 3A 81 00
 (2.0660)  can1  18840401   [8]  00 47 84 05 82 39 81 00
 (2.0660)  can1  18C00401   [8]  00 17 31 8A 2E 68 32 00
 (2.0730)  can1  4100208   [8]  00 00 00 00 00 00 00 00
 (2.0740)  can1  4100209   [8]  00 00 00 00 00 00 00 00
 (2.0830)  can1  4100208   [8]  00 00 00 00 00 00 00 00
 (2.0830)  can1  8100302   [5]  00 09 0A 00 05
 (2.0840)  can1  8580C02   [8]  00 00 00 00 00 00 00 00
 (2.0840)  can1  89A0C02   [8]  00 00 00 00 00 00 00 00
 (2.0840)  can1  8030C02   [8]  00 00 2A 68 2A 68 92 17
 (2.0840)  can1  4100209   [8]  00 00 00 00 00 00 00 00
 (2.0850)  can1  8010C01   [8]  00 00 00 00 00 00 00 00
 (2.0860)  can1  8101201   [8]  00 00 47 84 2D 74 00 00
 (2.0930)  can1  4100208   [8]  00 00 00 00 00 00 00 00
 (2.0940)  can1  4100209   [8]  00 00 00 00 00 00 00 00
 (2.1030)  can1  4100208   [8]  00 00 00 00 00 00 00 00
 (2.1030)  can1  8030C02   [8]  00 00 2A 68 2A 68 92 17
 (2.1040)  can1  8580C02   [8]  00 00 00 00 00 00 00 00
 (2.1040)  can1  89A0C02   [8]  00 00 00 00 00 00 00 00
 (2.1040)  can1  4100209   [8]  00 00 00 00 00 00 00 00
 (2.1080)  can1  8100302   [5]  00 04 0A 00 05
 (2.1130)  can1  4100208   [8]  00 00 00 00 00 00 00 00
 (2.1140)  can1  4100209   [8]  00 00 00 00 00 00 00 00
 (2.1150)  can1  18800401   [8]  01 B7 81 42 82 F1 81 00
 (2.1150)  can1  18840401   [8]  01 B6 81 42 82 F0 81 00
 (2.1160)  can1  18C00401   [8]  01 E4 2F 0E 33 AD 30 00
 (2.1230)  can1  4100208   [8]  00 00 00 00 00 00 00 00
 (2.1230)  can1  8030C02   [8]  00 00 2A 68 2A 68 92 17
 (2.1240)  can1  8580C02   [8]  00 00 00 00 00 00 00 00
 (2.1240)  can1  89A0C02   [8]  00 00 00 00 00 00 00 00
 (2.1250)  can1  4100209   [8]  00 00 00 00 00 00 00 00
 (2.1330)  can1  4100208   [8]  00 00 00 00 00 00 00 00
 (2.1330)  can1  8100302   [5]  00 03 0A 00 05
 (2.1340)  can1  4100209   [8]  00 00 00 00 00 00 00 00
 (2.1430)  can1  4100208   [8]  00 00 00 00 00 00 00 00
 (2.1430)  can1  8030C02   [8]  00 00 2A 68 2A 68 92 17
 (2.1440)  can1  8580C02   [8]  00 00 00 00 00 00 00 00
 (2.1440)  can1  89A0C02   [8]  00 00 00 00 00 00 00 00
 (2.1440)  can1  4100209   [8]  00 00 00 00 00 00 00 00
 (2.1530)  can1  4100208   [8]  00 00 00 00 00 00 00 00
 (2.1540)  can1  4100209   [8]  00 00 00 00 00 00 00 00
 (2.1580)  can1  8100302   [5]  00 05 0A 00 05
 (2.1630)  can1  4100208   [8]  00 00 00 00 00 00 00 00
 (2.1630)  can1  8030C02   [8]  00 00 2A 68 2A 68 92 17
 (2.1640)  can1  8580C02   [8]  00 00 00 00 00 00 00 00
 (2.1640)  can1  89A0C02   [8]  00 00 00 00 00 00 00 00
 (2.1640)  can1  4100209   [8]  00 00 00 00 00 00 00 00
 (2.1650)  can1  8041001   [8]  CC 00 E0 15 18 97 1B 00
 (2.1650)  can1  18800401   [8]  02 6C 82 64 83 0F 83 00
 (2.1660)  can1  18840401   [8]  02 6B 82 63 83 0E 83 00
 (2.1660)  can1  18C00401   [8]  02 08 33 C1 30 A9 32 00
 (2.1730)  can1  4100208   [8]  00 00 00 00 00 00 00 00
 (2.1740)  can1  4100209   [8]  00 00 00 00 00 00 00 00
 (2.1830)  can1  4100208   [8]  00 00 00 00 00 00 00 00
 (2.1830)  can1  8100302   [5]  00 02 0A 00 05
 (2.1840)  can1  8580C02   [8]  00 00 00 00 00 00 00 00
 (2.1840)  can1  89A0C02   [8]  00 00 00 00 00 00 00 00
 (2.1850)  can1  8030C02   [8]  00 00 2A 68 2A 68 92 17
 (2.1850)  can1  4100209   [8]  00 00 00 00 00 00 00 00
 (2.1850)  can1  8101201   [8]  00 00 48 84 2D 74 03 00
 (2.1850)  can1  8010C01   [8]  00 00 00 00 00 00 00 00
 (2.1930)  can1  4100208   [8]  00 00 00 00 00 00 00 00
 (2.1940)  can1  4100209   [8]  00 00 00 00 00 00 00 00
 (2.2030)  can1  4100208   [8]  00 00 00 00 00 00 00 00
 (2.2030)  can1  8030C02   [8]  00 00 2A 68 2A 68 92 17
 (2.2040)  can1  8580C02   [8]  00 00 00 00 00 00 00 00
 (2.2040)  can1  89A0C02   [8]  00 00 00 00 00 00 00 00
 (2.2040)  can1  4100209   [8]  00 00 00 00 00 00 00 00
 (2.2080)  can1  8100302   [5]  00 04 0A 00 05
 (2.2120)  can1  18101203   [4]  44 2C 5A 01
 (2.2130)  can1  4100208   [8]  00 00 00 00 00 00 00 00
 (2.2140)  can1  4100209   [8]  00 00 00 00 00 00 00 00
 (2.2150)  can1  18800401   [8]  03 9D 82 75 82 D2 82 00
 (2.2160)  can1  18840401   [8]  03 9B 82 74 82 D1 82 00
 (2.2160)  can1  18C00401   [8]  03 9A 30 26 32 18 30 00
 (2.2230)  can1  4100208   [8]  00 00 00 00 00 00 00 00
 (2.2230)  can1  8030C02   [8]  00 00 2A 68 2A 68 92 17
 (2.2240)  can1  8580C02   [8]  00 00 00 00 00 00 00 00
 (2.2240)  can1  89A0C02   [8]  00 00 00 00 00 00 00 00
 (2.2250)  can1  4100209   [8]  00 00 00 00 00 00 00 00
 (2.2330)  can1  4100208   [8]  00 00 00 00 00 00 00 00
 (2.2330)  can1  8100302   [5]  00 07 0A 00 05
 (2.2340)  can1  4100209   [8]  00 00 00 00 00 00 00 00
 (2.2430)  can1  4100208   [8]  00 00 00 00 00 00 00 00
 (2.2430)  can1  8030C02   [8]  00 00 2A 68 2A 68 92 17
 (2.2440)  can1  8580C02   [8]  00 00 00 00 00 00 00 00
 (2.2440)  can1  89A0C02   [8]  00 00 00 00 00 00 00 00
 (2.2450)  can1  4100209   [8]  00 00 00 00 00 00 00 00
 (2.2530)  can1  4100208   [8]  00 00 00 00 00 00 00 00
 (2.2540)  can1  4100209   [8]  00 00 00 00 00 00 00 00
 (2.2580)  can1  8100302   [5]  00 01 0A 00 05
 (2.2630)  can1  4100208   [8]  00 00 00 00 00 00 00 00
 (2.2630)  can1  8030C02   [8]  00 00 2A 68 2A 68 92 17
 (2.2630)  can1  8580C02   [8]  00 00 00 00 00 00 00 00
 (2.2640)  can1  89A0C02   [8]  00 00 00 00 00 00 00 00
 (2.2640)  can1  4100209   [8]  00 00 00 00 00 00 00 00
 (2.2650)  can1  8041001   [8]  CC 00 E0 15 18 97 1B 00
 (2.2650)  can1  18800401   [8]  04 15 83 79 83 0C 75 00
 (2.2660)  can1  18840401   [8]  04 14 83 78 83 0B 75 00
 (2.2670)  can1  18C00401   [8]  04 02 31 8A 2F 67 30 00
 (2.2730)  can1  4100208   [8]  00 00 00 00 00 00 00 00
 (2.2740)  can1  4100209   [8]  00 00 00 00 00 00 00 00
 (2.2830)  can1  4100208   [8]  00 00 00 00 00 00 00 00
 (2.2830)  can1  8100302   [5]  00 03 0A 00 05
 (2.2840)  can1  8580C02   [8]  00 00 00 00 00 00 00 00
 (2.2840)  can1  89A0C02   [8]  00 00 00 00 00 00 00 00
 (2.2840)  can1  8030C02   [8]  00 00 2A 68 2A 68 92 17
 (2.2850)  can1  4100209   [8]  00 00 00 00 00 00 00 00
 (2.2860)  can1  8101201   [8]  00 00 48 84 2E 74 02 00
 (2.2860)  can1  8010C01   [8]  00 00 00 00 00 00 00 00
 (2.2930)  can1  4100208   [8]  00 00 00 00 00 00 00 00
 (2.2940)  can1  4100209   [8]  00 00 00 00 00 00 00 00
 (2.3030)  can1  4100208   [8]  00 00 00 00 00 00 00 00
 (2.3030)  can1  8030C02   [8]  00 00 2A 68 2A 68 92 17
 (2.3040)  can1  8580C02   [8]  00 00 00 00 00 00 00 00
 (2.3040)  can1  89A0C02   [8]  00 00 00 00 00 00 00 00
 (2.3050)  can1  4100209   [8]  00 00 00 00 00 00 00 00
 (2.3080)  can1  8100302   [5]  00 03 0A 00 05
 (2.3130)  can1  4100208   [8]  00 00 00 00 00 00 00 00
 (2.3140)  can1  4100209   [8]  00 00 00 00 00 00 00 00
 (2.3150)  can1  18800401   [8]  05 BF 82 4B 82 70 82 00
 (2.3150)  can1  18840401   [8]  05 BF 82 4A 82 70 82 00
 (2.3160)  can1  18C00401   [8]  05 1E 32 ED 30 10 33 00
 (2.3230)  can1  4100208   [8]  00 00 00 00 00 00 00 00
 (2.3230)  can1  8030C02   [8]  00 00 2A 68 2A 68 92 17
 (2.3240)  can1  8580C02   [8]  00 00 00 00 00 00 00 00
 (2.3240)  can1  89A0C02   [8]  00 00 00 00 00 00 00 00
 (2.3250)  can1  4100209   [8]  00 00 00 00 00 00 00 00
 (2.3330)  can1  4100208   [8]  00 00 00 00 00 00 00 00
 (2.3330)  can1  8100302   [5]  00 03 0A 00 05
 (2.3340)  can1  4100209   [8]  00 00 00 00 00 00 00 00
 (2.3430)  can1  4100208   [8]  00 00 00 00 00 00 00 00
 (2.3430)  can1  8030C02   [8]  00 00 2A 68 2A 68 92 17
 (2.3440)  can1  8580C02   [8]  00 00 00 00 00 00 00 00
 (2.3440)  can1  89A0C02   [8]  00 00 00 00 00 00 00 00
 (2.3440)  can1  4100209   [8]  00 00 00 00 00 00 00 00
 (2.3530)  can1  4100208   [8]  00 00 00 00 00 00 00 00
 (2.3540)  can1  4100209   [8]  00 00 00 00 00 00 00 00
 (2.3580)  can1  8100302   [5]  00 04 0A 00 05
 (2.3630)  can1  4100208   [8]  00 00 00 00 00 00 00 00
 (2.3640)  can1  8030C02   [8]  00 00 2A 68 2A 68 92 17
 (2.3640)  can1  8580C02   [8]  00 00 00 00 00 00 00 00
 (2.3640)  can1  89A0C02   [8]  00 00 00 00 00 00 00 00
 (2.3650)  can1  4100209   [8]  00 00 00 00 00 00 00 00
 (2.3660)  can1  8041001   [8]  CC 00 E0 15 18 97 1B 00
 (2.3660)  can1  18800401   [8]  06 B1 82 2F 83 71 83 00
 (2.3660)  can1  18840401   [8]  06 B0 82 2E 83 70 83 00
 (2.3670)  can1  18C00401   [8]  06 B9 30 70 33 C0 30 00
 (2.3730)  can1  4100208   [8]  00 00 00 00 00 00 00 00
 (2.3740)  can1  4100209   [8]  00 00 00 00 00 00 00 00
 (2.3830)  can1  4100208   [8]  00 00 00 00 00 00 00 00
 (2.3830)  can1  8100302   [5]  00 01 0A 00 05
 (2.3840)  can1  8580C02   [8]  00 00 00 00 00 00 00 00
 (2.3850)  can1  89A0C02   [8]  00 00 00 00 00 00 00 00
 (2.3850)  can1  8030C02   [8]  00 00 2A 68 2A 68 92 17
 (2.3850)  can1  4100209   [8]  00 00 00 00 00 00 00 00
 (2.3870)  can1  8101201   [8]  00 00 49 84 2E 74 00 00
 (2.3880)  can1  8010C01   [8]  00 00 00 00 00 00 00 00
 (2.3930)  can1  4100208   [8]  00 00 00 00 00 00 00 00
 (2.3940)  can1  4100209   [8]  00 00 00 00 00 00 00 00
 (2.4030)  can1  4100208   [8]  00 00 00 00 00 00 00 00
 (2.4030)  can1  8030C02   [8]  00 00 2A 68 2A 68 92 17
 (2.4040)  can1  8580C02   [8]  00 00 00 00 00 00 00 00
 (2.4040)  can1  89A0C02   [8]  00 00 00 00 00 00 00 00
 (2.4040)  can1  4100209   [8]  00 00 00 00 00 00 00 00
 (2.4080)  can1  8100302   [5]  00 04 0A 00 05
 (2.4130)  can1  4100208   [8]  00 00 00 00 00 00 00 00
 (2.4140)  can1  4100209   [8]  00 00 00 00 00 00 00 00
 (2.4150)  can1  18800401   [8]  07 71 83 1D 83 83 82 00
 (2.4160)  can1  18840401   [8]  07 70 83 1D 83 83 82 00
 (2.4160)  can1  18C00401   [8]  07 83 33 8A 30 5D 33 00
 (2.4230)  can1  4100208   [8]  00 00 00 00 00 00 00 00
 (2.4230)  can1  8030C02   [8]  00 00 2A 68 2A 68 92 17
 (2.4240)  can1  8580C02   [8]  00 00 00 00 00 00 00 00
 (2.4240)  can1  89A0C02   [8]  00 00 00 00 00 00 00 00
 (2.4250)  can1  4100209   [8]  00 00 00 00 00 00 00 00
 (2.4330)  can1  4100208   [8]  00 00 00 00 00 00 00 00
 (2.4330)  can1  8100302   [5]  00 02 0A 00 05
 (2.4340)  can1  4100209   [8]  00 00 00 00 00 00 00 00
 (2.4430)  can1  4100208   [8]  00 00 00 00 00 00 00 00
 (2.4430)  can1  8030C02   [8]  00 00 2A 68 2A 68 92 17
 (2.4440)  can1  8580C02   [8]  00 00 00 00 00 00 00 00
 (2.4440)  can1  89A0C02   [8]  00 00 00 00 00 00 00 00
 (2.4450)  can1  4100209   [8]  00 00 00 00 00 00 00 00
 (2.4530)  can1  4100208   [8]  00 00 00 00 00 00 00 00
 (2.4540)  can1  4100209   [8]  00 00 00 00 00 00 00 00
 (2.4580)  can1  8100302   [5]  00 04 0A 00 05
 (2.4630)  can1  4100208   [8]  00 00 00 00 00 00 00 00
 (2.4630)  can1  8030C02   [8]  00 00 2A 68 2A 68 92 17
 (2.4640)  can1  8580C02   [8]  00 00 00 00 00 00 00 00
 (2.4640)  can1  89A0C02   [8]  00 00 00 00 00 00 00 00
 (2.4640)  can1  4100209   [8]  00 00 00 00 00 00 00 00
 (2.4650)  can1  8041001   [8]  CC 00 E0 15 18 97 1B 00
 (2.4650)  can1  18800401   [8]  08 45 82 30 74 5C 83 00
 (2.4650)  can1  18840401   [8]  08 43 82 2F 74 5C 83 00
 (2.4660)  can1  18C00401   [8]  08 3B 30 3B 33 E5 2F 00
 (2.4730)  can1  4100208   [8]  00 00 00 00 00 00 00 00
 (2.4740)  can1  4100209   [8]  00 00 00 00 00 00 00 00
 (2.4830)  can1  4100208   [8]  00 00 00 00 00 00 00 00
 (2.4850)  can1  8100302   [5]  00 03 0A 00 05
 (2.4860)  can1  8580C02   [8]  00 00 00 00 00 00 00 00
 (2.4860)  can1  89A0C02   [8]  00 00 00 00 00 00 00 00
 (2.4860)  can1  8030C02   [8]  00 00 2A 68 2A 68 92 17
 (2.4870)  can1  4100209   [8]  00 00 00 00 00 00 00 00
 (2.4890)  can1  8101201   [8]  00 00 49 84 2F 74 02 00
 (2.4890)  can1  8010C01   [8]  00 00 00 00 00 00 00 00
 (2.4930)  can1  4100208   [8]  00 00 00 00 00 00 00 00
 (2.4940)  can1  4100209   [8]  00 00 00 00 00 00 00 00
 (2.5030)  can1  4100208   [8]  00 00 00 00 00 00 00 00
 (2.5040)  can1  8030C02   [8]  00 00 2A 68 2A 68 92 17
 (2.5040)  can1  8580C02   [8]  00 00 00 00 00 00 00 00
 (2.5050)  can1  89A0C02   [8]  00 00 00 00 00 00 00 00
 (2.5050)  can1  4100209   [8]  00 00 00 00 00 00 00 00
 (2.5080)  can1  8100302   [5]  00 03 0A 00 05
 (2.5130)  can1  4100208   [8]  00 00 00 00 00 00 00 00
 (2.5140)  can1  4100209   [8]  00 00 00 00 00 00 00 00
 (2.5160)  can1  18800401   [8]  09 F1 83 34 83 94 82 00
 (2.5160)  can1  18840401   [8]  09 F1 83 33 83 93 82 00
 (2.5170)  can1  18C00401   [8]  09 AA 32 DF 2E 75 31 00
 (2.5230)  can1  4100208   [8]  00 00 00 00 00 00 00 00
 (2.5230)  can1  8030C02   [8]  00 00 2A 68 2A 68 92 17
 (2.5240)  can1  8580C02   [8]  00 00 00 00 00 00 00 00
 (2.5250)  can1  89A0C02   [8]  00 00 00 00 00 00 00 00
 (2.5260)  can1  4100209   [8]  00 00 00 00 00 00 00 00
 (2.5330)  can1  4100208   [8]  00 00 00 00 00 00 00 00
 (2.5340)  can1  8100302   [5]  00 00 0A 00 05
 (2.5340)  can1  4100209   [8]  00 00 00 00 00 00 00 00
 (2.5430)  can1  4100208   [8]  00 00 00 00 00 00 00 00
 (2.5440)  can1  8030C02   [8]  00 00 2A 68 2A 68 92 17
 (2.5440)  can1  8580C02   [8]  00 00 00 00 00 00 00 00
 (2.5450)  can1  89A0C02   [8]  00 00 00 00 00 00 00 00
 (2.5450)  can1  4100209   [8]  00 00 00 00 00 00 00 00
 (2.5530)  can1  4100208   [8]  00 00 00 00 00 00 00 00
 (2.5540)  can1  4100209   [8]  00 00 00 00 00 00 00 00
 (2.5580)  can1  8100302   [5]  00 00 0A 00 05
 (2.5630)  can1  4100208   [8]  00 00 00 00 00 00 00 00
 (2.5630)  can1  8030C02   [8]  00 00 2A 68 2A 68 92 17
 (2.5640)  can1  8580C02   [8]  00 00 00 00 00 00 00 00
 (2.5640)  can1  89A0C02   [8]  00 00 00 00 00 00 00 00
 (2.5650)  can1  4100209   [8]  00 00 00 00 00 00 00 00
 (2.5660)  can1  8041001   [8]  CC 00 E0 15 18 97 1B 00
 (2.5660)  can1  18800401   [8]  0A D1 81 53 82 BF 82 00
 (2.5670)  can1  18840401   [8]  0A D0 81 52 82 BD 82 00
 (2.5680)  can1  18C00401   [8]  0A 3A 30 C3 32 C4 30 00
 (2.5730)  can1  4100208   [8]  00 00 00 00 00 00 00 00
 (2.5740)  can1  4100209   [8]  00 00 00 00 00 00 00 00
 (2.5830)  can1  4100208   [8]  00 00 00 00 00 00 00 00
 (2.5840)  can1  8100302   [5]  00 07 0A 00 05
 (2.5840)  can1  8580C02   [8]  00 00 00 00 00 00 00 00
 (2.5850)  can1  89A0C02   [8]  00 00 00 00 00 00 00 00
 (2.5860)  can1  8030C02   [8]  00 00 2A 68 2A 68 92 17
 (2.5860)  can1  4100209   [8]  00 00 00 00 00 00 00 00
 (2.5900)  can1  8101201   [8]  00 00 4A 84 2F 74 00 00
 (2.5900)  can1  8010C01   [8]  00 00 00 00 00 00 00 00
 (2.5930)  can1  4100208   [8]  00 00 00 00 00 00 00 00
 (2.5940)  can1  4100209   [8]  00 00 00 00 00 00 00 00
 (2.6030)  can1  4100208   [8]  00 00 00 00 00 00 00 00
 (2.6040)  can1  8030C02   [8]  00 00 2A 68 2A 68 92 17
 (2.6040)  can1  8580C02   [8]  00 00 00 00 00 00 00 00
 (2.6050)  can1  89A0C02   [8]  00 00 00 00 00 00 00 00
 (2.6050)  can1  4100209   [8]  00 00 00 00 00 00 00 00
 (2.6080)  can1  8100302   [5]  00 04 0A 00 05
 (2.6130)  can1  404FF03   [1]  00
 (2.6130)  can1  4100208   [8]  00 00 00 00 00 00 00 00
 (2.6140)  can1  4100209   [8]  00 00 00 00 00 00 00 00
 (2.6140)  can1  8250C03   [8]  00 00 00 00 00 00 00 00
 (2.6150)  can1  8840C03   [8]  26 00 10 00 15 00 07 00
 (2.6150)  can1  88D0C03   [8]  10 00 00 00 00 00 00 00
 (2.6160)  can1  18800401   [8]  0B 03 83 2D 83 4E 83 00
 (2.6170)  can1  18840401   [8]  0B 02 83 2C 83 4E 83 00
 (2.6170)  can1  18C00401   [8]  0B 46 33 F6 30 4B 33 00
 (2.6230)  can1  404FF07   [1]  00
 (2.6230)  can1  4100208   [8]  00 00 00 00 00 00 00 00
 (2.6240)  can1  8030C02   [8]  00 00 2A 68 2A 68 92 17
 (2.6250)  can1  8580C02   [8]  00 00 00 00 00 00 00 00
 (2.6250)  can1  89A0C02   [8]  00 00 00 00 00 00 00 00
 (2.6260)  can1  4100209   [8]  00 00 00 00 00 00 00 00
 (2.6330)  can1  4100208   [8]  00 00 00 00 00 00 00 00
 (2.6340)  can1  8100302   [5]  00 03 0A 00 05
 (2.6360)  can1  4100209   [8]  00 00 00 00 00 00 00 00
 (2.6430)  can1  4100208   [8]  00 00 00 00 00 00 00 00
 (2.6430)  can1  8030C02   [8]  00 00 2A 68 2A 68 92 17
 (2.6440)  can1  8580C02   [8]  00 00 00 00 00 00 00 00
 (2.6450)  can1  89A0C02   [8]  00 00 00 00 00 00 00 00
 (2.6450)  can1  4100209   [8]  00 00 00 00 00 00 00 00
 (2.6530)  can1  4100208   [8]  00 00 00 00 00 00 00 00
 (2.6540)  can1  4100209   [8]  00 00 00 00 00 00 00 00
 (2.6580)  can1  8100302   [5]  00 05 0A 00 05
 (2.6630)  can1  4100208   [8]  00 00 00 00 00 00 00 00
 (2.6630)  can1  8030C02   [8]  00 00 2A 68 2A 68 92 17
 (2.6640)  can1  404FF01   [1]  00
 (2.6640)  can1  8580C02   [8]  00 00 00 00 00 00 00 00
 (2.6640)  can1  89A0C02   [8]  00 00 00 00 00 00 00 00
 (2.6650)  can1  4100209   [8]  00 00 00 00 00 00 00 00
 (2.6660)  can1  8041001   [8]  CC 00 E0 15 18 97 1B 00
 (2.6660)  can1  8120C01   [8]  63 00 00 00 00 00 00 00
 (2.6670)  can1  80F1201   [4]  0E 10 00 00
 (2.6680)  can1  18800401   [8]  0C 23 83 8E 82 92 82 00
 (2.6680)  can1  18840401   [8]  0C 23 83 8E 82 92 82 00
 (2.6690)  can1  18C00401   [8]  0C A0 30 E7 32 4E 30 00
 (2.6860)  can1  4100208   [8]  00 00 00 00 00 00 00 00
 (2.6870)  can1  4100209   [8]  00 00 00 00 00 00 00 00
 (2.6870)  can1  4100208   [8]  00 00 00 00 00 00 00 00
 (2.6880)  can1  404FF02   [1]  00
 (2.6880)  can1  8100302   [5]  00 07 0A 00 05
 (2.6880)  can1  89A0C02   [8]  00 00 00 00 00 00 00 00
 (2.6890)  can1  8580C02   [8]  00 00 00 00 00 00 00 00
 (2.6890)  can1  4100209   [8]  00 00 00 00 00 00 00 00
 (2.6900)  can1  8030C02   [8]  00 00 2A 68 2A 68 92 17
 (2.6910)  can1  8101201   [8]  00 00 47 84 2F 74 01 00
 (2.6910)  can1  8010C01   [8]  00 00 00 00 00 00 00 00
 (2.6930)  can1  4100208   [8]  00 00 00 00 00 00 00 00
 (2.6940)  can1  4100209   [8]  00 00 00 00 00 00 00 00
 (2.7050)  can1  4100208   [8]  00 00 00 00 00 00 00 00
 (2.7050)  can1  8030C02   [8]  00 00 2A 68 2A 68 92 17
 (2.7060)  can1  8580C02   [8]  00 00 00 00 00 00 00 00
 (2.7060)  can1  89A0C02   [8]  00 00 00 00 00 00 00 00
 (2.7070)  can1  4100209   [8]  00 00 00 00 00 00 00 00
 (2.7080)  can1  8100302   [5]  00 03 0A 00 05
 (2.7130)  can1  18101203   [4]  49 2C 63 01
 (2.7140)  can1  4100208   [8]  00 00 00 00 00 00 00 00
 (2.7150)  can1  4100209   [8]  00 00 00 00 00 00 00 00
 (2.7150)  can1  18800401   [8]  0D E5 82 23 83 5E 83 00
 (2.7160)  can1  18840401   [8]  0D E4 82 23 83 5E 83 00
 (2.7170)  can1  18C00401   [8]  0D 53 32 D9 2F 3F 31 00
 (2.7230)  can1  4100208   [8]  00 00 00 00 00 00 00 00
 (2.7230)  can1  8030C02   [8]  00 00 2A 68 2A 68 92 17
 (2.7240)  can1  8580C02   [8]  00 00 00 00 00 00 00 00
 (2.7250)  can1  89A0C02   [8]  00 00 00 00 00 00 00 00
 (2.7250)  can1  4100209   [8]  00 00 00 00 00 00 00 00
 (2.7330)  can1  4100208   [8]  00 00 00 00 00 00 00 00
 (2.7340)  can1  8100302   [5]  00 01 0A 00 05
 (2.7350)  can1  4100209   [8]  00 00 00 00 00 00 00 00
 (2.7430)  can1  4100208   [8]  00 00 00 00 00 00 00 00
 (2.7430)  can1  8030C02   [8]  00 00 2A 68 2A 68 92 17
 (2.7440)  can1  8580C02   [8]  00 00 00 00 00 00 00 00
 (2.7440)  can1  89A0C02   [8]  00 00 00 00 00 00 00 00
 (2.7450)  can1  4100209   [8]  00 00 00 00 00 00 00 00
 (2.7530)  can1  4100208   [8]  00 00 00 00 00 00 00 00
 (2.7540)  can1  4100209   [8]  00 00 00 00 00 00 00 00
 (2.7580)  can1  8100302   [5]  00 04 0A 00 05
 (2.7630)  can1  4100208   [8]  00 00 00 00 00 00 00 00
 (2.7640)  can1  8030C02   [8]  00 00 2A 68 2A 68 92 17
 (2.7640)  can1  8580C02   [8]  00 00 00 00 00 00 00 00
 (2.7650)  can1  89A0C02   [8]  00 00 00 00 00 00 00 00
 (2.7650)  can1  4100209   [8]  00 00 00 00 00 00 00 00
 (2.7660)  can1  8041001   [8]  CC 00 E0 15 18 97 1B 00
 (2.7660)  can1  18800401   [8]  0E D4 82 42 82 C2 81 00
 (2.7670)  can1  18840401   [8]  0E D4 82 41 82 C1 81 00
 (2.7680)  can1  18C00401   [8]  0E EC 2E C9 31 FB 2F 00
 (2.7730)  can1  4100208   [8]  00 00 00 00 00 00 00 00
 (2.7740)  can1  4100209   [8]  00 00 00 00 00 00 00 00
 (2.7830)  can1  4100208   [8]  00 00 00 00 00 00 00 00
 (2.7830)  can1  8100302   [5]  00 03 0A 00 05
 (2.7840)  can1  8580C02   [8]  00 00 00 00 00 00 00 00
 (2.7850)  can1  89A0C02   [8]  00 00 00 00 00 00 00 00
 (2.7860)  can1  8030C02   [8]  00 00 2A 68 2A 68 92 17
 (2.7860)  can1  4100209   [8]  00 00 00 00 00 00 00 00
 (2.7920)  can1  8101201   [8]  00 00 49 84 30 74 00 00
 (2.7920)  can1  8010C01   [8]  00 00 00 00 00 00 00 00
 (2.7930)  can1  4100208   [8]  00 00 00 00 00 00 00 00
 (2.7940)  can1  4100209   [8]  00 00 00 00 00 00 00 00
 (2.8030)  can1  4100208   [8]  00 00 00 00 00 00 00 00
 (2.8040)  can1  8030C02   [8]  00 00 2A 68 2A 68 92 17
 (2.8050)  can1  8580C02   [8]  00 00 00 00 00 00 00 00
 (2.8050)  can1  89A0C02   [8]  00 00 00 00 00 00 00 00
 (2.8050)  can1  4100209   [8]  00 00 00 00 00 00 00 00
 (2.8080)  can1  8100302   [5]  00 03 0A 00 05
 (2.8130)  can1  4100208   [8]  00 00 00 00 00 00 00 00
 (2.8140)  can1  4100209   [8]  00 00 00 00 00 00 00 00
 (2.8170)  can1  18800401   [8]  0F B4 80 66 82 AA 82 00
 (2.8170)  can1  18840401   [8]  0F B3 80 65 82 A9 82 00
 (2.8180)  can1  18C00401   [8]  0F C4 32 A3 30 62 33 00
 (2.8230)  can1  4100208   [8]  00 00 00 00 00 00 00 00
 (2.8230)  can1  8030C02   [8]  00 00 2A 68 2A 68 92 17
 (2.8240)  can1  8580C02   [8]  00 00 00 00 00 00 00 00
 (2.8250)  can1  89A0C02   [8]  00 00 00 00 00 00 00 00
 (2.8260)  can1  4100209   [8]  00 00 00 00 00 00 00 00
 (2.8330)  can1  4100208   [8]  00 00 00 00 00 00 00 00
 (2.8330)  can1  8100302   [5]  00 03 0A 00 05
 (2.8340)  can1  4100209   [8]  00 00 00 00 00 00 00 00
 (2.8430)  can1  4100208   [8]  00 00 00 00 00 00 00 00
 (2.8440)  can1  8030C02   [8]  00 00 2A 68 2A 68 92 17
 (2.8440)  can1  8580C02   [8]  00 00 00 00 00 00 00 00
 (2.8450)  can1  89A0C02   [8]  00 00 00 00 00 00 00 00
 (2.8450)  can1  4100209   [8]  00 00 00 00 00 00 00 00
 (2.8530)  can1  4100208   [8]  00 00 00 00 00 00 00 00
 (2.8540)  can1  4100209   [8]  00 00 00 00 00 00 00 00
 (2.8580)  can1  8100302   [5]  00 04 0A 00 05
 (2.8630)  can1  4100208   [8]  00 00 00 00 00 00 00 00
 (2.8630)  can1  8030C02   [8]  00 00 2A 68 2A 68 92 17
 (2.8640)  can1  8580C02   [8]  00 00 00 00 00 00 00 00
 (2.8640)  can1  89A0C02   [8]  00 00 00 00 00 00 00 00
 (2.8650)  can1  4100209   [8]  00 00 00 00 00 00 00 00
 (2.8660)  can1  8041001   [8]  CC 00 E0 15 18 97 1B 00
 (2.8670)  can1  18800401   [8]  10 A7 82 C3 82 9B 82 00
 (2.8670)  can1  18840401   [8]  10 A7 82 C1 82 99 82 00
 (2.8680)  can1  18C00401   [8]  10 BE 30 74 33 1A 30 00
 (2.8730)  can1  4100208   [8]  00 00 00 00 00 00 00 00
 (2.8740)  can1  4100209   [8]  00 00 00 00 00 00 00 00
 (2.8830)  can1  4100208   [8]  00 00 00 00 00 00 00 00
 (2.8830)  can1  8100302   [5]  00 03 0A 00 05
 (2.8840)  can1  8580C02   [8]  00 00 00 00 00 00 00 00
 (2.8850)  can1  89A0C02   [8]  00 00 00 00 00 00 00 00
 (2.8860)  can1  8030C02   [8]  00 00 2A 68 2A 68 92 17
 (2.8860)  can1  4100209   [8]  00 00 00 00 00 00 00 00
 (2.8930)  can1  8101201   [8]  00 00 49 84 30 74 00 00
 (2.8930)  can1  8010C01   [8]  00 00 00 00 00 00 00 00
 (2.8940)  can1  4100208   [8]  00 00 00 00 00 00 00 00
 (2.8950)  can1  4100209   [8]  00 00 00 00 00 00 00 00
 (2.9030)  can1  4100208   [8]  00 00 00 00 00 00 00 00
 (2.9030)  can1  8030C02   [8]  00 00 2A 68 2A 68 92 17
 (2.9040)  can1  8580C02   [8]  00 00 00 00 00 00 00 00
 (2.9050)  can1  89A0C02   [8]  00 00 00 00 00 00 00 00
 (2.9050)  can1  4100209   [8]  00 00 00 00 00 00 00 00
 (2.9080)  can1  8100302   [5]  00 04 0A 00 05
 (2.9130)  can1  4100208   [8]  00 00 00 00 00 00 00 00
 (2.9140)  can1  4100209   [8]  00 00 00 00 00 00 00 00
 (2.9160)  can1  18800401   [8]  11 2D 82 EF 81 37 82 00
 (2.9170)  can1  18840401   [8]  11 2C 82 EE 81 36 82 00
 (2.9170)  can1  18C00401   [8]  11 3E 33 D5 2F CC 32 00
 (2.9230)  can1  4100208   [8]  00 00 00 00 00 00 00 00
 (2.9240)  can1  8030C02   [8]  00 00 2A 68 2A 68 92 17
 (2.9240)  can1  8580C02   [8]  00 00 00 00 00 00 00 00
 (2.9250)  can1  89A0C02   [8]  00 00 00 00 00 00 00 00
 (2.9260)  can1  4100209   [8]  00 00 00 00 00 00 00 00
 (2.9330)  can1  4100208   [8]  00 00 00 00 00 00 00 00
 (2.9340)  can1  8100302   [5]  00 03 0A 00 05
 (2.9350)  can1  4100209   [8]  00 00 00 00 00 00 00 00
 (2.9430)  can1  4100208   [8]  00 00 00 00 00 00 00 00
 (2.9430)  can1  8030C02   [8]  00 00 2A 68 2A 68 92 17
 (2.9440)  can1  8580C02   [8]  00 00 00 00 00 00 00 00
 (2.9440)  can1  89A0C02   [8]  00 00 00 00 00 00 00 00
 (2.9450)  can1  4100209   [8]  00 00 00 00 00 00 00 00
 (2.9530)  can1  4100208   [8]  00 00 00 00 00 00 00 00
 (2.9540)  can1  4100209   [8]  00 00 00 00 00 00 00 00
 (2.9580)  can1  8100302   [5]  00 02 0A 00 05
 (2.9630)  can1  4100208   [8]  00 00 00 00 00 00 00 00
 (2.9630)  can1  8030C02   [8]  00 00 2A 68 2A 68 92 17
 (2.9640)  can1  8580C02   [8]  00 00 00 00 00 00 00 00
 (2.9650)  can1  89A0C02   [8]  00 00 00 00 00 00 00 00
 (2.9650)  can1  4100209   [8]  00 00 00 00 00 00 00 00
 (2.9660)  can1  8041001   [8]  CC 00 E0 15 18 97 1B 00
 (2.9660)  can1  18800401   [8]  12 BD 82 F2 82 0E 83 00
 (2.9670)  can1  18840401   [8]  12 BC 82 F1 82 0D 83 00
 (2.9670)  can1  18C00401   [8]  12 DB 31 49 2F 98 2E 00
 (2.9730)  can1  4100208   [8]  00 00 00 00 00 00 00 00
 (2.9760)  can1  4100209   [8]  00 00 00 00 00 00 00 00
 (2.9830)  can1  4100208   [8]  00 00 00 00 00 00 00 00
 (2.9830)  can1  8100302   [5]  00 03 0A 00 05
 (2.9840)  can1  8580C02   [8]  00 00 00 00 00 00 00 00
 (2.9850)  can1  89A0C02   [8]  00 00 00 00 00 00 00 00
 (2.9850)  can1  8030C02   [8]  00 00 2A 68 2A 68 92 17
 (2.9860)  can1  4100209   [8]  00 00 00 00 00 00 00 00
 (2.9930)  can1  4100208   [8]  00 00 00 00 00 00 00 00
 (2.9940)  can1  8101201   [8]  00 00 4A 84 30 74 01 00
 (2.9940)  can1  8010C01   [8]  00 00 00 00 00 00 00 00
 (2.9950)  can1  4100209   [8]  00 00 00 00 00 00 00 00
 (3.0030)  can1  4100208   [8]  00 00 00 00 00 00 00 00
 (3.0030)  can1  8030C02   [8]  00 00 2A 68 2A 68 92 17
 (3.0030)  can1  8580C02   [8]  00 00 00 00 00 00 00 00
 (3.0040)  can1  89A0C02   [8]  00 00 00 00 00 00 00 00
 (3.0040)  can1  4100209   [8]  00 00 00 00 00 00 00 00
 (3.0080)  can1  8100302   [5]  00 03 0A 00 05
 (3.0130)  can1  4100208   [8]  00 00 00 00 00 00 00 00
 (3.0160)  can1  4100209   [8]  00 00 00 00 00 00 00 00
 (3.0160)  can1  18800401   [8]  13 B0 82 0E 82 4B 82 00
 (3.0170)  can1  18840401   [8]  13 B0 82 0A 82 4A 82 00
 (3.0170)  can1  18C00401   [8]  13 EC 30 A1 2F 17 32 00
 (3.0230)  can1  4100208   [8]  00 00 00 00 00 00 00 00
 (3.0240)  can1  8030C02   [8]  00 00 2A 68 2A 68 92 17
 (3.0240)  can1  8580C02   [8]  00 00 00 00 00 00 00 00
 (3.0250)  can1  89A0C02   [8]  00 00 00 00 00 00 00 00
 (3.0250)  can1  4100209   [8]  00 00 00 00 00 00 00 00
 (3.0330)  can1  4100208   [8]  00 00 00 00 00 00 00 00
 (3.0340)  can1  8100302   [5]  00 03 0A 00 05
 (3.0350)  can1  4100209   [8]  00 00 00 00 00 00 00 00
 (3.0430)  can1  4100208   [8]  00 00 00 00 00 00 00 00
 (3.0430)  can1  8030C02   [8]  00 00 2A 68 2A 68 92 17
 (3.0440)  can1  8580C02   [8]  00 00 00 00 00 00 00 00
 (3.0450)  can1  89A0C02   [8]  00 00 00 00 00 00 00 00
 (3.0450)  can1  4100209   [8]  00 00 00 00 00 00 00 00
 (3.0530)  can1  4100208   [8]  00 00 00 00 00 00 00 00
 (3.0540)  can1  4100209   [8]  00 00 00 00 00 00 00 00
 (3.0580)  can1  8100302   [5]  00 03 0A 00 05
 (3.0630)  can1  4100208   [8]  00 00 00 00 00 00 00 00
 (3.0630)  can1  8030C02   [8]  00 00 2A 68 2A 68 92 17
 (3.0640)  can1  8580C02   [8]  00 00 00 00 00 00 00 00
 (3.0640)  can1  89A0C02   [8]  00 00 00 00 00 00 00 00
 (3.0650)  can1  4100209   [8]  00 00 00 00 00 00 00 00
 (3.0660)  can1  8041001   [8]  CC 00 E0 15 18 97 1B 00
 (3.0660)  can1  18800401   [8]  14 DE 82 03 83 12 83 00
 (3.0670)  can1  18840401   [8]  14 DB 82 02 83 12 83 00
 (3.0670)  can1  18C00401   [8]  14 39 30 B6 32 7F 30 00
 (3.0730)  can1  4100208   [8]  00 00 00 00 00 00 00 00
 (3.0740)  can1  4100209   [8]  00 00 00 00 00 00 00 00
 (3.0830)  can1  4100208   [8]  00 00 00 00 00 00 00 00
 (3.0840)  can1  8100302   [5]  00 03 0A 00 05
 (3.0840)  can1  8580C02   [8]  00 00 00 00 00 00 00 00
 (3.0850)  can1  89A0C02   [8]  00 00 00 00 00 00 00 00
 (3.0850)  can1  8030C02   [8]  00 00 2A 68 2A 68 92 17
 (3.0860)  can1  4100209   [8]  00 00 00 00 00 00 00 00
 (3.0930)  can1  4100208   [8]  00 00 00 00 00 00 00 00
 (3.0960)  can1  4100209   [8]  00 00 00 00 00 00 00 00
 (3.0960)  can1  8010C01   [8]  00 00 00 00 00 00 00 00
 (3.0970)  can1  8101201   [8]  00 00 49 84 31 74 00 00
 (3.1030)  can1  4100208   [8]  00 00 00 00 00 00 00 00
 (3.1030)  can1  8030C02   [8]  00 00 2A 68 2A 68 92 17
 (3.1040)  can1  8580C02   [8]  00 00 00 00 00 00 00 00
 (3.1050)  can1  89A0C02   [8]  00 00 00 00 00 00 00 00
 (3.1050)  can1  4100209   [8]  00 00 00 00 00 00 00 00
 (3.1080)  can1  8100302   [5]  00 03 0A 00 05
 (3.1130)  can1  4100208   [8]  00 00 00 00 00 00 00 00
 (3.1140)  can1  4100209   [8]  00 00 00 00 00 00 00 00
 (3.1160)  can1  18800401   [8]  15 5D 83 F6 82 77 82 00
 (3.1170)  can1  18840401   [8]  15 5B 83 F5 82 75 82 00
 (3.1170)  can1  18C00401   [8]  15 F8 32 1F 30 A3 32 00
 (3.1230)  can1  4100208   [8]  00 00 00 00 00 00 00 00
 (3.1230)  can1  8030C02   [8]  00 00 2A 68 2A 68 92 17
 (3.1240)  can1  8580C02   [8]  00 00 00 00 00 00 00 00
 (3.1250)  can1  89A0C02   [8]  00 00 00 00 00 00 00 00
 (3.1250)  can1  4100209   [8]  00 00 00 00 00 00 00 00
 (3.1330)  can1  4100208   [8]  00 00 00 00 00 00 00 00
 (3.1330)  can1  8100302   [5]  00 03 0A 00 05
 (3.1360)  can1  4100209   [8]  00 00 00 00 00 00 00 00
 (3.1430)  can1  4100208   [8]  00 00 00 00 00 00 00 00
 (3.1430)  can1  8030C02   [8]  00 00 2A 68 2A 68 92 17
 (3.1440)  can1  8580C02   [8]  00 00 00 00 00 00 00 00
 (3.1440)  can1  89A0C02   [8]  00 00 00 00 00 00 00 00
 (3.1450)  can1  4100209   [8]  00 00 00 00 00 00 00 00
 (3.1530)  can1  4100208   [8]  00 00 00 00 00 00 00 00
 (3.1560)  can1  4100209   [8]  00 00 00 00 00 00 00 00
 (3.1580)  can1  8100302   [5]  00 03 0A 00 05
 (3.1630)  can1  4100208   [8]  00 00 00 00 00 00 00 00
 (3.1630)  can1  8030C02   [8]  00 00 2A 68 2A 68 92 17
 (3.1640)  can1  8580C02   [8]  00 00 00 00 00 00 00 00
 (3.1650)  can1  89A0C02   [8]  00 00 00 00 00 00 00 00
 (3.1660)  can1  4100209   [8]  00 00 00 00 00 00 00 00
 (3.1660)  can1  8041001   [8]  CC 00 E0 15 18 97 1B 00
 (3.1670)  can1  18800401   [8]  16 26 82 B1 82 0C 83 00
 (3.1670)  can1  18840401   [8]  16 25 82 AF 82 0B 83 00
 (3.1680)  can1  18C00401   [8]  16 E7 2F 31 32 7E 2F 00
 (3.1730)  can1  4100208   [8]  00 00 00 00 00 00 00 00
 (3.1740)  can1  4100209   [8]  00 00 00 00 00 00 00 00
 (3.1830)  can1  4100208   [8]  00 00 00 00 00 00 00 00
 (3.1840)  can1  8100302   [5]  00 03 0A 00 05
 (3.1840)  can1  8580C02   [8]  00 00 00 00 00 00 00 00
 (3.1850)  can1  89A0C02   [8]  00 00 00 00 00 00 00 00
 (3.1850)  can1  8030C02   [8]  00 00 2A 68 2A 68 92 17
 (3.1860)  can1  4100209   [8]  00 00 00 00 00 00 00 00
 (3.1930)  can1  4100208   [8]  00 00 00 00 00 00 00 00
 (3.1960)  can1  4100209   [8]  00 00 00 00 00 00 00 00
 (3.1960)  can1  8101201   [8]  00 00 4A 84 31 74 02 00
 (3.1970)  can1  8010C01   [8]  00 00 00 00 00 00 00 00
 (3.2030)  can1  4100208   [8]  00 00 00 00 00 00 00 00
 (3.2040)  can1  8030C02   [8]  00 00 2A 68 2A 68 92 17
 (3.2040)  can1  8580C02   [8]  00 00 00 00 00 00 00 00
 (3.2050)  can1  89A0C02   [8]  00 00 00 00 00 00 00 00
 (3.2060)  can1  4100209   [8]  00 00 00 00 00 00 00 00
 (3.2080)  can1  8100302   [5]  00 03 0A 00 05
 (3.2130)  can1  18101203   [4]  2B 2C 4D 01
 (3.2130)  can1  4100208   [8]  00 00 00 00 00 00 00 00
 (3.2140)  can1  4100209   [8]  00 00 00 00 00 00 00 00
 (3.2160)  can1  18800401   [8]  17 40 83 00 00 00 00 00
 (3.2160)  can1  18840401   [8]  17 3E 83 00 00 00 00 00
 (3.2170)  can1  18C00401   [8]  17 27 31 10 27 10 27 00
 (3.2230)  can1  4100208   [8]  00 00 00 00 00 00 00 00
 (3.2240)  can1  8030C02   [8]  00 00 2A 68 2A 68 92 17
 (3.2240)  can1  8580C02   [8]  00 00 00 00 00 00 00 00
 (3.2250)  can1  89A0C02   [8]  00 00 00 00 00 00 00 00
 (3.2250)  can1  4100209   [8]  00 00 00 00 00 00 00 00
 (3.2330)  can1  4100208   [8]  00 00 00 00 00 00 00 00
 (3.2330)  can1  8100302   [5]  00 03 0A 00 05
 (3.2360)  can1  4100209   [8]  00 00 00 00 00 00 00 00
 (3.2430)  can1  4100208   [8]  00 00 00 00 00 00 00 00
 (3.2430)  can1  8030C02   [8]  00 00 2A 68 2A 68 92 17
 (3.2440)  can1  8580C02   [8]  00 00 00 00 00 00 00 00
 (3.2450)  can1  89A0C02   [8]  00 00 00 00 00 00 00 00
 (3.2450)  can1  4100209   [8]  00 00 00 00 00 00 00 00
 (3.2530)  can1  4100208   [8]  00 00 00 00 00 00 00 00
 (3.2540)  can1  4100209   [8]  00 00 00 00 00 00 00 00
 (3.2580)  can1  8100302   [5]  00 04 0A 00 05
 (3.2630)  can1  4100208   [8]  00 00 00 00 00 00 00 00
 (3.2630)  can1  8030C02   [8]  00 00 2A 68 2A 68 92 17
 (3.2640)  can1  8580C02   [8]  00 00 00 00 00 00 00 00
 (3.2640)  can1  89A0C02   [8]  00 00 00 00 00 00 00 00
 (3.2650)  can1  4100209   [8]  00 00 00 00 00 00 00 00
 (3.2660)  can1  8041001   [8]  CC 00 D0 15 18 97 1B 00
 (3.2660)  can1  18800401   [8]  00 4A 84 0A 82 3F 81 00
 (3.2670)  can1  18840401   [8]  00 49 84 09 82 3E 81 00
 (3.2670)  can1  18C00401   [8]  00 17 31 8B 2E 68 32 00
 (3.2730)  can1  4100208   [8]  00 00 00 00 00 00 00 00
 (3.2740)  can1  4100209   [8]  00 00 00 00 00 00 00 00
 (3.2830)  can1  4100208   [8]  00 00 00 00 00 00 00 00
 (3.2840)  can1  8100302   [5]  00 03 0A 00 05
 (3.2840)  can1  8580C02   [8]  00 00 00 00 00 00 00 00
 (3.2850)  can1  89A0C02   [8]  00 00 00 00 00 00 00 00
 (3.2850)  can1  8030C02   [8]  00 00 2A 68 2A 68 92 17
 (3.2860)  can1  4100209   [8]  00 00 00 00 00 00 00 00
 (3.2930)  can1  4100208   [8]  00 00 00 00 00 00 00 00
 (3.2940)  can1  4100209   [8]  00 00 00 00 00 00 00 00
 (3.2970)  can1  8101201   [8]  00 00 4A 84 31 74 02 00
 (3.2980)  can1  8010C01   [8]  00 00 00 00 00 00 00 00
 (3.3030)  can1  4100208   [8]  00 00 00 00 00 00 00 00
 (3.3030)  can1  8030C02   [8]  00 00 2A 68 2A 68 92 17
 (3.3040)  can1  8580C02   [8]  00 00 00 00 00 00 00 00
 (3.3050)  can1  89A0C02   [8]  00 00 00 00 00 00 00 00
 (3.3050)  can1  4100209   [8]  00 00 00 00 00 00 00 00
 (3.3080)  can1  8100302   [5]  00 03 0A 00 05
 (3.3130)  can1  4100208   [8]  00 00 00 00 00 00 00 00
 (3.3140)  can1  4100209   [8]  00 00 00 00 00 00 00 00
 (3.3160)  can1  18800401   [8]  01 BA 81 45 82 F3 81 00
 (3.3160)  can1  18840401   [8]  01 B9 81 44 82 F2 81 00
 (3.3160)  can1  18C00401   [8]  01 E4 2F 0E 33 AE 30 00
 (3.3230)  can1  4100208   [8]  00 00 00 00 00 00 00 00
 (3.3240)  can1  8030C02   [8]  00 00 2A 68 2A 68 92 17
 (3.3250)  can1  8580C02   [8]  00 00 00 00 00 00 00 00
 (3.3250)  can1  89A0C02   [8]  00 00 00 00 00 00 00 00
 (3.3250)  can1  4100209   [8]  00 00 00 00 00 00 00 00
 (3.3330)  can1  4100208   [8]  00 00 00 00 00 00 00 00
 (3.3330)  can1  8100302   [5]  00 04 0A 00 05
 (3.3360)  can1  4100209   [8]  00 00 00 00 00 00 00 00
 (3.3430)  can1  4100208   [8]  00 00 00 00 00 00 00 00
 (3.3440)  can1  8030C02   [8]  00 00 2A 68 2A 68 92 17
 (3.3440)  can1  8580C02   [8]  00 00 00 00 00 00 00 00
 (3.3450)  can1  89A0C02   [8]  00 00 00 00 00 00 00 00
 (3.3450)  can1  4100209   [8]  00 00 00 00 00 00 00 00
 (3.3530)  can1  4100208   [8]  00 00 00 00 00 00 00 00
 (3.3540)  can1  4100209   [8]  00 00 00 00 00 00 00 00
 (3.3580)  can1  8100302   [5]  00 03 0A 00 05
 (3.3630)  can1  4100208   [8]  00 00 00 00 00 00 00 00
 (3.3630)  can1  8030C02   [8]  00 00 2A 68 2A 68 92 17
 (3.3640)  can1  8580C02   [8]  00 00 00 00 00 00 00 00
 (3.3650)  can1  89A0C02   [8]  00 00 00 00 00 00 00 00
 (3.3660)  can1  4100209   [8]  00 00 00 00 00 00 00 00
 (3.3660)  can1  8041001   [8]  CC 00 D0 15 18 97 1B 00
 (3.3670)  can1  18800401   [8]  02 6F 82 65 83 11 83 00
 (3.3670)  can1  18840401   [8]  02 6D 82 65 83 11 83 00
 (3.3680)  can1  18C00401   [8]  02 08 33 C1 30 AA 32 00
 (3.3730)  can1  4100208   [8]  00 00 00 00 00 00 00 00
 (3.3740)  can1  4100209   [8]  00 00 00 00 00 00 00 00
 (3.3830)  can1  4100208   [8]  00 00 00 00 00 00 00 00
 (3.3830)  can1  8100302   [5]  00 03 0A 00 05
 (3.3830)  can1  8580C02   [8]  00 00 00 00 00 00 00 00
 (3.3840)  can1  89A0C02   [8]  00 00 00 00 00 00 00 00
 (3.3840)  can1  8030C02   [8]  00 00 2A 68 2A 68 92 17
 (3.3860)  can1  4100209   [8]  00 00 00 00 00 00 00 00
 (3.3930)  can1  4100208   [8]  00 00 00 00 00 00 00 00
 (3.3960)  can1  4100209   [8]  00 00 00 00 00 00 00 00
 (3.3980)  can1  8101201   [8]  00 00 4C 84 32 74 01 00
 (3.3980)  can1  8010C01   [8]  00 00 00 00 00 00 00 00
 (3.4030)  can1  4100208   [8]  00 00 00 00 00 00 00 00
 (3.4040)  can1  8030C02   [8]  00 00 2A 68 2A 68 92 17
 (3.4040)  can1  8580C02   [8]  00 00 00 00 00 00 00 00
 (3.4050)  can1  89A0C02   [8]  00 00 00 00 00 00 00 00
 (3.4050)  can1  4100209   [8]  00 00 00 00 00 00 00 00
 (3.4080)  can1  8100302   [5]  00 03 0A 00 05
 (3.4130)  can1  4100208   [8]  00 00 00 00 00 00 00 00
 (3.4160)  can1  4100209   [8]  00 00 00 00 00 00 00 00
 (3.4160)  can1  18800401   [8]  03 A0 82 7A 82 D5 82 00
 (3.4170)  can1  18840401   [8]  03 9F 82 79 82 D4 82 00
 (3.4170)  can1  18C00401   [8]  03 9A 30 26 32 18 30 00
 (3.4230)  can1  4100208   [8]  00 00 00 00 00 00 00 00
 (3.4230)  can1  8030C02   [8]  00 00 2A 68 2A 68 92 17
 (3.4240)  can1  8580C02   [8]  00 00 00 00 00 00 00 00
 (3.4250)  can1  89A0C02   [8]  00 00 00 00 00 00 00 00
 (3.4250)  can1  4100209   [8]  00 00 00 00 00 00 00 00
 (3.4330)  can1  4100208   [8]  00 00 00 00 00 00 00 00
 (3.4340)  can1  8100302   [5]  00 04 0A 00 05
 (3.4350)  can1  4100209   [8]  00 00 00 00 00 00 00 00
 (3.4430)  can1  4100208   [8]  00 00 00 00 00 00 00 00
 (3.4440)  can1  8030C02   [8]  00 00 2A 68 2A 68 92 17
 (3.4440)  can1  8580C02   [8]  00 00 00 00 00 00 00 00
 (3.4450)  can1  89A0C02   [8]  00 00 00 00 00 00 00 00
 (3.4460)  can1  4100209   [8]  00 00 00 00 00 00 00 00
 (3.4530)  can1  4100208   [8]  00 00 00 00 00 00 00 00
 (3.4560)  can1  4100209   [8]  00 00 00 00 00 00 00 00
 (3.4580)  can1  8100302   [5]  00 02 0A 00 05
 (3.4630)  can1  4100208   [8]  00 00 00 00 00 00 00 00
 (3.4640)  can1  8030C02   [8]  00 00 2A 68 2A 68 92 17
 (3.4640)  can1  8580C02   [8]  00 00 00 00 00 00 00 00
 (3.4650)  can1  89A0C02   [8]  00 00 00 00 00 00 00 00
 (3.4650)  can1  4100209   [8]  00 00 00 00 00 00 00 00
 (3.4660)  can1  8041001   [8]  CC 00 D0 15 18 97 1B 00
 (3.4660)  can1  18800401   [8]  04 17 83 7C 83 0E 75 00
 (3.4670)  can1  18840401   [8]  04 17 83 7B 83 0E 75 00
 (3.4680)  can1  18C00401   [8]  04 02 31 8B 2F 68 30 00
 (3.4730)  can1  4100208   [8]  00 00 00 00 00 00 00 00
 (3.4760)  can1  4100209   [8]  00 00 00 00 00 00 00 00
 (3.4830)  can1  4100208   [8]  00 00 00 00 00 00 00 00
 (3.4840)  can1  8100302   [5]  00 04 0A 00 05
 (3.4850)  can1  8580C02   [8]  00 00 00 00 00 00 00 00
 (3.4860)  can1  89A0C02   [8]  00 00 00 00 00 00 00 00
 (3.4860)  can1  8030C02   [8]  00 00 2A 68 2A 68 92 17
 (3.4870)  can1  4100209   [8]  00 00 00 00 00 00 00 00
 (3.4930)  can1  4100208   [8]  00 00 00 00 00 00 00 00
 (3.4940)  can1  4100209   [8]  00 00 00 00 00 00 00 00
 (3.4990)  can1  8101201   [8]  00 00 4A 84 33 74 00 00
 (3.5000)  can1  8010C01   [8]  00 00 00 00 00 00 00 00
 (3.5030)  can1  4100208   [8]  00 00 00 00 00 00 00 00
 (3.5030)  can1  8030C02   [8]  00 00 2A 68 2A 68 92 17
 (3.5040)  can1  8580C02   [8]  00 00 00 00 00 00 00 00
 (3.5050)  can1  89A0C02   [8]  00 00 00 00 00 00 00 00
 (3.5050)  can1  4100209   [8]  00 00 00 00 00 00 00 00
 (3.5080)  can1  8100302   [5]  00 04 0A 00 05
 (3.5130)  can1  4100208   [8]  00 00 00 00 00 00 00 00
 (3.5160)  can1  4100209   [8]  00 00 00 00 00 00 00 00
 (3.5160)  can1  18800401   [8]  05 C2 82 4E 82 74 82 00
 (3.5170)  can1  18840401   [8]  05 C1 82 4D 82 73 82 00
 (3.5180)  can1  18C00401   [8]  05 1D 32 ED 30 10 33 00
 (3.5230)  can1  4100208   [8]  00 00 00 00 00 00 00 00
 (3.5230)  can1  8030C02   [8]  00 00 2A 68 2A 68 92 17
 (3.5240)  can1  8580C02   [8]  00 00 00 00 00 00 00 00
 (3.5240)  can1  89A0C02   [8]  00 00 00 00 00 00 00 00
 (3.5250)  can1  4100209   [8]  00 00 00 00 00 00 00 00
 (3.5330)  can1  4100208   [8]  00 00 00 00 00 00 00 00
 (3.5330)  can1  8100302   [5]  00 03 0A 00 05
 (3.5360)  can1  4100209   [8]  00 00 00 00 00 00 00 00
 (3.5430)  can1  4100208   [8]  00 00 00 00 00 00 00 00
 (3.5440)  can1  8030C02   [8]  00 00 2A 68 2A 68 92 17
 (3.5440)  can1  8580C02   [8]  00 00 00 00 00 00 00 00
 (3.5450)  can1  89A0C02   [8]  00 00 00 00 00 00 00 00
 (3.5450)  can1  4100209   [8]  00 00 00 00 00 00 00 00
 (3.5530)  can1  4100208   [8]  00 00 00 00 00 00 00 00
 (3.5540)  can1  4100209   [8]  00 00 00 00 00 00 00 00
 (3.5580)  can1  8100302   [5]  00 03 0A 00 05
 (3.5630)  can1  4100208   [8]  00 00 00 00 00 00 00 00
 (3.5640)  can1  8030C02   [8]  00 00 2A 68 2A 68 92 17
 (3.5650)  can1  8580C02   [8]  00 00 00 00 00 00 00 00
 (3.5650)  can1  89A0C02   [8]  00 00 00 00 00 00 00 00
 (3.5660)  can1  4100209   [8]  00 00 00 00 00 00 00 00
 (3.5670)  can1  8041001   [8]  CC 00 D0 15 18 97 1B 00
 (3.5670)  can1  18800401   [8]  06 B2 82 31 83 73 83 00
 (3.5680)  can1  18840401   [8]  06 B2 82 30 83 72 83 00
 (3.5680)  can1  18C00401   [8]  06 B9 30 70 33 C1 30 00
 (3.5730)  can1  4100208   [8]  00 00 00 00 00 00 00 00
 (3.5760)  can1  4100209   [8]  00 00 00 00 00 00 00 00
 (3.5830)  can1  4100208   [8]  00 00 00 00 00 00 00 00
 (3.5840)  can1  8100302   [5]  00 03 0A 00 05
 (3.5840)  can1  8580C02   [8]  00 00 00 00 00 00 00 00
 (3.5850)  can1  89A0C02   [8]  00 00 00 00 00 00 00 00
 (3.5860)  can1  8030C02   [8]  00 00 2A 68 2A 68 92 17
 (3.5860)  can1  4100209   [8]  00 00 00 00 00 00 00 00
 (3.5930)  can1  4100208   [8]  00 00 00 00 00 00 00 00
 (3.5960)  can1  4100209   [8]  00 00 00 00 00 00 00 00
 (3.6000)  can1  8101201   [8]  00 00 4B 84 33 74 00 00
 (3.6000)  can1  8010C01   [8]  00 00 00 00 00 00 00 00
 (3.6030)  can1  4100208   [8]  00 00 00 00 00 00 00 00
 (3.6040)  can1  8030C02   [8]  00 00 2A 68 2A 68 92 17
 (3.6040)  can1  8580C02   [8]  00 00 00 00 00 00 00 00
 (3.6050)  can1  89A0C02   [8]  00 00 00 00 00 00 00 00
 (3.6050)  can1  4100209   [8]  00 00 00 00 00 00 00 00
 (3.6080)  can1  8100302   [5]  00 04 0A 00 05
 (3.6130)  can1  404FF03   [1]  00
 (3.6140)  can1  4100208   [8]  00 00 00 00 00 00 00 00
 (3.6160)  can1  4100209   [8]  00 00 00 00 00 00 00 00
 (3.6160)  can1  8250C03   [8]  00 00 00 00 00 00 00 00
 (3.6170)  can1  8840C03   [8]  29 00 12 00 17 00 07 00
 (3.6170)  can1  88D0C03   [8]  0F 00 00 00 01 00 00 00
 (3.6180)  can1  18800401   [8]  07 73 83 20 83 87 82 00
 (3.6180)  can1  18840401   [8]  07 73 83 20 83 86 82 00
 (3.6190)  can1  18C00401   [8]  07 83 33 8B 30 5D 33 00
 (3.6230)  can1  404FF07   [1]  00
 (3.6230)  can1  4100208   [8]  00 00 00 00 00 00 00 00
 (3.6240)  can1  8030C02   [8]  00 00 2A 68 2A 68 92 17
 (3.6250)  can1  8580C02   [8]  00 00 00 00 00 00 00 00
 (3.6250)  can1  89A0C02   [8]  00 00 00 00 00 00 00 00
 (3.6260)  can1  4100209   [8]  00 00 00 00 00 00 00 00
 (3.6330)  can1  4100208   [8]  00 00 00 00 00 00 00 00
 (3.6340)  can1  8100302   [5]  00 03 0A 00 05
 (3.6360)  can1  4100209   [8]  00 00 00 00 00 00 00 00
 (3.6430)  can1  4100208   [8]  00 00 00 00 00 00 00 00
 (3.6430)  can1  8030C02   [8]  00 00 2A 68 2A 68 92 17
 (3.6440)  can1  8580C02   [8]  00 00 00 00 00 00 00 00
 (3.6450)  can1  89A0C02   [8]  00 00 00 00 00 00 00 00
 (3.6460)  can1  4100209   [8]  00 00 00 00 00 00 00 00
 (3.6530)  can1  4100208   [8]  00 00 00 00 00 00 00 00
 (3.6560)  can1  4100209   [8]  00 00 00 00 00 00 00 00
 (3.6580)  can1  8100302   [5]  00 03 0A 00 05
 (3.6630)  can1  4100208   [8]  00 00 00 00 00 00 00 00
 (3.6630)  can1  404FF01   [1]  00
 (3.6630)  can1  8030C02   [8]  00 00 2A 68 2A 68 92 17
 (3.6640)  can1  8580C02   [8]  00 00 00 00 00 00 00 00
 (3.6640)  can1  89A0C02   [8]  00 00 00 00 00 00 00 00
 (3.6650)  can1  4100209   [8]  00 00 00 00 00 00 00 00
 (3.6660)  can1  8041001   [8]  CC 00 D0 15 18 97 1B 00
 (3.6670)  can1  8120C01   [8]  63 00 00 00 00 00 00 00
 (3.6670)  can1  80F1201   [4]  C2 10 00 00
 (3.6680)  can1  18800401   [8]  08 48 82 34 74 5F 83 00
 (3.6680)  can1  18840401   [8]  08 47 82 33 74 5E 83 00
 (3.6690)  can1  18C00401   [8]  08 3C 30 3B 33 E5 2F 00
 (3.6730)  can1  4100208   [8]  00 00 00 00 00 00 00 00
 (3.6750)  can1  4100209   [8]  00 00 00 00 00 00 00 00
 (3.6830)  can1  4100208   [8]  00 00 00 00 00 00 00 00
 (3.6840)  can1  404FF02   [1]  00
 (3.6840)  can1  8100302   [5]  00 03 0A 00 05
 (3.6840)  can1  89A0C02   [8]  00 00 00 00 00 00 00 00
 (3.6850)  can1  8580C02   [8]  00 00 00 00 00 00 00 00
 (3.6860)  can1  4100209   [8]  00 00 00 00 00 00 00 00
 (3.6860)  can1  8030C02   [8]  00 00 2A 68 2A 68 92 17
 (3.6930)  can1  4100208   [8]  00 00 00 00 00 00 00 00
 (3.6950)  can1  4100209   [8]  00 00 00 00 00 00 00 00
 (3.7010)  can1  8101201   [8]  00 00 4A 84 33 74 00 00
 (3.7010)  can1  8010C01   [8]  00 00 00 00 00 00 00 00
 (3.7030)  can1  4100208   [8]  00 00 00 00 00 00 00 00
 (3.7040)  can1  8030C02   [8]  00 00 2A 68 2A 68 92 17
 (3.7040)  can1  8580C02   [8]  00 00 00 00 00 00 00 00
 (3.7050)  can1  89A0C02   [8]  00 00 00 00 00 00 00 00
 (3.7050)  can1  4100209   [8]  00 00 00 00 00 00 00 00
 (3.7080)  can1  8100302   [5]  00 02 0A 00 05
 (3.7130)  can1  18101203   [4]  44 2C 5A 01
 (3.7130)  can1  4100208   [8]  00 00 00 00 00 00 00 00
 (3.7160)  can1  4100209   [8]  00 00 00 00 00 00 00 00
 (3.7160)  can1  18800401   [8]  09 F3 83 36 83 97 82 00
 (3.7170)  can1  18840401   [8]  09 F3 83 35 83 96 82 00
 (3.7170)  can1  18C00401   [8]  09 AA 32 E0 2E 75 31 00
 (3.7230)  can1  4100208   [8]  00 00 00 00 00 00 00 00
 (3.7230)  can1  8030C02   [8]  00 00 2A 68 2A 68 92 17
 (3.7240)  can1  8580C02   [8]  00 00 00 00 00 00 00 00
 (3.7250)  can1  89A0C02   [8]  00 00 00 00 00 00 00 00
 (3.7250)  can1  4100209   [8]  00 00 00 00 00 00 00 00
 (3.7330)  can1  4100208   [8]  00 00 00 00 00 00 00 00
 (3.7330)  can1  8100302   [5]  00 02 0A 00 05
 (3.7360)  can1  4100209   [8]  00 00 00 00 00 00 00 00
 (3.7430)  can1  4100208   [8]  00 00 00 00 00 00 00 00
 (3.7440)  can1  8030C02   [8]  00 00 2A 68 2A 68 92 17
 (3.7450)  can1  8580C02   [8]  00 00 00 00 00 00 00 00
 (3.7450)  can1  89A0C02   [8]  00 00 00 00 00 00 00 00
 (3.7450)  can1  4100209   [8]  00 00 00 00 00 00 00 00
 (3.7530)  can1  4100208   [8]  00 00 00 00 00 00 00 00
 (3.7550)  can1  4100209   [8]  00 00 00 00 00 00 00 00
 (3.7580)  can1  8100302   [5]  00 03 0A 00 05
 (3.7630)  can1  4100208   [8]  00 00 00 00 00 00 00 00
 (3.7640)  can1  8030C02   [8]  00 00 2A 68 2A 68 92 17
 (3.7640)  can1  8580C02   [8]  00 00 00 00 00 00 00 00
 (3.7650)  can1  89A0C02   [8]  00 00 00 00 00 00 00 00
 (3.7650)  can1  4100209   [8]  00 00 00 00 00 00 00 00
 (3.7660)  can1  8041001   [8]  CC 00 D0 15 18 97 1B 00
 (3.7660)  can1  18800401   [8]  0A D4 81 56 82 C0 82 00
 (3.7670)  can1  18840401   [8]  0A D4 81 55 82 C0 82 00
 (3.7680)  can1  18C00401   [8]  0A 3B 30 C3 32 C4 30 00
 (3.7730)  can1  4100208   [8]  00 00 00 00 00 00 00 00
 (3.7750)  can1  4100209   [8]  00 00 00 00 00 00 00 00
 (3.7830)  can1  4100208   [8]  00 00 00 00 00 00 00 00
 (3.7830)  can1  8100302   [5]  00 03 0A 00 05
 (3.7840)  can1  8580C02   [8]  00 00 00 00 00 00 00 00
 (3.7850)  can1  89A0C02   [8]  00 00 00 00 00 00 00 00
 (3.7860)  can1  8030C02   [8]  00 00 2A 68 2A 68 92 17
 (3.7860)  can1  4100209   [8]  00 00 00 00 00 00 00 00
 (3.7930)  can1  4100208   [8]  00 00 00 00 00 00 00 00
 (3.7940)  can1  4100209   [8]  00 00 00 00 00 00 00 00
 (3.8020)  can1  8101201   [8]  00 00 4E 84 34 74 01 00
 (3.8030)  can1  8010C01   [8]  00 00 00 00 00 00 00 00
 (3.8040)  can1  4100208   [8]  00 00 00 00 00 00 00 00
 (3.8040)  can1  8030C02   [8]  00 00 2A 68 2A 68 92 17
 (3.8050)  can1  8580C02   [8]  00 00 00 00 00 00 00 00
 (3.8050)  can1  89A0C02   [8]  00 00 00 00 00 00 00 00
 (3.8060)  can1  4100209   [8]  00 00 00 00 00 00 00 00
 (3.8080)  can1  8100302   [5]  00 03 0A 00 05
 (3.8130)  can1  4100208   [8]  00 00 00 00 00 00 00 00
 (3.8150)  can1  4100209   [8]  00 00 00 00 00 00 00 00
 (3.8150)  can1  18800401   [8]  0B 05 83 2F 83 51 83 00
 (3.8160)  can1  18840401   [8]  0B 04 83 2E 83 50 83 00
 (3.8170)  can1  18C00401   [8]  0B 46 33 F7 30 4B 33 00
 (3.8230)  can1  4100208   [8]  00 00 00 00 00 00 00 00
 (3.8240)  can1  8030C02   [8]  00 00 2A 68 2A 68 92 17
 (3.8240)  can1  8580C02   [8]  00 00 00 00 00 00 00 00
 (3.8250)  can1  89A0C02   [8]  00 00 00 00 00 00 00 00
 (3.8260)  can1  4100209   [8]  00 00 00 00 00 00 00 00
 (3.8330)  can1  4100208   [8]  00 00 00 00 00 00 00 00
 (3.8330)  can1  8100302   [5]  00 03 0A 00 05
 (3.8350)  can1  4100209   [8]  00 00 00 00 00 00 00 00
 (3.8430)  can1  4100208   [8]  00 00 00 00 00 00 00 00
 (3.8440)  can1  8030C02   [8]  00 00 2A 68 2A 68 92 17
 (3.8440)  can1  8580C02   [8]  00 00 00 00 00 00 00 00
 (3.8450)  can1  89A0C02   [8]  00 00 00 00 00 00 00 00
 (3.8450)  can1  4100209   [8]  00 00 00 00 00 00 00 00
 (3.8530)  can1  4100208   [8]  00 00 00 00 00 00 00 00
 (3.8550)  can1  4100209   [8]  00 00 00 00 00 00 00 00
 (3.8580)  can1  8100302   [5]  00 04 0A 00 05
 (3.8630)  can1  4100208   [8]  00 00 00 00 00 00 00 00
 (3.8640)  can1  8030C02   [8]  00 00 2A 68 2A 68 92 17
 (3.8650)  can1  8580C02   [8]  00 00 00 00 00 00 00 00
 (3.8650)  can1  89A0C02   [8]  00 00 00 00 00 00 00 00
 (3.8660)  can1  4100209   [8]  00 00 00 00 00 00 00 00
 (3.8660)  can1  8041001   [8]  CC 00 D0 15 18 97 1B 00
 (3.8670)  can1  18800401   [8]  0C 27 83 93 82 96 82 00
 (3.8680)  can1  18840401   [8]  0C 26 83 92 82 95 82 00
 (3.8680)  can1  18C00401   [8]  0C A0 30 E7 32 4F 30 00
 (3.8730)  can1  4100208   [8]  00 00 00 00 00 00 00 00
 (3.8750)  can1  4100209   [8]  00 00 00 00 00 00 00 00
 (3.8830)  can1  4100208   [8]  00 00 00 00 00 00 00 00
 (3.8840)  can1  8100302   [5]  00 04 0A 00 05
 (3.8840)  can1  8580C02   [8]  00 00 00 00 00 00 00 00
 (3.9040)  can1  89A0C02   [8]  00 00 00 00 00 00 00 00
 (3.9050)  can1  8030C02   [8]  00 00 2A 68 2A 68 92 17
 (3.9060)  can1  4100209   [8]  00 00 00 00 00 00 00 00
 (3.9060)  can1  4100208   [8]  00 00 00 00 00 00 00 00
 (3.9070)  can1  4100209   [8]  00 00 00 00 00 00 00 00
 (3.9070)  can1  8101201   [8]  00 00 4C 84 34 74 04 00
 (3.9080)  can1  8010C01   [8]  00 00 00 00 00 00 00 00
 (3.9090)  can1  4100208   [8]  00 00 00 00 00 00 00 00
 (3.9090)  can1  8030C02   [8]  00 00 2A 68 2A 68 92 17
 (3.9100)  can1  8580C02   [8]  00 00 00 00 00 00 00 00
 (3.9110)  can1  89A0C02   [8]  00 00 00 00 00 00 00 00
 (3.9110)  can1  4100209   [8]  00 00 00 00 00 00 00 00
 (3.9110)  can1  8100302   [5]  00 04 0A 00 05
 (3.9130)  can1  4100208   [8]  00 00 00 00 00 00 00 00
 (3.9160)  can1  4100209   [8]  00 00 00 00 00 00 00 00
 (3.9170)  can1  18800401   [8]  0D E9 82 26 83 61 83 00
 (3.9170)  can1  18840401   [8]  0D E7 82 25 83 60 83 00
 (3.9180)  can1  18C00401   [8]  0D 53 32 D9 2F 40 31 00
 (3.9230)  can1  4100208   [8]  00 00 00 00 00 00 00 00
 (3.9230)  can1  8030C02   [8]  00 00 2A 68 2A 68 92 17
 (3.9240)  can1  8580C02   [8]  00 00 00 00 00 00 00 00
 (3.9250)  can1  89A0C02   [8]  00 00 00 00 00 00 00 00
 (3.9250)  can1  4100209   [8]  00 00 00 00 00 00 00 00
 (3.9330)  can1  4100208   [8]  00 00 00 00 00 00 00 00
 (3.9340)  can1  8100302   [5]  00 03 0A 00 05
 (3.9360)  can1  4100209   [8]  00 00 00 00 00 00 00 00
 (3.9430)  can1  4100208   [8]  00 00 00 00 00 00 00 00
 (3.9430)  can1  8030C02   [8]  00 00 2A 68 2A 68 92 17
 (3.9440)  can1  8580C02   [8]  00 00 00 00 00 00 00 00
 (3.9440)  can1  89A0C02   [8]  00 00 00 00 00 00 00 00
 (3.9450)  can1  4100209   [8]  00 00 00 00 00 00 00 00
 (3.9530)  can1  4100208   [8]  00 00 00 00 00 00 00 00
 (3.9550)  can1  4100209   [8]  00 00 00 00 00 00 00 00
 (3.9580)  can1  8100302   [5]  00 03 0A 00 05
 (3.9630)  can1  4100208   [8]  00 00 00 00 00 00 00 00
 (3.9640)  can1  8030C02   [8]  00 00 2A 68 2A 68 92 17
 (3.9640)  can1  8580C02   [8]  00 00 00 00 00 00 00 00
 (3.9640)  can1  89A0C02   [8]  00 00 00 00 00 00 00 00
 (3.9650)  can1  4100209   [8]  00 00 00 00 00 00 00 00
 (3.9650)  can1  8041001   [8]  CC 00 D0 15 18 97 1B 00
 (3.9660)  can1  18800401   [8]  0E DA 82 45 82 C6 81 00
 (3.9660)  can1  18840401   [8]  0E D8 82 44 82 C5 81 00
 (3.9670)  can1  18C00401   [8]  0E ED 2E C9 31 FB 2F 00
 (3.9730)  can1  4100208   [8]  00 00 00 00 00 00 00 00
 (3.9750)  can1  4100209   [8]  00 00 00 00 00 00 00 00
 (3.9830)  can1  4100208   [8]  00 00 00 00 00 00 00 00
 (3.9840)  can1  8100302   [5]  00 03 0A 00 05
 (3.9840)  can1  8580C02   [8]  00 00 00 00 00 00 00 00
 (3.9850)  can1  89A0C02   [8]  00 00 00 00 00 00 00 00
 (3.9860)  can1  8030C02   [8]  00 00 2A 68 2A 68 92 17
 (3.9860)  can1  4100209   [8]  00 00 00 00 00 00 00 00
 (3.9930)  can1  4100208   [8]  00 00 00 00 00 00 00 00
 (3.9950)  can1  4100209   [8]  00 00 00 00 00 00 00 00
 (4.0030)  can1  4100208   [8]  00 00 00 00 00 00 00 00
 (4.0030)  can1  8010C01   [8]  00 00 00 00 00 00 00 00
 (4.0040)  can1  8030C02   [8]  00 00 2A 68 2A 68 92 17
 (4.0040)  can1  8101201   [8]  00 00 4D 84 34 74 02 00
 (4.0050)  can1  8580C02   [8]  00 00 00 00 00 00 00 00
 (4.0060)  can1  4100209   [8]  00 00 00 00 00 00 00 00
 (4.0060)  can1  89A0C02   [8]  00 00 00 00 00 00 00 00
 (4.0080)  can1  8100302   [5]  00 03 0A 00 05
 (4.0130)  can1  4100208   [8]  00 00 00 00 00 00 00 00
 (4.0150)  can1  4100209   [8]  00 00 00 00 00 00 00 00
 (4.0150)  can1  18800401   [8]  0F B9 80 68 82 AB 82 00
 (4.0160)  can1  18840401   [8]  0F B8 80 67 82 AB 82 00
 (4.0170)  can1  18C00401   [8]  0F C4 32 A4 30 63 33 00
 (4.0230)  can1  4100208   [8]  00 00 00 00 00 00 00 00
 (4.0240)  can1  8030C02   [8]  00 00 2A 68 2A 68 92 17
 (4.0240)  can1  8580C02   [8]  00 00 00 00 00 00 00 00
 (4.0250)  can1  89A0C02   [8]  00 00 00 00 00 00 00 00
 (4.0260)  can1  4100209   [8]  00 00 00 00 00 00 00 00
 (4.0330)  can1  4100208   [8]  00 00 00 00 00 00 00 00
 (4.0330)  can1  8100302   [5]  00 03 0A 00 05
 (4.0350)  can1  4100209   [8]  00 00 00 00 00 00 00 00
 (4.0430)  can1  4100208   [8]  00 00 00 00 00 00 00 00
 (4.0430)  can1  8030C02   [8]  00 00 2A 68 2A 68 92 17
 (4.0440)  can1  8580C02   [8]  00 00 00 00 00 00 00 00
 (4.0450)  can1  89A0C02   [8]  00 00 00 00 00 00 00 00
 (4.0450)  can1  4100209   [8]  00 00 00 00 00 00 00 00
 (4.0530)  can1  4100208   [8]  00 00 00 00 00 00 00 00
 (4.0550)  can1  4100209   [8]  00 00 00 00 00 00 00 00
 (4.0580)  can1  8100302   [5]  00 04 0A 00 05
 (4.0630)  can1  4100208   [8]  00 00 00 00 00 00 00 00
 (4.0630)  can1  8030C02   [8]  00 00 2A 68 2A 68 92 17
 (4.0640)  can1  8580C02   [8]  00 00 00 00 00 00 00 00
 (4.0640)  can1  89A0C02   [8]  00 00 00 00 00 00 00 00
 (4.0650)  can1  4100209   [8]  00 00 00 00 00 00 00 00
 (4.0660)  can1  8041001   [8]  CC 00 D0 15 18 97 1B 00
 (4.0670)  can1  18800401   [8]  10 A8 82 C6 82 9C 82 00
 (4.0670)  can1  18840401   [8]  10 AA 82 C3 82 9C 82 00
 (4.0680)  can1  18C00401   [8]  10 C0 30 75 33 1B 30 00
 (4.0730)  can1  4100208   [8]  00 00 00 00 00 00 00 00
 (4.0750)  can1  4100209   [8]  00 00 00 00 00 00 00 00
 (4.0830)  can1  4100208   [8]  00 00 00 00 00 00 00 00
 (4.0840)  can1  8100302   [5]  00 03 0A 00 05
 (4.0840)  can1  8580C02   [8]  00 00 00 00 00 00 00 00
 (4.0850)  can1  89A0C02   [8]  00 00 00 00 00 00 00 00
 (4.0860)  can1  8030C02   [8]  00 00 2A 68 2A 68 92 17
 (4.0860)  can1  4100209   [8]  00 00 00 00 00 00 00 00
 (4.0930)  can1  4100208   [8]  00 00 00 00 00 00 00 00
 (4.0950)  can1  4100209   [8]  00 00 00 00 00 00 00 00
 (4.1030)  can1  4100208   [8]  00 00 00 00 00 00 00 00
 (4.1040)  can1  8030C02   [8]  00 00 2A 68 2A 68 92 17
 (4.1040)  can1  8580C02   [8]  00 00 00 00 00 00 00 00
 (4.1050)  can1  89A0C02   [8]  00 00 00 00 00 00 00 00
 (4.1050)  can1  4100209   [8]  00 00 00 00 00 00 00 00
 (4.1050)  can1  8010C01   [8]  00 00 00 00 00 00 00 00
 (4.1060)  can1  8101201   [8]  00 00 4A 84 35 74 01 00
 (4.1080)  can1  8100302   [5]  00 03 0A 00 05
 (4.1130)  can1  4100208   [8]  00 00 00 00 00 00 00 00
 (4.1150)  can1  4100209   [8]  00 00 00 00 00 00 00 00
 (4.1150)  can1  18800401   [8]  11 30 82 F3 81 39 82 00
 (4.1160)  can1  18840401   [8]  11 2F 82 F2 81 39 82 00
 (4.1160)  can1  18C00401   [8]  11 3F 33 D6 2F CC 32 00
 (4.1230)  can1  4100208   [8]  00 00 00 00 00 00 00 00
 (4.1240)  can1  8030C02   [8]  00 00 2A 68 2A 68 92 17
 (4.1250)  can1  8580C02   [8]  00 00 00 00 00 00 00 00
 (4.1250)  can1  89A0C02   [8]  00 00 00 00 00 00 00 00
 (4.1260)  can1  4100209   [8]  00 00 00 00 00 00 00 00
 (4.1330)  can1  4100208   [8]  00 00 00 00 00 00 00 00
 (4.1330)  can1  8100302   [5]  00 03 0A 00 05
 (4.1360)  can1  4100209   [8]  00 00 00 00 00 00 00 00
 (4.1430)  can1  4100208   [8]  00 00 00 00 00 00 00 00
 (4.1430)  can1  8030C02   [8]  00 00 2A 68 2A 68 92 17
 (4.1440)  can1  8580C02   [8]  00 00 00 00 00 00 00 00
 (4.1440)  can1  89A0C02   [8]  00 00 00 00 00 00 00 00
 (4.1450)  can1  4100209   [8]  00 00 00 00 00 00 00 00
 (4.1530)  can1  4100208   [8]  00 00 00 00 00 00 00 00
 (4.1550)  can1  4100209   [8]  00 00 00 00 00 00 00 00
 (4.1580)  can1  8100302   [5]  00 03 0A 00 05
 (4.1630)  can1  4100208   [8]  00 00 00 00 00 00 00 00
 (4.1630)  can1  8030C02   [8]  00 00 2A 68 2A 68 92 17
 (4.1640)  can1  8580C02   [8]  00 00 00 00 00 00 00 00
 (4.1650)  can1  89A0C02   [8]  00 00 00 00 00 00 00 00
 (4.1650)  can1  4100209   [8]  00 00 00 00 00 00 00 00
 (4.1660)  can1  8041001   [8]  CC 00 D0 15 18 97 1B 00
 (4.1660)  can1  18800401   [8]  12 BF 82 F4 82 0F 83 00
 (4.1670)  can1  18840401   [8]  12 BE 82 F3 82 0F 83 00
 (4.1670)  can1  18C00401   [8]  12 DC 31 4A 2F 99 2E 00
 (4.1730)  can1  4100208   [8]  00 00 00 00 00 00 00 00
 (4.1750)  can1  4100209   [8]  00 00 00 00 00 00 00 00
 (4.1830)  can1  4100208   [8]  00 00 00 00 00 00 00 00
 (4.1840)  can1  8100302   [5]  00 03 0A 00 05
 (4.1840)  can1  8580C02   [8]  00 00 00 00 00 00 00 00
 (4.1850)  can1  89A0C02   [8]  00 00 00 00 00 00 00 00
 (4.1860)  can1  8030C02   [8]  00 00 2A 68 2A 68 92 17
 (4.1860)  can1  4100209   [8]  00 00 00 00 00 00 00 00
 (4.1930)  can1  4100208   [8]  00 00 00 00 00 00 00 00
 (4.1950)  can1  4100209   [8]  00 00 00 00 00 00 00 00
 (4.2030)  can1  4100208   [8]  00 00 00 00 00 00 00 00
 (4.2030)  can1  8030C02   [8]  00 00 2A 68 2A 68 92 17
 (4.2040)  can1  8580C02   [8]  00 00 00 00 00 00 00 00
 (4.2040)  can1  89A0C02   [8]  00 00 00 00 00 00 00 00
 (4.2050)  can1  4100209   [8]  00 00 00 00 00 00 00 00
 (4.2050)  can1  8101201   [8]  00 00 4A 84 35 74 01 00
 (4.2060)  can1  8010C01   [8]  00 00 00 00 00 00 00 00
 (4.2080)  can1  8100302   [5]  00 03 0A 00 05
 (4.2130)  can1  18101203   [4]  1C 2C 55 01
 (4.2130)  can1  4100208   [8]  00 00 00 00 00 00 00 00
 (4.2150)  can1  4100209   [8]  00 00 00 00 00 00 00 00
 (4.2150)  can1  18800401   [8]  13 B3 82 13 82 50 82 00
 (4.2160)  can1  18840401   [8]  13 B2 82 12 82 4E 82 00
 (4.2170)  can1  18C00401   [8]  13 EC 30 A2 2F 17 32 00
 (4.2230)  can1  4100208   [8]  00 00 00 00 00 00 00 00
 (4.2230)  can1  8030C02   [8]  00 00 2A 68 2A 68 92 17
 (4.2240)  can1  8580C02   [8]  00 00 00 00 00 00 00 00
 (4.2250)  can1  89A0C02   [8]  00 00 00 00 00 00 00 00
 (4.2260)  can1  4100209   [8]  00 00 00 00 00 00 00 00
 (4.2330)  can1  8100302   [5]  00 03 0A 00 05
 (4.2340)  can1  4100208   [8]  00 00 00 00 00 00 00 00
 (4.2360)  can1  4100209   [8]  00 00 00 00 00 00 00 00
 (4.2430)  can1  89A0C02   [8]  00 00 00 00 00 00 00 00
 (4.2430)  can1  4100208   [8]  00 00 00 00 00 00 00 00
 (4.2440)  can1  8030C02   [8]  00 00 2A 68 2A 68 92 17
 (4.2450)  can1  8580C02   [8]  00 00 00 00 00 00 00 00
 (4.2450)  can1  4100209   [8]  00 00 00 00 00 00 00 00
 (4.2530)  can1  4100208   [8]  00 00 00 00 00 00 00 00
 (4.2550)  can1  4100209   [8]  00 00 00 00 00 00 00 00
 (4.2580)  can1  8100302   [5]  00 02 0A 00 05
 (4.2630)  can1  89A0C02   [8]  00 00 00 00 00 00 00 00
 (4.2630)  can1  4100208   [8]  00 00 00 00 00 00 00 00
 (4.2640)  can1  8030C02   [8]  00 00 2A 68 2A 68 92 17
 (4.2640)  can1  8580C02   [8]  00 00 00 00 00 00 00 00
 (4.2650)  can1  4100209   [8]  00 00 00 00 00 00 00 00
 (4.2660)  can1  8041001   [8]  CC 00 D0 15 18 97 1B 00
 (4.2660)  can1  18800401   [8]  14 E0 82 06 83 14 83 00
 (4.2670)  can1  18840401   [8]  14 DE 82 05 83 13 83 00
 (4.2670)  can1  18C00401   [8]  14 39 30 B6 32 80 30 00
 (4.2730)  can1  4100208   [8]  00 00 00 00 00 00 00 00
 (4.2750)  can1  4100209   [8]  00 00 00 00 00 00 00 00
 (4.2830)  can1  4100208   [8]  00 00 00 00 00 00 00 00
 (4.2830)  can1  8100302   [5]  00 03 0A 00 05
 (4.2840)  can1  8580C02   [8]  00 00 00 00 00 00 00 00
 (4.2840)  can1  89A0C02   [8]  00 00 00 00 00 00 00 00
 (4.2850)  can1  8030C02   [8]  00 00 2A 68 2A 68 92 17
 (4.2850)  can1  4100209   [8]  00 00 00 00 00 00 00 00
 (4.2930)  can1  4100208   [8]  00 00 00 00 00 00 00 00
 (4.2950)  can1  4100209   [8]  00 00 00 00 00 00 00 00
 (4.3030)  can1  89A0C02   [8]  00 00 00 00 00 00 00 00
 (4.3040)  can1  4100208   [8]  00 00 00 00 00 00 00 00
 (4.3040)  can1  8030C02   [8]  00 00 2A 68 2A 68 92 17
 (4.3050)  can1  8580C02   [8]  00 00 00 00 00 00 00 00
 (4.3060)  can1  4100209   [8]  00 00 00 00 00 00 00 00
 (4.3070)  can1  8101201   [8]  00 00 4B 84 36 74 01 00
 (4.3070)  can1  8010C01   [8]  00 00 00 00 00 00 00 00
 (4.3090)  can1  8100302   [5]  00 03 0A 00 05
 (4.3130)  can1  4100208   [8]  00 00 00 00 00 00 00 00
 (4.3160)  can1  4100209   [8]  00 00 00 00 00 00 00 00
 (4.3170)  can1  18800401   [8]  15 5F 83 F9 82 7B 82 00
 (4.3170)  can1  18840401   [8]  15 5E 83 F8 82 7A 82 00
 (4.3170)  can1  18C00401   [8]  15 F8 32 1F 30 A3 32 00
 (4.3230)  can1  89A0C02   [8]  00 00 00 00 00 00 00 00
 (4.3230)  can1  4100208   [8]  00 00 00 00 00 00 00 00
 (4.3240)  can1  8030C02   [8]  00 00 2A 68 2A 68 92 17
 (4.3250)  can1  8580C02   [8]  00 00 00 00 00 00 00 00
 (4.3260)  can1  4100209   [8]  00 00 00 00 00 00 00 00
 (4.3330)  can1  8100302   [5]  00 03 0A 00 05
 (4.3330)  can1  4100208   [8]  00 00 00 00 00 00 00 00
 (4.3350)  can1  4100209   [8]  00 00 00 00 00 00 00 00
 (4.3430)  can1  89A0C02   [8]  00 00 00 00 00 00 00 00
 (4.3430)  can1  4100208   [8]  00 00 00 00 00 00 00 00
 (4.3440)  can1  8030C02   [8]  00 00 2A 68 2A 68 92 17
 (4.3440)  can1  8580C02   [8]  00 00 00 00 00 00 00 00
 (4.3450)  can1  4100209   [8]  00 00 00 00 00 00 00 00
 (4.3530)  can1  4100208   [8]  00 00 00 00 00 00 00 00
 (4.3550)  can1  4100209   [8]  00 00 00 00 00 00 00 00
 (4.3580)  can1  8100302   [5]  00 03 0A 00 05
 (4.3630)  can1  89A0C02   [8]  00 00 00 00 00 00 00 00
 (4.3630)  can1  4100208   [8]  00 00 00 00 00 00 00 00
 (4.3640)  can1  8030C02   [8]  00 00 2A 68 2A 68 92 17
 (4.3650)  can1  8580C02   [8]  00 00 00 00 00 00 00 00
 (4.3660)  can1  4100209   [8]  00 00 00 00 00 00 00 00
 (4.3660)  can1  8041001   [8]  CC 00 D0 15 18 97 1B 00
 (4.3670)  can1  18800401   [8]  16 2A 82 B3 82 0F 83 00
 (4.3670)  can1  18840401   [8]  16 29 82 B1 82 0E 83 00
 (4.3680)  can1  18C00401   [8]  16 E8 2F 31 32 7E 2F 00
 (4.3730)  can1  4100208   [8]  00 00 00 00 00 00 00 00
 (4.3760)  can1  4100209   [8]  00 00 00 00 00 00 00 00
 (4.3830)  can1  8100302   [5]  00 03 0A 00 05
 (4.3840)  can1  4100208   [8]  00 00 00 00 00 00 00 00
 (4.3840)  can1  8580C02   [8]  00 00 00 00 00 00 00 00
 (4.3850)  can1  89A0C02   [8]  00 00 00 00 00 00 00 00
 (4.3850)  can1  8030C02   [8]  00 00 2A 68 2A 68 92 17
 (4.3860)  can1  4100209   [8]  00 00 00 00 00 00 00 00
 (4.3930)  can1  4100208   [8]  00 00 00 00 00 00 00 00
 (4.3950)  can1  4100209   [8]  00 00 00 00 00 00 00 00
 (4.4030)  can1  89A0C02   [8]  00 00 00 00 00 00 00 00
 (4.4040)  can1  4100208   [8]  00 00 00 00 00 00 00 00
 (4.4040)  can1  8030C02   [8]  00 00 2A 68 2A 68 92 17
 (4.4050)  can1  8580C02   [8]  00 00 00 00 00 00 00 00
 (4.4050)  can1  4100209   [8]  00 00 00 00 00 00 00 00
 (4.4080)  can1  8101201   [8]  00 00 4D 84 36 74 00 00
 (4.4090)  can1  8010C01   [8]  00 00 00 00 00 00 00 00
 (4.4090)  can1  8100302   [5]  00 04 0A 00 05
 (4.4130)  can1  4100208   [8]  00 00 00 00 00 00 00 00
 (4.4150)  can1  4100209   [8]  00 00 00 00 00 00 00 00
 (4.4150)  can1  18800401   [8]  17 42 83 00 00 00 00 00
 (4.4160)  can1  18840401   [8]  17 41 83 00 00 00 00 00
 (4.4170)  can1  18C00401   [8]  17 26 31 10 27 10 27 00
 (4.4230)  can1  89A0C02   [8]  00 00 00 00 00 00 00 00
 (4.4230)  can1  4100208   [8]  00 00 00 00 00 00 00 00
 (4.4240)  can1  8030C02   [8]  00 00 2A 68 2A 68 92 17
 (4.4250)  can1  8580C02   [8]  00 00 00 00 00 00 00 00
 (4.4250)  can1  4100209   [8]  00 00 00 00 00 00 00 00
 (4.4330)  can1  8100302   [5]  00 04 0A 00 05
 (4.4330)  can1  4100208   [8]  00 00 00 00 00 00 00 00
 (4.4360)  can1  4100209   [8]  00 00 00 00 00 00 00 00
 (4.4430)  can1  89A0C02   [8]  00 00 00 00 00 00 00 00
 (4.4440)  can1  4100208   [8]  00 00 00 00 00 00 00 00
 (4.4440)  can1  8030C02   [8]  00 00 2A 68 2A 68 92 17
 (4.4450)  can1  8580C02   [8]  00 00 00 00 00 00 00 00
 (4.4460)  can1  4100209   [8]  00 00 00 00 00 00 00 00
 (4.4530)  can1  4100208   [8]  00 00 00 00 00 00 00 00
 (4.4560)  can1  4100209   [8]  00 00 00 00 00 00 00 00
 (4.4580)  can1  8100302   [5]  00 04 0A 00 05
 (4.4630)  can1  89A0C02   [8]  00 00 00 00 00 00 00 00
 (4.4630)  can1  4100208   [8]  00 00 00 00 00 00 00 00
 (4.4630)  can1  8030C02   [8]  00 00 2A 68 2A 68 92 17
 (4.4640)  can1  8580C02   [8]  00 00 00 00 00 00 00 00
 (4.4660)  can1  4100209   [8]  00 00 00 00 00 00 00 00
 (4.4670)  can1  8041001   [8]  CC 00 D0 15 18 97 1B 00
 (4.4670)  can1  18800401   [8]  00 4B 84 0D 82 42 81 00
 (4.4670)  can1  18840401   [8]  00 4B 84 0C 82 42 81 00
 (4.4680)  can1  18C00401   [8]  00 17 31 8C 2E 68 32 00
 (4.4730)  can1  4100208   [8]  00 00 00 00 00 00 00 00
 (4.4750)  can1  4100209   [8]  00 00 00 00 00 00 00 00
 (4.4830)  can1  8100302   [5]  00 03 0A 00 05
 (4.4840)  can1  4100208   [8]  00 00 00 00 00 00 00 00
 (4.4840)  can1  8580C02   [8]  00 00 00 00 00 00 00 00
 (4.4850)  can1  89A0C02   [8]  00 00 00 00 00 00 00 00
 (4.4860)  can1  8030C02   [8]  00 00 2A 68 2A 68 92 17
 (4.4860)  can1  4100209   [8]  00 00 00 00 00 00 00 00
 (4.4930)  can1  4100208   [8]  00 00 00 00 00 00 00 00
 (4.4950)  can1  4100209   [8]  00 00 00 00 00 00 00 00
 (4.5030)  can1  89A0C02   [8]  00 00 00 00 00 00 00 00
 (4.5030)  can1  4100208   [8]  00 00 00 00 00 00 00 00
 (4.5040)  can1  8030C02   [8]  00 00 2A 68 2A 68 92 17
 (4.5050)  can1  8580C02   [8]  00 00 00 00 00 00 00 00
 (4.5050)  can1  4100209   [8]  00 00 00 00 00 00 00 00
 (4.5080)  can1  8100302   [5]  00 03 0A 00 05
 (4.5080)  can1  8101201   [8]  00 00 4B 84 37 74 02 00
 (4.5090)  can1  8010C01   [8]  00 00 00 00 00 00 00 00
 (4.5130)  can1  4100208   [8]  00 00 00 00 00 00 00 00
 (4.5150)  can1  4100209   [8]  00 00 00 00 00 00 00 00
 (4.5150)  can1  18800401   [8]  01 BE 81 48 82 F6 81 00
 (4.5160)  can1  18840401   [8]  01 BD 81 48 82 F5 81 00
 (4.5170)  can1  18C00401   [8]  01 E5 2F 0E 33 AE 30 00
 (4.5230)  can1  89A0C02   [8]  00 00 00 00 00 00 00 00
 (4.5240)  can1  4100208   [8]  00 00 00 00 00 00 00 00
 (4.5240)  can1  8030C02   [8]  00 00 2A 68 2A 68 92 17
 (4.5250)  can1  8580C02   [8]  00 00 00 00 00 00 00 00
 (4.5260)  can1  4100209   [8]  00 00 00 00 00 00 00 00
 (4.5330)  can1  8100302   [5]  00 04 0A 00 05
 (4.5330)  can1  4100208   [8]  00 00 00 00 00 00 00 00
 (4.5350)  can1  4100209   [8]  00 00 00 00 00 00 00 00
 (4.5430)  can1  89A0C02   [8]  00 00 00 00 00 00 00 00
 (4.5440)  can1  4100208   [8]  00 00 00 00 00 00 00 00
 (4.5440)  can1  8030C02   [8]  00 00 2A 68 2A 68 92 17
 (4.5450)  can1  8580C02   [8]  00 00 00 00 00 00 00 00
 (4.5450)  can1  4100209   [8]  00 00 00 00 00 00 00 00
 (4.5530)  can1  4100208   [8]  00 00 00 00 00 00 00 00
 (4.5550)  can1  4100209   [8]  00 00 00 00 00 00 00 00
 (4.5580)  can1  8100302   [5]  00 03 0A 00 05
 (4.5630)  can1  89A0C02   [8]  00 00 00 00 00 00 00 00
 (4.5630)  can1  4100208   [8]  00 00 00 00 00 00 00 00
 (4.5640)  can1  8030C02   [8]  00 00 2A 68 2A 68 92 17
 (4.5650)  can1  8580C02   [8]  00 00 00 00 00 00 00 00
 (4.5660)  can1  4100209   [8]  00 00 00 00 00 00 00 00
 (4.5660)  can1  8041001   [8]  CC 00 D0 15 18 97 1B 00
 (4.5670)  can1  18800401   [8]  02 71 82 69 83 14 83 00
 (4.5670)  can1  18840401   [8]  02 6F 82 69 83 14 83 00
 (4.5680)  can1  18C00401   [8]  02 08 33 C1 30 AA 32 00
 (4.5730)  can1  4100208   [8]  00 00 00 00 00 00 00 00
 (4.5750)  can1  4100209   [8]  00 00 00 00 00 00 00 00
 (4.5830)  can1  8100302   [5]  00 03 0A 00 05
 (4.5830)  can1  4100208   [8]  00 00 00 00 00 00 00 00
 (4.5840)  can1  8580C02   [8]  00 00 00 00 00 00 00 00
 (4.5840)  can1  89A0C02   [8]  00 00 00 00 00 00 00 00
 (4.5860)  can1  8030C02   [8]  00 00 2A 68 2A 68 92 17
 (4.5860)  can1  4100209   [8]  00 00 00 00 00 00 00 00
 (4.5930)  can1  4100208   [8]  00 00 00 00 00 00 00 00
 (4.5950)  can1  4100209   [8]  00 00 00 00 00 00 00 00
 (4.6030)  can1  89A0C02   [8]  00 00 00 00 00 00 00 00
 (4.6040)  can1  4100208   [8]  00 00 00 00 00 00 00 00
 (4.6040)  can1  8030C02   [8]  00 00 2A 68 2A 68 92 17
 (4.6050)  can1  8580C02   [8]  00 00 00 00 00 00 00 00
 (4.6050)  can1  4100209   [8]  00 00 00 00 00 00 00 00
 (4.6080)  can1  8100302   [5]  00 03 0A 00 05
 (4.6100)  can1  8101201   [8]  00 00 4D 84 37 74 02 00
 (4.6100)  can1  8010C01   [8]  00 00 00 00 00 00 00 00
 (4.6130)  can1  404FF03   [1]  00
 (4.6130)  can1  4100208   [8]  00 00 00 00 00 00 00 00
 (4.6160)  can1  4100209   [8]  00 00 00 00 00 00 00 00
 (4.6160)  can1  8250C03   [8]  00 00 00 00 00 00 00 00
 (4.6170)  can1  8840C03   [8]  26 00 10 00 16 00 07 00
 (4.6170)  can1  88D0C03   [8]  10 00 00 00 00 00 00 00
 (4.6180)  can1  18800401   [8]  03 A4 82 7D 82 D8 82 00
 (4.6190)  can1  8A00C03   [1]  07
 (4.6190)  can1  18840401   [8]  03 A3 82 7C 82 D7 82 00
 (4.6190)  can1  18C00401   [8]  03 9B 30 26 32 19 30 00
 (4.6230)  can1  404FF07   [1]  00
 (4.6230)  can1  89A0C02   [8]  00 00 00 00 00 00 00 00
 (4.6240)  can1  4100208   [8]  00 00 00 00 00 00 00 00
 (4.6240)  can1  8030C02   [8]  00 00 2A 68 2A 68 92 17
 (4.6250)  can1  8580C02   [8]  00 00 00 00 00 00 00 00
 (4.6260)  can1  4100209   [8]  00 00 00 00 00 00 00 00
 (4.6330)  can1  8100302   [5]  00 02 0A 00 05
 (4.6340)  can1  4100208   [8]  00 00 00 00 00 00 00 00
 (4.6360)  can1  4100209   [8]  00 00 00 00 00 00 00 00
 (4.6430)  can1  89A0C02   [8]  00 00 00 00 00 00 00 00
 (4.6430)  can1  4100208   [8]  00 00 00 00 00 00 00 00
 (4.6440)  can1  8030C02   [8]  00 00 2A 68 2A 68 92 17
 (4.6450)  can1  8580C02   [8]  00 00 00 00 00 00 00 00
 (4.6450)  can1  4100209   [8]  00 00 00 00 00 00 00 00
 (4.6530)  can1  4100208   [8]  00 00 00 00 00 00 00 00
 (4.6550)  can1  4100209   [8]  00 00 00 00 00 00 00 00
 (4.6580)  can1  8100302   [5]  00 03 0A 00 05
 (4.6630)  can1  89A0C02   [8]  00 00 00 00 00 00 00 00
 (4.6630)  can1  404FF01   [1]  00
 (4.6640)  can1  4100208   [8]  00 00 00 00 00 00 00 00
 (4.6640)  can1  8030C02   [8]  00 00 2A 68 2A 68 92 17
 (4.6650)  can1  8580C02   [8]  00 00 00 00 00 00 00 00
 (4.6660)  can1  4100209   [8]  00 00 00 00 00 00 00 00
 (4.6660)  can1  8041001   [8]  CC 00 D0 15 18 97 1B 00
 (4.6670)  can1  8120C01   [8]  63 00 00 00 00 00 00 00
 (4.6680)  can1  80F1201   [4]  DA 11 00 00
 (4.6680)  can1  18800401   [8]  04 19 83 7E 83 14 75 00
 (4.6680)  can1  18840401   [8]  04 19 83 7E 83 12 75 00
 (4.6690)  can1  18C00401   [8]  04 02 31 8B 2F 69 30 00
 (4.6730)  can1  4100208   [8]  00 00 00 00 00 00 00 00
 (4.6750)  can1  4100209   [8]  00 00 00 00 00 00 00 00
 (4.6830)  can1  404FF02   [1]  00
 (4.6830)  can1  4100208   [8]  00 00 00 00 00 00 00 00
 (4.6840)  can1  8100302   [5]  00 04 0A 00 05
 (4.6850)  can1  89A0C02   [8]  00 00 00 00 00 00 00 00
 (4.6850)  can1  8030C02   [8]  00 00 2A 68 2A 68 92 17
 (4.6860)  can1  8580C02   [8]  00 00 00 00 00 00 00 00
 (4.6860)  can1  4100209   [8]  00 00 00 00 00 00 00 00
 (4.6930)  can1  4100208   [8]  00 00 00 00 00 00 00 00
 (4.6950)  can1  4100209   [8]  00 00 00 00 00 00 00 00
 (4.7030)  can1  89A0C02   [8]  00 00 00 00 00 00 00 00
 (4.7040)  can1  4100208   [8]  00 00 00 00 00 00 00 00
 (4.7040)  can1  8030C02   [8]  00 00 2A 68 2A 68 92 17
 (4.7050)  can1  8580C02   [8]  00 00 00 00 00 00 00 00
 (4.7050)  can1  4100209   [8]  00 00 00 00 00 00 00 00
 (4.7080)  can1  8100302   [5]  00 03 0A 00 05
 (4.7110)  can1  8101201   [8]  00 00 4D 84 38 74 03 00
 (4.7120)  can1  8010C01   [8]  00 00 00 00 00 00 00 00
 (4.7140)  can1  18101203   [4]  35 2C 51 01
 (4.7140)  can1  4100208   [8]  00 00 00 00 00 00 00 00
 (4.7150)  can1  4100209   [8]  00 00 00 00 00 00 00 00
 (4.7170)  can1  18800401   [8]  05 C4 82 52 82 77 82 00
 (4.7170)  can1  18840401   [8]  05 C4 82 52 82 76 82 00
 (4.7180)  can1  18C00401   [8]  05 1D 32 EE 30 10 33 00
 (4.7230)  can1  89A0C02   [8]  00 00 00 00 00 00 00 00
 (4.7230)  can1  4100208   [8]  00 00 00 00 00 00 00 00
 (4.7240)  can1  8030C02   [8]  00 00 2A 68 2A 68 92 17
 (4.7250)  can1  8580C02   [8]  00 00 00 00 00 00 00 00
 (4.7250)  can1  4100209   [8]  00 00 00 00 00 00 00 00
 (4.7330)  can1  8100302   [5]  00 03 0A 00 05
 (4.7330)  can1  4100208   [8]  00 00 00 00 00 00 00 00
 (4.7360)  can1  4100209   [8]  00 00 00 00 00 00 00 00
 (4.7430)  can1  89A0C02   [8]  00 00 00 00 00 00 00 00
 (4.7430)  can1  4100208   [8]  00 00 00 00 00 00 00 00
 (4.7440)  can1  8030C02   [8]  00 00 2A 68 2A 68 92 17
 (4.7450)  can1  8580C02   [8]  00 00 00 00 00 00 00 00
 (4.7450)  can1  4100209   [8]  00 00 00 00 00 00 00 00
 (4.7530)  can1  4100208   [8]  00 00 00 00 00 00 00 00
 (4.7550)  can1  4100209   [8]  00 00 00 00 00 00 00 00
 (4.7580)  can1  8100302   [5]  00 04 0A 00 05
 (4.7630)  can1  89A0C02   [8]  00 00 00 00 00 00 00 00
 (4.7630)  can1  4100208   [8]  00 00 00 00 00 00 00 00
 (4.7640)  can1  8030C02   [8]  00 00 2A 68 2A 68 92 17
 (4.7640)  can1  8580C02   [8]  00 00 00 00 00 00 00 00
 (4.7650)  can1  4100209   [8]  00 00 00 00 00 00 00 00
 (4.7660)  can1  8041001   [8]  CC 00 D0 15 18 97 1B 00
 (4.7660)  can1  18800401   [8]  06 B5 82 33 83 75 83 00
 (4.7670)  can1  18840401   [8]  06 B5 82 33 83 74 83 00
 (4.7670)  can1  18C00401   [8]  06 B9 30 70 33 C2 30 00
 (4.7730)  can1  4100208   [8]  00 00 00 00 00 00 00 00
 (4.7750)  can1  4100209   [8]  00 00 00 00 00 00 00 00
 (4.7830)  can1  8100302   [5]  00 03 0A 00 05
 (4.7840)  can1  4100208   [8]  00 00 00 00 00 00 00 00
 (4.7840)  can1  8580C02   [8]  00 00 00 00 00 00 00 00
 (4.7850)  can1  89A0C02   [8]  00 00 00 00 00 00 00 00
 (4.7850)  can1  8030C02   [8]  00 00 2A 68 2A 68 92 17
 (4.7850)  can1  4100209   [8]  00 00 00 00 00 00 00 00
 (4.7930)  can1  4100208   [8]  00 00 00 00 00 00 00 00
 (4.7950)  can1  4100209   [8]  00 00 00 00 00 00 00 00
 (4.8030)  can1  89A0C02   [8]  00 00 00 00 00 00 00 00
 (4.8030)  can1  4100208   [8]  00 00 00 00 00 00 00 00
 (4.8040)  can1  8030C02   [8]  00 00 2A 68 2A 68 92 17
 (4.8050)  can1  8580C02   [8]  00 00 00 00 00 00 00 00
 (4.8060)  can1  4100209   [8]  00 00 00 00 00 00 00 00
 (4.8080)  can1  8100302   [5]  00 04 0A 00 05
 (4.8120)  can1  8101201   [8]  00 00 4F 84 38 74 04 00
 (4.8130)  can1  8010C01   [8]  00 00 00 00 00 00 00 00
 (4.8130)  can1  4100208   [8]  00 00 00 00 00 00 00 00
 (4.8140)  can1  4100209   [8]  00 00 00 00 00 00 00 00
 (4.8170)  can1  18800401   [8]  07 74 83 23 83 8B 82 00
 (4.8170)  can1  18840401   [8]  07 75 83 23 83 8A 82 00
 (4.8170)  can1  18C00401   [8]  07 83 33 8C 30 5D 33 00
 (4.8230)  can1  89A0C02   [8]  00 00 00 00 00 00 00 00
 (4.8230)  can1  4100208   [8]  00 00 00 00 00 00 00 00
 (4.8240)  can1  8030C02   [8]  00 00 2A 68 2A 68 92 17
 (4.8250)  can1  8580C02   [8]  00 00 00 00 00 00 00 00
 (4.8250)  can1  4100209   [8]  00 00 00 00 00 00 00 00
 (4.8330)  can1  8100302   [5]  00 03 0A 00 05
 (4.8330)  can1  4100208   [8]  00 00 00 00 00 00 00 00
 (4.8350)  can1  4100209   [8]  00 00 00 00 00 00 00 00
 (4.8430)  can1  89A0C02   [8]  00 00 00 00 00 00 00 00
 (4.8440)  can1  4100208   [8]  00 00 00 00 00 00 00 00
 (4.8440)  can1  8030C02   [8]  00 00 2A 68 2A 68 92 17
 (4.8450)  can1  8580C02   [8]  00 00 00 00 00 00 00 00
 (4.8450)  can1  4100209   [8]  00 00 00 00 00 00 00 00
 (4.8530)  can1  4100208   [8]  00 00 00 00 00 00 00 00
 (4.8550)  can1  4100209   [8]  00 00 00 00 00 00 00 00
 (4.8580)  can1  8100302   [5]  00 03 0A 00 05
 (4.8630)  can1  89A0C02   [8]  00 00 00 00 00 00 00 00
 (4.8630)  can1  4100208   [8]  00 00 00 00 00 00 00 00
 (4.8640)  can1  8030C02   [8]  00 00 2A 68 2A 68 92 17
 (4.8650)  can1  8580C02   [8]  00 00 00 00 00 00 00 00
 (4.8650)  can1  4100209   [8]  00 00 00 00 00 00 00 00
 (4.8660)  can1  8041001   [8]  CC 00 D0 15 18 97 1B 00
 (4.8670)  can1  18800401   [8]  08 4C 82 39 74 61 83 00
 (4.8670)  can1  18840401   [8]  08 4C 82 38 74 61 83 00
 (4.8680)  can1  18C00401   [8]  08 3C 30 3B 33 E6 2F 00
 (4.8730)  can1  4100208   [8]  00 00 00 00 00 00 00 00
 (4.8760)  can1  4100209   [8]  00 00 00 00 00 00 00 00
 (4.8830)  can1  8100302   [5]  00 03 0A 00 05
 (4.8830)  can1  4100208   [8]  00 00 00 00 00 00 00 00
 (4.8830)  can1  8580C02   [8]  00 00 00 00 00 00 00 00
 (4.8840)  can1  89A0C02   [8]  00 00 00 00 00 00 00 00
 (4.8840)  can1  8030C02   [8]  00 00 2A 68 2A 68 92 17
 (4.8850)  can1  4100209   [8]  00 00 00 00 00 00 00 00
 (4.8930)  can1  4100208   [8]  00 00 00 00 00 00 00 00
 (4.8950)  can1  4100209   [8]  00 00 00 00 00 00 00 00
 (4.9030)  can1  89A0C02   [8]  00 00 00 00 00 00 00 00
 (4.9040)  can1  4100208   [8]  00 00 00 00 00 00 00 00
 (4.9040)  can1  8030C02   [8]  00 00 2A 68 2A 68 92 17
 (4.9050)  can1  8580C02   [8]  00 00 00 00 00 00 00 00
 (4.9050)  can1  4100209   [8]  00 00 00 00 00 00 00 00
 (4.9080)  can1  8100302   [5]  00 03 0A 00 05
 (4.9130)  can1  8101201   [8]  00 00 4D 84 38 74 03 00
 (4.9140)  can1  8010C01   [8]  00 00 00 00 00 00 00 00
 (4.9140)  can1  4100208   [8]  00 00 00 00 00 00 00 00
 (4.9160)  can1  4100209   [8]  00 00 00 00 00 00 00 00
 (4.9160)  can1  18800401   [8]  09 F6 83 37 83 9B 82 00
 (4.9170)  can1  18840401   [8]  09 F5 83 38 83 9A 82 00
 (4.9170)  can1  18C00401   [8]  09 AA 32 E1 2E 75 31 00
 (4.9230)  can1  89A0C02   [8]  00 00 00 00 00 00 00 00
 (4.9230)  can1  4100208   [8]  00 00 00 00 00 00 00 00
 (4.9240)  can1  8030C02   [8]  00 00 2A 68 2A 68 92 17
 (4.9250)  can1  8580C02   [8]  00 00 00 00 00 00 00 00
 (4.9250)  can1  4100209   [8]  00 00 00 00 00 00 00 00
 (4.9330)  can1  8100302   [5]  00 03 0A 00 05
 (4.9340)  can1  4100208   [8]  00 00 00 00 00 00 00 00
 (4.9360)  can1  4100209   [8]  00 00 00 00 00 00 00 00
 (4.9430)  can1  89A0C02   [8]  00 00 00 00 00 00 00 00
 (4.9430)  can1  4100208   [8]  00 00 00 00 00 00 00 00
 (4.9440)  can1  8030C02   [8]  00 00 2A 68 2A 68 92 17
 (4.9450)  can1  8580C02   [8]  00 00 00 00 00 00 00 00
 (4.9450)  can1  4100209   [8]  00 00 00 00 00 00 00 00
 (4.9530)  can1  4100208   [8]  00 00 00 00 00 00 00 00
 (4.9550)  can1  4100209   [8]  00 00 00 00 00 00 00 00
 (4.9580)  can1  8100302   [5]  00 03 0A 00 05
 (4.9630)  can1  89A0C02   [8]  00 00 00 00 00 00 00 00
 (4.9640)  can1  4100208   [8]  00 00 00 00 00 00 00 00
 (4.9640)  can1  8030C02   [8]  00 00 2A 68 2A 68 92 17
 (4.9650)  can1  8580C02   [8]  00 00 00 00 00 00 00 00
 (4.9650)  can1  4100209   [8]  00 00 00 00 00 00 00 00
 (4.9660)  can1  8041001   [8]  CC 00 D0 15 18 97 1B 00
 (4.9660)  can1  18800401   [8]  0A D9 81 5A 82 C4 82 00
 (4.9670)  can1  18840401   [8]  0A D8 81 59 82 C3 82 00
 (4.9680)  can1  18C00401   [8]  0A 3B 30 C3 32 C5 30 00
 (4.9730)  can1  4100208   [8]  00 00 00 00 00 00 00 00
 (4.9750)  can1  4100209   [8]  00 00 00 00 00 00 00 00
 (4.9830)  can1  8100302   [5]  00 03 0A 00 05
 (4.9830)  can1  4100208   [8]  00 00 00 00 00 00 00 00
 (4.9840)  can1  8580C02   [8]  00 00 00 00 00 00 00 00
 (4.9850)  can1  89A0C02   [8]  00 00 00 00 00 00 00 00
 (4.9860)  can1  8030C02   [8]  00 00 2A 68 2A 68 92 17
 (4.9860)  can1  4100209   [8]  00 00 00 00 00 00 00 00
 (4.9930)  can1  4100208   [8]  00 00 00 00 00 00 00 00
 (4.9950)  can1  4100209   [8]  00 00 00 00 00 00 00 00
 (5.0030)  can1  89A0C02   [8]  00 00 00 00 00 00 00 00
 (5.0030)  can1  4100208   [8]  00 00 00 00 00 00 00 00
 (5.0040)  can1  8030C02   [8]  00 00 2A 68 2A 68 92 17
 (5.0040)  can1  8580C02   [8]  00 00 00 00 00 00 00 00
 (5.0050)  can1  4100209   [8]  00 00 00 00 00 00 00 00
 (5.0080)  can1  8100302   [5]  00 03 0A 00 05
 (5.0130)  can1  4100208   [8]  00 00 00 00 00 00 00 00
 (5.0130)  can1  8010C01   [8]  00 00 00 00 00 00 00 00
 (5.0140)  can1  8101201   [8]  00 00 4F 84 38 74 01 00
 (5.0150)  can1  4100209   [8]  00 00 00 00 00 00 00 00
 (5.0150)  can1  18800401   [8]  0B 07 83 30 83 53 83 00
 (5.0160)  can1  18840401   [8]  0B 06 83 2F 83 53 83 00
 (5.0170)  can1  18C00401   [8]  0B 47 33 F7 30 4B 33 00
 (5.0230)  can1  89A0C02   [8]  00 00 00 00 00 00 00 00
 (5.0240)  can1  4100208   [8]  00 00 00 00 00 00 00 00
 (5.0240)  can1  8030C02   [8]  00 00 2A 68 2A 68 92 17
 (5.0250)  can1  8580C02   [8]  00 00 00 00 00 00 00 00
 (5.0260)  can1  4100209   [8]  00 00 00 00 00 00 00 00
 (5.0330)  can1  8100302   [5]  00 03 0A 00 05
 (5.0330)  can1  4100208   [8]  00 00 00 00 00 00 00 00
 (5.0350)  can1  4100209   [8]  00 00 00 00 00 00 00 00
 (5.0430)  can1  89A0C02   [8]  00 00 00 00 00 00 00 00
 (5.0440)  can1  4100208   [8]  00 00 00 00 00 00 00 00
 (5.0440)  can1  8030C02   [8]  00 00 2A 68 2A 68 92 17
 (5.0450)  can1  8580C02   [8]  00 00 00 00 00 00 00 00
 (5.0450)  can1  4100209   [8]  00 00 00 00 00 00 00 00
 (5.0530)  can1  4100208   [8]  00 00 00 00 00 00 00 00
 (5.0550)  can1  4100209   [8]  00 00 00 00 00 00 00 00
 (5.0580)  can1  8100302   [5]  00 03 0A 00 05
 (5.0630)  can1  89A0C02   [8]  00 00 00 00 00 00 00 00
 (5.0630)  can1  4100208   [8]  00 00 00 00 00 00 00 00
 (5.0640)  can1  8030C02   [8]  00 00 2A 68 2A 68 92 17
 (5.0650)  can1  8580C02   [8]  00 00 00 00 00 00 00 00
 (5.0660)  can1  4100209   [8]  00 00 00 00 00 00 00 00
 (5.0660)  can1  8041001   [8]  CC 00 D0 15 18 97 1B 00
 (5.0670)  can1  18800401   [8]  0C 2A 83 96 82 99 82 00
 (5.0670)  can1  18840401   [8]  0C 29 83 96 82 99 82 00
 (5.0680)  can1  18C00401   [8]  0C A1 30 E8 32 4F 30 00
 (5.0730)  can1  4100208   [8]  00 00 00 00 00 00 00 00
 (5.0750)  can1  4100209   [8]  00 00 00 00 00 00 00 00
 (5.0830)  can1  8100302   [5]  00 03 0A 00 05
 (5.0840)  can1  4100208   [8]  00 00 00 00 00 00 00 00
 (5.0840)  can1  8580C02   [8]  00 00 00 00 00 00 00 00
 (5.0850)  can1  89A0C02   [8]  00 00 00 00 00 00 00 00
 (5.0860)  can1  8030C02   [8]  00 00 2A 68 2A 68 92 17
 (5.0860)  can1  4100209   [8]  00 00 00 00 00 00 00 00
 (5.0930)  can1  4100208   [8]  00 00 00 00 00 00 00 00
 (5.0950)  can1  4100209   [8]  00 00 00 00 00 00 00 00
 (5.1030)  can1  89A0C02   [8]  00 00 00 00 00 00 00 00
 (5.1210)  can1  4100208   [8]  00 00 00 00 00 00 00 00
 (5.1220)  can1  8030C02   [8]  00 00 2A 68 2A 68 92 17
 (5.1230)  can1  8580C02   [8]  00 00 00 00 00 00 00 00
 (5.1240)  can1  4100209   [8]  00 00 00 00 00 00 00 00
 (5.1240)  can1  8100302   [5]  00 03 0A 00 05
 (5.1250)  can1  4100208   [8]  00 00 00 00 00 00 00 00
 (5.1260)  can1  8101201   [8]  00 00 4E 84 39 74 02 00
 (5.1260)  can1  4100209   [8]  00 00 00 00 00 00 00 00
 (5.1260)  can1  8010C01   [8]  00 00 00 00 00 00 00 00
 (5.1270)  can1  18800401   [8]  0D EA 82 28 83 62 83 00
 (5.1280)  can1  18840401   [8]  0D EA 82 27 83 62 83 00
 (5.1280)  can1  18C00401   [8]  0D 53 32 D9 2F 40 31 00
 (5.1280)  can1  89A0C02   [8]  00 00 00 00 00 00 00 00
 (5.1290)  can1  4100208   [8]  00 00 00 00 00 00 00 00
 (5.1300)  can1  8030C02   [8]  00 00 2A 68 2A 68 92 17
 (5.1300)  can1  8580C02   [8]  00 00 00 00 00 00 00 00
 (5.1310)  can1  4100209   [8]  00 00 00 00 00 00 00 00
 (5.1330)  can1  8100302   [5]  00 03 0A 00 05
 (5.1330)  can1  4100208   [8]  00 00 00 00 00 00 00 00
 (5.1350)  can1  4100209   [8]  00 00 00 00 00 00 00 00
 (5.1430)  can1  89A0C02   [8]  00 00 00 00 00 00 00 00
 (5.1430)  can1  4100208   [8]  00 00 00 00 00 00 00 00
 (5.1440)  can1  8030C02   [8]  00 00 2A 68 2A 68 92 17
 (5.1440)  can1  8580C02   [8]  00 00 00 00 00 00 00 00
 (5.1450)  can1  4100209   [8]  00 00 00 00 00 00 00 00
 (5.1530)  can1  4100208   [8]  00 00 00 00 00 00 00 00
 (5.1550)  can1  4100209   [8]  00 00 00 00 00 00 00 00
 (5.1580)  can1  8100302   [5]  00 04 0A 00 05
 (5.1630)  can1  89A0C02   [8]  00 00 00 00 00 00 00 00
 (5.1630)  can1  4100208   [8]  00 00 00 00 00 00 00 00
