 (1.4490)  can1  596FF71   [8]  FE 7F FF FF FF FF F3 4D
 (1.5000)  can1  585FF72   [8]  04 80 60 09 60 09 FE 09
 (1.5010)  can1  8100302   [5]  01 00 0A 00 09
 (1.5020)  can1  4100209   [8]  A8 47 03 00 00 00 00 00
 (1.5020)  can1  4100208   [8]  E8 09 03 00 00 00 00 00
 (1.5020)  can1  596FF71   [8]  0A 80 FF FF FF FF F5 9D
 (1.5030)  can1  1948FF71   [8]  00 C0 00 55 FF FF ED 00
 (1.5030)  can1  1949FF71   [8]  0D 80 00 0D A0 00 EE 28
 (1.5030)  can1  585FF72   [8]  09 80 60 09 60 09 F0 DC
 (1.5040)  can1  194AFF71   [8]  4B 77 57 77 05 58 EF DC
 (1.5040)  can1  8100302   [5]  02 00 0A 00 09
 (1.5040)  can1  194BFF71   [8]  86 F5 FF FF FF FF F0 67
 (1.5040)  can1  194CFF71   [8]  FF FF FF FF FF FF F1 EB
 (1.5040)  can1  4100209   [8]  A8 47 03 00 00 00 00 00
 (1.5050)  can1  4100208   [8]  E8 09 03 00 00 00 00 00
 (1.5050)  can1  5807202   [8]  0E 80 00 00 E0 01 0C 6A
 (1.5050)  can1  5817202   [8]  01 00 10 27 10 27 0F E3
 (1.5060)  can1  5907102   [8]  0E 80 00 00 E0 01 0C 6A
 (1.5060)  can1  5917102   [8]  01 00 10 27 10 27 0F E3
 (1.5060)  can1  5827202   [8]  FA 00 00 00 00 00 0C D4
 (1.5060)  can1  5927102   [8]  FA 00 00 00 00 00 0C D4
 (1.5070)  can1  5837202   [8]  2C 41 06 00 00 00 0C E0
 (1.5070)  can1  5847270   [8]  00 00 00 00 00 00 0C 9F
 (1.5070)  can1  5937102   [8]  2C 41 06 00 00 00 0C E0
 (1.5080)  can1  5947102   [8]  00 00 00 00 00 00 0C 9F
 (1.5080)  can1  8580C02   [8]  07 00 07 00 00 00 00 00
 (1.5080)  can1  89A0C02   [8]  FF 75 00 00 CC 81 00 00
 (1.5080)  can1  595FF71   [8]  09 80 60 09 60 09 F6 DC
 (1.5080)  can1  8030C02   [8]  00 00 2A 68 2A 68 92 17
 (1.5090)  can1  8041001   [8]  A8 01 20 22 10 AF 3B 00
 (1.5090)  can1  586FF72   [8]  FF 7F FF FF FF FF F7 19
 (1.5090)  can1  18800401   [8]  06 A6 89 D1 89 D9 89 00
 (1.5090)  can1  18840401   [8]  06 C3 89 F0 89 F6 89 00
 (1.5100)  can1  18C00401   [8]  06 18 31 9C 32 E7 30 00
 (1.5100)  can1  4100209   [8]  A8 47 03 00 03 00 00 00
 (1.5100)  can1  4100208   [8]  E8 09 03 00 00 00 00 00
 (1.5100)  can1  596FF71   [8]  FF 7F FF FF FF FF F6 19
 (1.5110)  can1  585FF72   [8]  0E 80 60 09 60 09 F1 5F
 (1.5110)  can1  4100209   [8]  A8 47 03 00 00 00 00 00
 (1.5110)  can1  4100208   [8]  E9 09 03 00 03 00 00 00
 (1.5120)  can1  8100302   [5]  03 00 0A 00 09
 (1.5120)  can1  8580C02   [8]  00 00 00 00 04 00 00 00
 (1.5120)  can1  89A0C02   [8]  00 00 00 00 00 00 00 00
 (1.5130)  can1  8030C02   [8]  00 00 2A 68 2A 68 92 17
 (1.5130)  can1  595FF71   [8]  0E 80 60 09 60 09 F7 5F
 (1.5130)  can1  586FF72   [8]  06 80 FF FF FF FF F8 1C
 (1.5140)  can1  589FF72   [8]  1A D0 02 81 02 00 F1 87
 (1.5140)  can1  4100209   [8]  A8 47 03 00 00 00 00 00
 (1.5150)  can1  4100208   [8]  E9 09 03 00 00 00 00 00
 (1.5150)  can1  596FF71   [8]  05 80 FF FF FF FF F7 E0
 (1.5150)  can1  585FF72   [8]  0E 80 60 09 60 09 F2 5F
 (1.5160)  can1  587FF72   [8]  0B 08 60 0F FF FF F0 DD
 (1.5160)  can1  588FF72   [8]  E0 01 50 FF FF FF F0 EE
 (1.5160)  can1  4100209   [8]  A8 47 03 00 00 00 00 00
 (1.5170)  can1  4100208   [8]  E9 09 03 00 00 00 00 00
 (1.5170)  can1  89A0C02   [8]  FF 3A 00 00 CC 46 00 00
 (1.5180)  can1  8030C02   [8]  00 00 2A 68 2A 68 92 17
 (1.5190)  can1  8580C02   [8]  03 00 04 00 00 00 00 00
 (1.5190)  can1  595FF71   [8]  0E 80 60 09 60 09 F8 5F
 (1.5190)  can1  586FF72   [8]  09 80 FF FF FF FF F9 61
 (1.5200)  can1  8100302   [5]  03 00 0A 00 09
 (1.5200)  can1  4100209   [8]  A8 47 03 00 00 00 00 00
 (1.5200)  can1  4100208   [8]  E9 09 03 00 00 00 00 00
 (1.5210)  can1  596FF71   [8]  08 80 FF FF FF FF F8 35
 (1.5210)  can1  585FF72   [8]  0E 80 60 09 60 09 F3 5F
 (1.5220)  can1  18800401   [8]  07 D4 89 C4 89 9D 89 00
 (1.5220)  can1  18840401   [8]  07 F4 89 E4 89 BD 89 00
 (1.5230)  can1  18C00401   [8]  07 AA 32 F2 30 A2 32 00
 (1.5230)  can1  4100209   [8]  A9 47 03 00 03 00 00 00
 (1.5240)  can1  4100208   [8]  EA 09 03 00 03 00 00 00
 (1.5240)  can1  5807202   [8]  0E 80 00 00 E0 01 0D 6A
 (1.5240)  can1  5817202   [8]  01 00 10 27 10 27 00 E3
 (1.5240)  can1  5907102   [8]  0E 80 00 00 E0 01 0D 6A
 (1.5250)  can1  5827202   [8]  FA 00 00 00 00 00 0D D4
 (1.5250)  can1  5917102   [8]  01 00 10 27 10 27 00 E3
 (1.5250)  can1  5927102   [8]  FA 00 00 00 00 00 0D D4
 (1.5250)  can1  5837202   [8]  2C 41 06 00 00 00 0D E0
 (1.5260)  can1  5937102   [8]  2C 41 06 00 00 00 0D E0
 (1.5260)  can1  5847270   [8]  00 00 00 00 00 00 0D 9F
 (1.5260)  can1  5947102   [8]  00 00 00 00 00 00 0D 9F
 (1.5270)  can1  89A0C02   [8]  66 5E 00 00 32 6A 00 00
 (1.5270)  can1  595FF71   [8]  0E 80 60 09 60 09 F9 5F
 (1.5270)  can1  597FF71   [8]  0A 08 78 0F FF FF F0 C4
 (1.5280)  can1  598FF71   [8]  60 01 76 FF FF FF F0 B7
 (1.5280)  can1  586FF72   [8]  01 80 FF FF FF FF FA 9F
 (1.5280)  can1  599FF71   [8]  1A D0 02 81 02 00 F0 87
 (1.5280)  can1  8030C02   [8]  99 3A 60 00 95 00 DB 05
 (1.5290)  can1  8580C02   [8]  05 00 06 00 04 00 04 00
 (1.5290)  can1  4100209   [8]  A9 47 03 00 00 00 00 00
 (1.5290)  can1  4100208   [8]  EA 09 03 00 00 00 00 00
 (1.5290)  can1  8100302   [5]  03 00 0A 00 09
 (1.5310)  can1  596FF71   [8]  04 80 FF FF FF FF F9 B4
 (1.5310)  can1  8101201   [8]  4E 60 14 8A 0A 86 8D 00
 (1.5320)  can1  8010C01   [8]  D5 5F 00 00 00 00 00 00
 (1.5320)  can1  585FF72   [8]  0E 80 60 09 60 09 F4 5F
 (1.5350)  can1  4100209   [8]  A9 47 03 00 03 00 00 00
 (1.5370)  can1  4100208   [8]  EA 09 03 00 03 00 00 00
 (1.5370)  can1  89A0C02   [8]  33 2F 00 00 CC 0B 00 00
 (1.5380)  can1  8030C02   [8]  30 75 8A FF E9 FE 00 00
 (1.5390)  can1  8580C02   [8]  02 00 00 00 04 00 04 00
 (1.5410)  can1  595FF71   [8]  0E 80 60 09 60 09 FA 5F
 (1.5420)  can1  586FF72   [8]  00 80 FF FF FF FF FB CB
 (1.5450)  can1  4100209   [8]  A9 47 03 00 00 00 00 00
 (1.5470)  can1  4100208   [8]  EA 09 03 00 00 00 00 00
 (1.5510)  can1  596FF71   [8]  02 80 FF FF FF FF FA 63
 (1.5520)  can1  585FF72   [8]  0E 80 60 09 60 09 F5 5F
 (1.5520)  can1  8100302   [5]  03 00 0A 00 09
 (1.5550)  can1  4100209   [8]  AB 47 03 00 0B 00 00 00
 (1.5570)  can1  4100208   [8]  EB 09 03 00 03 00 00 00
 (1.5570)  can1  89A0C02   [8]  99 17 00 00 00 00 00 00
 (1.5580)  can1  8030C02   [8]  30 75 D0 FE B3 FE 00 00
 (1.5580)  can1  8580C02   [8]  01 00 00 00 04 00 10 00
 (1.5610)  can1  595FF71   [8]  0E 80 60 09 60 09 FB 5F
 (1.5620)  can1  8041001   [8]  A8 01 20 22 10 AF 3B 00
 (1.5630)  can1  586FF72   [8]  05 80 FF FF FF FF FC E0
 (1.5640)  can1  18800401   [8]  08 84 89 DF 85 E2 89 00
 (1.5640)  can1  18840401   [8]  08 AB 89 09 86 07 8A 00
 (1.5640)  can1  18C00401   [8]  08 71 30 8B 32 4C 30 00
 (1.5650)  can1  4100209   [8]  AB 47 03 00 00 00 00 00
 (1.5670)  can1  4100208   [8]  EB 09 03 00 03 00 00 00
 (1.5710)  can1  596FF71   [8]  04 80 FF FF FF FF FB B4
 (1.5720)  can1  585FF72   [8]  0E 80 60 09 60 09 F6 5F
 (1.5750)  can1  4100209   [8]  AC 47 03 00 03 00 00 00
 (1.5770)  can1  4100208   [8]  EB 09 03 00 00 00 00 00
 (1.5770)  can1  5807202   [8]  13 80 00 00 E0 01 0E 6C
 (1.5780)  can1  5817202   [8]  01 00 10 27 10 27 01 E3
 (1.5790)  can1  5907102   [8]  13 80 00 00 E0 01 0E 6C
 (1.5800)  can1  5917102   [8]  01 00 10 27 10 27 01 E3
 (1.5800)  can1  5827202   [8]  FA 00 00 00 00 00 0E D4
 (1.5810)  can1  5927102   [8]  FA 00 00 00 00 00 0E D4
 (1.5810)  can1  5837202   [8]  2C 41 06 00 00 00 0E E0
 (1.5820)  can1  5847270   [8]  00 00 00 00 00 00 0E 9F
 (1.5830)  can1  5937102   [8]  2C 41 06 00 00 00 0E E0
 (1.5830)  can1  5947102   [8]  00 00 00 00 00 00 0E 9F
 (1.5830)  can1  8100302   [5]  04 00 0A 00 09
 (1.5840)  can1  89A0C02   [8]  33 2F 00 00 FF 3A 00 00
 (1.5840)  can1  595FF71   [8]  0E 80 60 09 60 09 FC 5F
 (1.5840)  can1  8030C02   [8]  30 75 8A FF C0 FF 00 00
 (1.5850)  can1  8580C02   [8]  02 00 03 00 00 00 04 00
 (1.5850)  can1  586FF72   [8]  09 80 FF FF FF FF FD 61
 (1.5850)  can1  589FF72   [8]  1A D0 02 81 02 00 F2 87
 (1.5860)  can1  4100209   [8]  AD 47 03 00 03 00 00 00
 (1.5870)  can1  4100208   [8]  EC 09 03 00 03 00 00 00
 (1.5910)  can1  596FF71   [8]  07 80 FF FF FF FF FC 48
 (1.5920)  can1  585FF72   [8]  13 80 60 09 60 09 F7 59
 (1.5920)  can1  587FF72   [8]  06 08 60 0F FF FF F1 08
 (1.5930)  can1  588FF72   [8]  E0 01 50 FF FF FF F1 EE
 (1.5950)  can1  4100209   [8]  AD 47 03 00 03 00 00 00
 (1.5970)  can1  4100208   [8]  ED 09 03 00 03 00 00 00
 (1.5970)  can1  8030C02   [8]  99 3A 2A 00 95 00 DB 05
 (1.5980)  can1  8580C02   [8]  04 00 06 00 04 00 04 00
 (1.5980)  can1  89A0C02   [8]  99 52 00 00 32 6A 00 00
 (1.6010)  can1  595FF71   [8]  13 80 60 09 60 09 FD 59
 (1.6020)  can1  586FF72   [8]  10 80 FF FF FF FF FE 18
 (1.6020)  can1  8100302   [5]  04 00 0A 00 09
 (1.6050)  can1  4100209   [8]  AD 47 03 00 00 00 00 00
 (1.6070)  can1  4100208   [8]  ED 09 03 00 03 00 00 00
 (1.6110)  can1  596FF71   [8]  13 80 FF FF FF FF FD E4
 (1.6120)  can1  585FF72   [8]  13 80 60 09 60 09 F8 59
 (1.6140)  can1  18800401   [8]  09 CA 89 A4 89 94 89 00
 (1.6140)  can1  18840401   [8]  09 EF 89 CD 89 BB 89 00
 (1.6140)  can1  18C00401   [8]  09 F2 31 A9 2F A5 31 00
 (1.6150)  can1  4100209   [8]  AE 47 03 00 03 00 00 00
 (1.6170)  can1  4100208   [8]  EE 09 03 00 03 00 00 00
 (1.6170)  can1  89A0C02   [8]  32 E0 00 00 CC BC 00 00
 (1.6180)  can1  8030C02   [8]  00 00 AF 02 0D 02 53 25
 (1.6180)  can1  8580C02   [8]  0D 00 0B 00 04 00 04 00
 (1.6210)  can1  595FF71   [8]  13 80 60 09 60 09 FE 59
 (1.6210)  can1  597FF71   [8]  0B 08 7A 0F FF FF F1 D5
 (1.6220)  can1  598FF71   [8]  60 01 76 FF FF FF F1 B7
 (1.6230)  can1  586FF72   [8]  05 80 FF FF FF FF FF E0
 (1.6230)  can1  599FF71   [8]  1A E0 02 82 02 00 F1 D1
 (1.6250)  can1  4100209   [8]  AF 47 03 00 03 00 00 00
 (1.6270)  can1  4100208   [8]  EF 09 03 00 03 00 00 00
 (1.6270)  can1  8100302   [5]  04 00 0A 00 09
 (1.6310)  can1  596FF71   [8]  0D 80 FF FF FF FF FE 1E
 (1.6320)  can1  585FF72   [8]  13 80 60 09 60 09 F9 59
 (1.6320)  can1  8101201   [8]  4B 60 0A 8A 08 86 B2 00
 (1.6330)  can1  8010C01   [8]  CE 5F 00 00 00 00 00 00
 (1.6350)  can1  4100209   [8]  B0 47 03 00 07 00 00 00
 (1.6370)  can1  4100208   [8]  EF 09 03 00 03 00 00 00
 (1.6370)  can1  5807202   [8]  13 80 00 00 E0 01 0F 6C
 (1.6380)  can1  5817202   [8]  01 00 10 27 10 27 02 E3
 (1.6390)  can1  5907102   [8]  13 80 00 00 E0 01 0F 6C
 (1.6390)  can1  5917102   [8]  01 00 10 27 10 27 02 E3
 (1.6390)  can1  5827202   [8]  FA 00 00 00 00 00 0F D4
 (1.6400)  can1  5927102   [8]  FA 00 00 00 00 00 0F D4
 (1.6400)  can1  5837202   [8]  2C 41 06 00 00 00 0F E0
 (1.6410)  can1  5847270   [8]  00 00 00 00 00 00 0F 9F
 (1.6410)  can1  5937102   [8]  2C 41 06 00 00 00 0F E0
 (1.6410)  can1  5947102   [8]  00 00 00 00 00 00 0F 9F
 (1.6420)  can1  8580C02   [8]  09 00 03 00 04 00 0A 00
 (1.6430)  can1  89A0C02   [8]  65 99 00 00 FF 3A 00 00
 (1.6430)  can1  595FF71   [8]  13 80 60 09 60 09 FF 59
 (1.6430)  can1  8030C02   [8]  30 75 DE FF 26 FF 00 00
 (1.6440)  can1  586FF72   [8]  02 80 FF FF FF FF F0 63
 (1.6440)  can1  1948FF72   [8]  00 C0 00 55 FF FF F2 05
 (1.6450)  can1  4100209   [8]  B1 47 03 00 03 00 00 00
 (1.6470)  can1  4100208   [8]  F0 09 03 00 03 00 00 00
 (1.6510)  can1  596FF71   [8]  FD 7F FF FF FF FF FF B1
 (1.6520)  can1  585FF72   [8]  13 80 60 09 60 09 FA 59
 (1.6520)  can1  8100302   [5]  04 00 0A 00 09
 (1.6550)  can1  4100209   [8]  B1 47 03 00 03 00 00 00
 (1.6570)  can1  4100208   [8]  F1 09 03 00 07 00 00 00
 (1.6570)  can1  89A0C02   [8]  00 00 00 00 99 17 00 00
 (1.6580)  can1  8030C02   [8]  30 75 12 FE 1F FF 00 00
 (1.6580)  can1  8580C02   [8]  FE FF 01 00 0A 00 04 00
 (1.6610)  can1  595FF71   [8]  13 80 60 09 60 09 F0 59
 (1.6610)  can1  8041001   [8]  A8 01 20 22 10 AF 3B 00
 (1.6620)  can1  586FF72   [8]  11 80 FF FF FF FF F1 4C
 (1.6620)  can1  1949FF72   [8]  0D 80 00 0D 90 00 F3 1D
 (1.6630)  can1  194AFF72   [8]  86 57 57 6F 95 56 F4 82
 (1.6630)  can1  194BFF72   [8]  6C F5 FF FF FF FF F5 52
 (1.6640)  can1  194CFF72   [8]  FF FF FF FF FF FF F6 F0
 (1.6640)  can1  18800401   [8]  0A 6B 89 7D 89 95 89 00
 (1.6650)  can1  18840401   [8]  0A 96 89 AE 89 C5 89 00
 (1.6650)  can1  18C00401   [8]  0A F6 30 67 32 60 31 00
 (1.6650)  can1  4100209   [8]  B2 47 03 00 03 00 00 00
 (1.6670)  can1  4100208   [8]  F2 09 03 00 03 00 00 00
 (1.6710)  can1  596FF71   [8]  0E 80 FF FF FF FF F0 E2
 (1.6720)  can1  585FF72   [8]  13 80 60 09 60 09 FB 59
 (1.6750)  can1  4100209   [8]  B2 47 03 00 03 00 00 00
 (1.6770)  can1  4100208   [8]  F3 09 03 00 03 00 00 00
 (1.6770)  can1  8100302   [5]  04 00 0A 00 09
 (1.6780)  can1  8580C02   [8]  09 00 0C 00 04 00 04 00
 (1.6780)  can1  89A0C02   [8]  32 A5 00 00 98 C8 00 00
 (1.6790)  can1  8030C02   [8]  00 00 A2 01 43 02 08 1F
 (1.6810)  can1  595FF71   [8]  13 80 60 09 60 09 F1 59
 (1.6820)  can1  586FF72   [8]  17 80 FF FF FF FF F2 9B
 (1.6820)  can1  589FF72   [8]  1A D0 02 81 02 00 F3 87
 (1.6850)  can1  4100209   [8]  B4 47 03 00 07 00 00 00
 (1.6870)  can1  4100208   [8]  F4 09 03 00 07 00 00 00
 (1.6910)  can1  596FF71   [8]  14 80 FF FF FF FF F1 67
 (1.6920)  can1  585FF72   [8]  13 80 60 09 60 09 FC 59
 (1.6920)  can1  587FF72   [8]  0E 08 5E 0F FF FF F2 98
 (1.6920)  can1  588FF72   [8]  E0 01 50 FF FF FF F2 EE
 (1.6950)  can1  4100209   [8]  B4 47 03 00 03 00 00 00
 (1.6970)  can1  4100208   [8]  F4 09 03 00 03 00 00 00
 (1.6970)  can1  5807202   [8]  13 80 00 00 E0 01 00 6C
 (1.6980)  can1  5817202   [8]  01 00 10 27 10 27 03 E3
 (1.6990)  can1  5907102   [8]  13 80 00 00 E0 01 00 6C
 (1.6990)  can1  5917102   [8]  01 00 10 27 10 27 03 E3
 (1.7000)  can1  5827202   [8]  FA 00 00 00 00 00 00 D4
 (1.7000)  can1  5927102   [8]  FA 00 00 00 00 00 00 D4
 (1.7000)  can1  5837202   [8]  2C 41 06 00 00 00 00 E0
 (1.7010)  can1  5847270   [8]  00 00 00 00 00 00 00 9F
 (1.7010)  can1  5937102   [8]  2C 41 06 00 00 00 00 E0
 (1.7010)  can1  5947102   [8]  00 00 00 00 00 00 00 9F
 (1.7010)  can1  8580C02   [8]  0E 00 10 00 04 00 04 00
 (1.7020)  can1  89A0C02   [8]  FF EB 00 00 65 0F 01 00
 (1.7020)  can1  595FF71   [8]  13 80 60 09 60 09 F2 59
 (1.7020)  can1  8030C02   [8]  00 00 E4 02 85 03 E9 31
 (1.7030)  can1  586FF72   [8]  01 80 FF FF FF FF F3 9F
 (1.7030)  can1  8100302   [5]  04 00 0A 00 09
 (1.7050)  can1  4100209   [8]  B6 47 03 00 07 00 00 00
 (1.7060)  can1  1948FF71   [8]  00 C0 00 55 FF FF F2 05
 (1.7070)  can1  4100208   [8]  F6 09 03 00 07 00 00 00
 (1.7070)  can1  1949FF71   [8]  0D 80 00 0D A0 00 F3 2D
 (1.7070)  can1  194AFF71   [8]  48 77 57 80 A5 57 F4 86
 (1.7080)  can1  194BFF71   [8]  86 F5 FF FF FF FF F5 6C
 (1.7080)  can1  194CFF71   [8]  FF FF FF FF FF FF F6 F0
 (1.7110)  can1  596FF71   [8]  0E 80 FF FF FF FF F2 E2
 (1.7120)  can1  585FF72   [8]  13 80 60 09 60 09 FD 59
 (1.7140)  can1  18800401   [8]  0B BB 89 B6 89 C3 89 00
 (1.7140)  can1  18840401   [8]  0B EA 89 E6 89 F2 89 00
 (1.7140)  can1  18C00401   [8]  0B B2 32 5B 31 B2 32 00
 (1.7150)  can1  4100209   [8]  B7 47 03 00 07 00 00 00
 (1.7170)  can1  4100208   [8]  F7 09 03 00 07 00 00 00
 (1.7170)  can1  89A0C02   [8]  32 A5 00 00 CC 0B 00 00
 (1.7180)  can1  8030C02   [8]  30 75 F5 FF CA FE 00 00
 (1.7180)  can1  8580C02   [8]  09 00 00 00 0A 00 0A 00
 (1.7210)  can1  595FF71   [8]  13 80 60 09 60 09 F3 59
 (1.7210)  can1  597FF71   [8]  0B 08 7A 0F FF FF F2 D5
 (1.7220)  can1  598FF71   [8]  60 01 76 FF FF FF F2 B7
 (1.7220)  can1  586FF72   [8]  08 80 FF FF FF FF F4 35
 (1.7220)  can1  599FF71   [8]  1A E0 02 82 02 00 F2 D1
 (1.7250)  can1  4100209   [8]  B8 47 03 00 07 00 00 00
 (1.7270)  can1  4100208   [8]  F8 09 03 00 07 00 00 00
 (1.7270)  can1  8100302   [5]  04 00 0A 00 09
 (1.7310)  can1  596FF71   [8]  04 80 FF FF FF FF F3 B4
 (1.7320)  can1  585FF72   [8]  13 80 60 09 60 09 FE 59
 (1.7330)  can1  8101201   [8]  4C 60 05 8A 0B 86 B0 00
 (1.7340)  can1  8010C01   [8]  CF 5F 00 00 00 00 00 00
 (1.7350)  can1  4100209   [8]  BA 47 03 00 07 00 00 00
 (1.7370)  can1  4100208   [8]  FA 09 03 00 07 00 00 00
 (1.7370)  can1  89A0C02   [8]  33 2F 00 00 66 5E 00 00
 (1.7380)  can1  8030C02   [8]  30 75 0F FF 6B FF 00 00
 (1.7380)  can1  8580C02   [8]  02 00 05 00 0A 00 0A 00
 (1.7410)  can1  595FF71   [8]  13 80 60 09 60 09 F4 59
 (1.7420)  can1  586FF72   [8]  1C 80 FF FF FF FF F5 99
 (1.7450)  can1  4100209   [8]  BA 47 03 00 03 00 00 00
 (1.7470)  can1  4100208   [8]  FB 09 03 00 07 00 00 00
 (1.7510)  can1  596FF71   [8]  12 80 FF FF FF FF F4 B0
 (1.7520)  can1  585FF72   [8]  13 80 60 09 60 09 FF 59
 (1.7520)  can1  8100302   [5]  04 00 0A 00 09
 (1.7550)  can1  4100209   [8]  BB 47 03 00 07 00 00 00
 (1.7570)  can1  4100208   [8]  FC 09 03 00 07 00 00 00
 (1.7570)  can1  5807202   [8]  0E 80 00 00 E0 01 01 6A
 (1.7580)  can1  5817202   [8]  01 00 10 27 10 27 04 E3
 (1.7580)  can1  5907102   [8]  0E 80 00 00 E0 01 01 6A
 (1.7580)  can1  5827202   [8]  FA 00 00 00 00 00 01 D4
 (1.7590)  can1  5917102   [8]  01 00 10 27 10 27 04 E3
 (1.7590)  can1  5927102   [8]  FA 00 00 00 00 00 01 D4
 (1.7600)  can1  5837202   [8]  2C 41 06 00 00 00 01 E0
 (1.7600)  can1  5937102   [8]  2C 41 06 00 00 00 01 E0
 (1.7600)  can1  5847270   [8]  00 00 00 00 00 00 01 9F
 (1.7610)  can1  5947102   [8]  00 00 00 00 00 00 01 9F
 (1.7610)  can1  89A0C02   [8]  65 D4 00 00 65 4A 01 00
 (1.7620)  can1  595FF71   [8]  13 80 60 09 60 09 F5 59
 (1.7620)  can1  8030C02   [8]  00 00 50 00 37 01 4C 0F
 (1.7640)  can1  8041001   [8]  A8 01 20 22 10 AF 3B 00
 (1.7650)  can1  586FF72   [8]  18 80 FF FF FF FF F6 E6
 (1.7650)  can1  8580C02   [8]  0C 00 13 00 0A 00 0A 00
 (1.7660)  can1  18800401   [8]  0C B4 89 8D 89 91 89 00
 (1.7660)  can1  18840401   [8]  0C E9 89 C4 89 C7 89 00
 (1.7660)  can1  18C00401   [8]  0C 1F 31 56 32 E2 30 00
 (1.7670)  can1  4100209   [8]  BD 47 03 00 07 00 00 00
 (1.7670)  can1  4100208   [8]  FD 09 03 00 07 00 00 00
 (1.7710)  can1  596FF71   [8]  20 80 FF FF FF FF F5 42
 (1.7720)  can1  585FF72   [8]  0E 80 60 09 60 09 F0 5F
 (1.7750)  can1  4100209   [8]  BE 47 03 00 07 00 00 00
 (1.7770)  can1  4100208   [8]  FF 09 03 00 07 00 00 00
 (1.7770)  can1  8100302   [5]  03 00 0A 00 09
 (1.7780)  can1  8580C02   [8]  16 00 11 00 0A 00 0A 00
 (1.7790)  can1  89A0C02   [8]  98 79 01 00 32 1B 01 00
 (1.7800)  can1  8030C02   [8]  00 00 93 01 DB 00 B1 14
 (1.7810)  can1  595FF71   [8]  0E 80 60 09 60 09 F6 5F
 (1.7820)  can1  586FF72   [8]  FB 7F FF FF FF FF F7 66
 (1.7820)  can1  589FF72   [8]  1A D0 02 81 02 00 F4 87
 (1.7850)  can1  4100209   [8]  BF 47 03 00 07 00 00 00
 (1.7870)  can1  4100208   [8]  00 0A 03 00 07 00 00 00
 (1.7910)  can1  596FF71   [8]  01 80 FF FF FF FF F6 9F
 (1.7920)  can1  585FF72   [8]  0E 80 60 09 60 09 F1 5F
 (1.7920)  can1  587FF72   [8]  0D 08 60 0F FF FF F3 0A
 (1.7920)  can1  588FF72   [8]  E0 01 50 FF FF FF F3 EE
 (1.7950)  can1  4100209   [8]  C1 47 03 00 0B 00 00 00
 (1.7970)  can1  4100208   [8]  02 0A 03 00 0B 00 00 00
 (1.7970)  can1  89A0C02   [8]  CC 0B 00 00 00 00 00 00
 (1.7980)  can1  8030C02   [8]  30 75 C2 FE 6A FE 00 00
 (1.7980)  can1  8580C02   [8]  00 00 FD FF 10 00 10 00
 (1.8010)  can1  595FF71   [8]  0E 80 60 09 60 09 F7 5F
 (1.8020)  can1  586FF72   [8]  0F 80 FF FF FF FF F8 B6
 (1.8020)  can1  8100302   [5]  03 00 0A 00 09
 (1.8050)  can1  4100209   [8]  C3 47 03 00 07 00 00 00
 (1.8070)  can1  4100208   [8]  03 0A 03 00 07 00 00 00
 (1.8110)  can1  596FF71   [8]  02 80 FF FF FF FF F7 63
 (1.8120)  can1  585FF72   [8]  0E 80 60 09 60 09 F2 5F
 (1.8140)  can1  18800401   [8]  0D A6 89 C0 89 AF 89 00
 (1.8140)  can1  18840401   [8]  0D DB 89 F6 89 E4 89 00
 (1.8140)  can1  18C00401   [8]  0D FE 31 14 30 F1 30 00
 (1.8150)  can1  4100209   [8]  C4 47 03 00 07 00 00 00
 (1.8170)  can1  4100208   [8]  05 0A 03 00 07 00 00 00
 (1.8170)  can1  5807202   [8]  0E 80 00 00 E0 01 02 6A
 (1.8180)  can1  5817202   [8]  01 00 10 27 10 27 05 E3
 (1.8180)  can1  5907102   [8]  0E 80 00 00 E0 01 02 6A
 (1.8180)  can1  5917102   [8]  01 00 10 27 10 27 05 E3
 (1.8190)  can1  5827202   [8]  FA 00 00 00 00 00 02 D4
 (1.8190)  can1  5927102   [8]  FA 00 00 00 00 00 02 D4
 (1.8200)  can1  5837202   [8]  2C 41 06 00 00 00 02 E0
 (1.8200)  can1  5847270   [8]  00 00 00 00 00 00 02 9F
 (1.8200)  can1  5937102   [8]  2C 41 06 00 00 00 02 E0
 (1.8210)  can1  5947102   [8]  00 00 00 00 00 00 02 9F
 (1.8210)  can1  8580C02   [8]  01 00 0A 00 0A 00 0A 00
 (1.8210)  can1  89A0C02   [8]  99 17 00 00 FF B0 00 00
 (1.8220)  can1  595FF71   [8]  0E 80 60 09 60 09 F8 5F
 (1.8230)  can1  597FF71   [8]  07 08 7A 0F FF FF F3 54
 (1.8240)  can1  598FF71   [8]  60 01 76 FF FF FF F3 B7
 (1.8240)  can1  586FF72   [8]  28 80 FF FF FF FF F9 BC
 (1.8240)  can1  599FF71   [8]  1A E0 02 82 02 00 F3 D1
 (1.8250)  can1  8030C02   [8]  30 75 E1 FE 0B 00 00 00
 (1.8250)  can1  4100209   [8]  C5 47 03 00 07 00 00 00
 (1.8270)  can1  4100208   [8]  07 0A 03 00 0B 00 00 00
 (1.8270)  can1  8100302   [5]  03 00 0A 00 09
 (1.8310)  can1  596FF71   [8]  1E 80 FF FF FF FF F8 31
 (1.8320)  can1  585FF72   [8]  0E 80 60 09 60 09 F3 5F
 (1.8340)  can1  8101201   [8]  4D 60 00 8A 0A 86 C2 00
 (1.8350)  can1  8010C01   [8]  CF 5F 00 00 00 00 00 00
 (1.8350)  can1  4100209   [8]  C7 47 03 00 0B 00 00 00
 (1.8370)  can1  4100208   [8]  08 0A 03 00 07 00 00 00
 (1.8380)  can1  8030C02   [8]  00 00 6A 00 FC 00 DD 0B
 (1.8390)  can1  8580C02   [8]  15 00 1C 00 0A 00 10 00
 (1.8390)  can1  89A0C02   [8]  FE 61 01 00 FE D7 01 00
 (1.8410)  can1  595FF71   [8]  0E 80 60 09 60 09 F9 5F
 (1.8420)  can1  586FF72   [8]  12 80 FF FF FF FF FA B0
 (1.8450)  can1  4100209   [8]  C8 47 03 00 07 00 00 00
 (1.8470)  can1  4100208   [8]  09 0A 03 00 07 00 00 00
 (1.8510)  can1  596FF71   [8]  1B 80 FF FF FF FF F9 1A
 (1.8520)  can1  585FF72   [8]  0E 80 60 09 60 09 F4 5F
 (1.8520)  can1  8100302   [5]  03 00 0A 00 09
 (1.8550)  can1  4100209   [8]  CA 47 03 00 0B 00 00 00
 (1.8570)  can1  4100208   [8]  0B 0A 03 00 0B 00 00 00
 (1.8570)  can1  89A0C02   [8]  98 3E 01 00 65 D4 00 00
 (1.8570)  can1  8030C02   [8]  17 6E 3E 00 BB FF B5 00
 (1.8580)  can1  8580C02   [8]  13 00 0C 00 10 00 10 00
 (1.8610)  can1  595FF71   [8]  0E 80 60 09 60 09 FA 5F
 (1.8620)  can1  8041001   [8]  A8 01 20 22 10 AF 3B 00
 (1.8620)  can1  586FF72   [8]  0A 80 FF FF FF FF FB 9D
 (1.8640)  can1  18800401   [8]  0E 82 89 77 89 64 89 00
 (1.8640)  can1  18840401   [8]  0E AE 89 A5 89 91 89 00
 (1.8640)  can1  18C00401   [8]  0E 2B 2F 91 31 A0 30 00
 (1.8650)  can1  4100209   [8]  CC 47 03 00 07 00 00 00
 (1.8670)  can1  4100208   [8]  0C 0A 03 00 07 00 00 00
 (1.8710)  can1  596FF71   [8]  0C 80 FF FF FF FF FA 4A
 (1.8720)  can1  585FF72   [8]  0E 80 60 09 60 09 F5 5F
 (1.8750)  can1  4100209   [8]  CE 47 03 00 0B 00 00 00
 (1.8770)  can1  4100208   [8]  0E 0A 03 00 0B 00 00 00
 (1.8770)  can1  5807202   [8]  09 80 00 00 E0 01 03 E9
 (1.8780)  can1  5817202   [8]  01 00 10 27 10 27 06 E3
 (1.8790)  can1  5907102   [8]  09 80 00 00 E0 01 03 E9
 (1.8790)  can1  5917102   [8]  01 00 10 27 10 27 06 E3
 (1.8790)  can1  5827202   [8]  FA 00 00 00 00 00 03 D4
 (1.8800)  can1  5927102   [8]  FA 00 00 00 00 00 03 D4
 (1.8800)  can1  5837202   [8]  2C 41 06 00 00 00 03 E0
 (1.8800)  can1  5847270   [8]  00 00 00 00 00 00 03 9F
 (1.8800)  can1  5937102   [8]  2C 41 06 00 00 00 03 E0
 (1.8810)  can1  5947102   [8]  00 00 00 00 00 00 03 9F
 (1.8810)  can1  8100302   [5]  02 00 0A 00 09
 (1.8820)  can1  89A0C02   [8]  99 8D 00 00 FF 75 00 00
 (1.8820)  can1  595FF71   [8]  0E 80 60 09 60 09 FB 5F
 (1.8830)  can1  8030C02   [8]  30 75 63 FF 46 FF 00 00
 (1.8830)  can1  8580C02   [8]  08 00 07 00 10 00 10 00
 (1.8830)  can1  586FF72   [8]  19 80 FF FF FF FF FC B2
 (1.8840)  can1  589FF72   [8]  1A D0 02 81 02 00 F5 87
 (1.8850)  can1  4100209   [8]  CF 47 03 00 07 00 00 00
 (1.8870)  can1  4100208   [8]  10 0A 03 00 0B 00 00 00
 (1.8910)  can1  596FF71   [8]  15 80 FF FF FF FF FB 33
 (1.8920)  can1  585FF72   [8]  09 80 60 09 60 09 F6 DC
 (1.8920)  can1  587FF72   [8]  06 08 60 0F FF FF F4 08
 (1.8930)  can1  588FF72   [8]  E0 01 50 FF FF FF F4 EE
 (1.8950)  can1  4100209   [8]  D1 47 03 00 0B 00 00 00
 (1.8970)  can1  4100208   [8]  12 0A 03 00 0B 00 00 00
 (1.8970)  can1  1948FF72   [8]  00 C0 00 55 FF FF F7 0A
 (1.8980)  can1  8580C02   [8]  0E 00 11 00 10 00 10 00
 (1.8980)  can1  8030C02   [8]  30 75 E7 FF 20 00 00 00
 (1.8980)  can1  89A0C02   [8]  CB F7 00 00 FE 26 01 00
 (1.9010)  can1  595FF71   [8]  09 80 60 09 60 09 FC DC
 (1.9020)  can1  586FF72   [8]  13 80 FF FF FF FF FD E4
 (1.9020)  can1  528FF72   [8]  48 00 D5 00 00 00 F2 00
 (1.9020)  can1  529FF72   [8]  03 00 58 00 0D 00 09 00
 (1.9030)  can1  52CFF72   [8]  00 00 EF FF EF FF 3A 00
 (1.9030)  can1  8100302   [5]  02 00 0A 00 09
 (1.9050)  can1  4100209   [8]  D2 47 03 00 07 00 00 00
 (1.9070)  can1  4100208   [8]  13 0A 03 00 07 00 00 00
 (1.9110)  can1  596FF71   [8]  10 80 FF FF FF FF FC 18
 (1.9120)  can1  528FF71   [8]  3E 00 E7 00 00 00 F2 00
 (1.9120)  can1  529FF71   [8]  03 00 56 00 0D 00 09 00
 (1.9120)  can1  52CFF71   [8]  00 00 EF FF EF FF 3A 00
 (1.9130)  can1  585FF72   [8]  09 80 60 09 60 09 F7 DC
 (1.9140)  can1  18800401   [8]  0F 07 89 7F 89 AA 89 00
 (1.9140)  can1  18840401   [8]  0F 33 89 B0 89 D5 89 00
 (1.9150)  can1  18C00401   [8]  0F 53 32 07 31 A1 32 00
 (1.9150)  can1  4100209   [8]  D4 47 03 00 0B 00 00 00
 (1.9160)  can1  18101203   [4]  FE 2C 68 07
 (1.9170)  can1  4100208   [8]  15 0A 03 00 0B 00 00 00
 (1.9170)  can1  89A0C02   [8]  CC BC 00 00 32 E0 00 00
 (1.9180)  can1  8030C02   [8]  30 75 9E FF C9 FF 00 00
 (1.9180)  can1  8580C02   [8]  0B 00 0D 00 10 00 10 00
 (1.9180)  can1  1949FF72   [8]  0D 80 00 0D A0 00 F8 32
 (1.9190)  can1  194AFF72   [8]  86 77 57 69 95 56 F9 A1
 (1.9190)  can1  194BFF72   [8]  69 F5 FF FF FF FF FA 54
 (1.9190)  can1  194CFF72   [8]  FF FF FF FF FF FF FB F5
 (1.9210)  can1  595FF71   [8]  09 80 60 09 60 09 FD DC
 (1.9220)  can1  597FF71   [8]  05 08 7A 0F FF FF F4 FC
 (1.9220)  can1  598FF71   [8]  70 01 75 FF FF FF F4 94
 (1.9230)  can1  586FF72   [8]  10 80 FF FF FF FF FE 18
 (1.9230)  can1  599FF71   [8]  1A E0 02 82 02 00 F4 D1
 (1.9250)  can1  4100209   [8]  D5 47 03 00 07 00 00 00
 (1.9270)  can1  4100208   [8]  17 0A 03 00 0B 00 00 00
 (1.9270)  can1  8100302   [5]  02 00 0A 00 09
 (1.9310)  can1  596FF71   [8]  14 80 FF FF FF FF FD 67
 (1.9320)  can1  585FF72   [8]  09 80 60 09 60 09 F8 DC
 (1.9350)  can1  4100209   [8]  D7 47 03 00 0B 00 00 00
 (1.9350)  can1  8101201   [8]  52 60 0A 8A 09 86 7A 00
 (1.9360)  can1  8010C01   [8]  D6 5F 00 00 00 00 00 00
 (1.9370)  can1  4100208   [8]  19 0A 03 00 07 00 00 00
 (1.9370)  can1  5807202   [8]  04 80 00 00 E0 01 04 3C
 (1.9380)  can1  5817202   [8]  01 00 10 27 10 27 07 E3
 (1.9380)  can1  5907102   [8]  04 80 00 00 E0 01 04 3C
 (1.9390)  can1  5917102   [8]  01 00 10 27 10 27 07 E3
 (1.9390)  can1  5827202   [8]  FA 00 00 00 00 00 04 D4
 (1.9400)  can1  5927102   [8]  FA 00 00 00 00 00 04 D4
 (1.9400)  can1  5837202   [8]  2C 41 06 00 00 00 04 E0
 (1.9410)  can1  5847270   [8]  00 00 00 00 00 00 04 9F
 (1.9410)  can1  5937102   [8]  2C 41 06 00 00 00 04 E0
 (1.9410)  can1  5947102   [8]  00 00 00 00 00 00 04 9F
 (1.9420)  can1  8580C02   [8]  0E 00 0B 00 0A 00 10 00
 (1.9420)  can1  89A0C02   [8]  FF EB 00 00 CC BC 00 00
 (1.9420)  can1  595FF71   [8]  09 80 60 09 60 09 FE DC
 (1.9420)  can1  8030C02   [8]  30 75 D8 FF 9E FF 00 00
 (1.9430)  can1  586FF72   [8]  19 80 FF FF FF FF FF B2
 (1.9450)  can1  4100209   [8]  D9 47 03 00 0B 00 00 00
 (1.9470)  can1  4100208   [8]  1A 0A 03 00 0B 00 00 00
 (1.9510)  can1  596FF71   [8]  1D 80 FF FF FF FF FE CD
 (1.9520)  can1  585FF72   [8]  04 80 60 09 60 09 F9 09
 (1.9520)  can1  8100302   [5]  01 00 0A 00 09
 (1.9550)  can1  4100209   [8]  DA 47 03 00 07 00 00 00
 (1.9570)  can1  4100208   [8]  1C 0A 03 00 0B 00 00 00
 (1.9570)  can1  89A0C02   [8]  32 56 01 00 FE 26 01 00
 (1.9580)  can1  8030C02   [8]  00 00 4E 01 F2 00 A5 10
 (1.9580)  can1  8580C02   [8]  14 00 11 00 10 00 0A 00
 (1.9610)  can1  595FF71   [8]  04 80 60 09 60 09 FF 09
 (1.9620)  can1  8041001   [8]  A8 01 20 22 10 AF 3B 00
 (1.9620)  can1  1948FF71   [8]  00 C0 00 55 FF FF F7 0A
 (1.9620)  can1  586FF72   [8]  11 80 FF FF FF FF F0 4C
 (1.9620)  can1  1949FF71   [8]  0D 80 00 0D A0 00 F8 32
 (1.9630)  can1  194AFF71   [8]  48 77 57 7A D5 57 F9 B5
 (1.9640)  can1  194BFF71   [8]  83 F5 FF FF FF FF FA 6E
 (1.9640)  can1  194CFF71   [8]  FF FF FF FF FF FF FB F5
 (1.9640)  can1  18800401   [8]  10 A4 89 AB 89 9E 89 00
 (1.9650)  can1  18840401   [8]  10 C4 89 CB 89 BF 89 00
 (1.9650)  can1  18C00401   [8]  10 0C 31 AD 32 A5 30 00
 (1.9650)  can1  4100209   [8]  DC 47 03 00 0B 00 00 00
 (1.9670)  can1  4100208   [8]  1E 0A 03 00 07 00 00 00
 (1.9710)  can1  596FF71   [8]  0A 80 FF FF FF FF FF 9D
 (1.9720)  can1  585FF72   [8]  04 80 60 09 60 09 FA 09
 (1.9750)  can1  4100209   [8]  DE 47 03 00 0B 00 00 00
 (1.9770)  can1  4100208   [8]  20 0A 03 00 0B 00 00 00
 (1.9770)  can1  8100302   [5]  01 00 0A 00 09
 (1.9770)  can1  8580C02   [8]  07 00 0C 00 10 00 10 00
 (1.9780)  can1  89A0C02   [8]  FF 75 00 00 98 C8 00 00
 (1.9790)  can1  8030C02   [8]  30 75 46 FF AC FF 00 00
 (1.9810)  can1  595FF71   [8]  04 80 60 09 60 09 F0 09
 (1.9820)  can1  586FF72   [8]  11 80 FF FF FF FF F1 4C
 (1.9820)  can1  589FF72   [8]  1A D0 02 81 02 00 F6 87
 (1.9850)  can1  4100209   [8]  E0 47 03 00 07 00 00 00
 (1.9870)  can1  4100208   [8]  22 0A 03 00 0B 00 00 00
 (1.9910)  can1  596FF71   [8]  09 80 FF FF FF FF F0 61
 (1.9920)  can1  585FF72   [8]  04 80 60 09 60 09 FB 09
 (1.9920)  can1  587FF72   [8]  04 08 60 0F FF FF F5 A0
 (1.9920)  can1  588FF72   [8]  E0 01 50 FF FF FF F5 EE
 (1.9950)  can1  4100209   [8]  E1 47 03 00 0B 00 00 00
 (1.9970)  can1  4100208   [8]  23 0A 03 00 0B 00 00 00
 (1.9970)  can1  5807202   [8]  04 80 00 00 E0 01 05 3C
 (1.9980)  can1  5817202   [8]  01 00 10 27 10 27 08 E3
 (1.9990)  can1  5907102   [8]  04 80 00 00 E0 01 05 3C
 (2.0000)  can1  5827202   [8]  FA 00 00 00 00 00 05 D4
 (2.0000)  can1  5917102   [8]  01 00 10 27 10 27 08 E3
 (2.0000)  can1  5927102   [8]  FA 00 00 00 00 00 05 D4
 (2.0000)  can1  5837202   [8]  2C 41 06 00 00 00 05 E0
 (2.0010)  can1  5937102   [8]  2C 41 06 00 00 00 05 E0
 (2.0010)  can1  5847270   [8]  00 00 00 00 00 00 05 9F
 (2.0010)  can1  5947102   [8]  00 00 00 00 00 00 05 9F
 (2.0010)  can1  89A0C02   [8]  32 6A 00 00 98 C8 00 00
 (2.0020)  can1  595FF71   [8]  04 80 60 09 60 09 F1 09
 (2.0030)  can1  8030C02   [8]  30 75 37 FF AC FF 00 00
 (2.0030)  can1  586FF72   [8]  17 80 FF FF FF FF F2 9B
 (2.0030)  can1  8580C02   [8]  06 00 0C 00 10 00 10 00
 (2.0040)  can1  8100302   [5]  01 00 0A 00 09
 (2.0050)  can1  4100209   [8]  E3 47 03 00 07 00 00 00
 (2.0070)  can1  4100208   [8]  25 0A 03 00 07 00 00 00
 (2.0110)  can1  596FF71   [8]  12 80 FF FF FF FF F1 B0
 (2.0120)  can1  585FF72   [8]  04 80 60 09 60 09 FC 09
 (2.0140)  can1  18800401   [8]  11 80 89 74 89 8A 89 00
 (2.0140)  can1  18840401   [8]  11 9F 89 92 89 AD 89 00
 (2.0140)  can1  18C00401   [8]  11 84 32 55 30 40 32 00
 (2.0150)  can1  4100209   [8]  E5 47 03 00 0B 00 00 00
 (2.0170)  can1  4100208   [8]  27 0A 03 00 0B 00 00 00
 (2.0170)  can1  89A0C02   [8]  65 D4 00 00 65 0F 01 00
 (2.0180)  can1  8030C02   [8]  30 75 BB FF 03 00 00 00
 (2.0180)  can1  8580C02   [8]  0C 00 10 00 10 00 10 00
 (2.0210)  can1  595FF71   [8]  04 80 60 09 60 09 F2 09
 (2.0220)  can1  597FF71   [8]  04 08 7A 0F FF FF F5 A8
 (2.0230)  can1  598FF71   [8]  60 01 76 FF FF FF F5 B7
 (2.0230)  can1  586FF72   [8]  18 80 FF FF FF FF F3 E6
 (2.0230)  can1  599FF71   [8]  1A E0 02 82 02 00 F5 D1
 (2.0250)  can1  4100209   [8]  E6 47 03 00 07 00 00 00
 (2.0270)  can1  4100208   [8]  28 0A 03 00 07 00 00 00
 (2.0270)  can1  8100302   [5]  01 00 0A 00 09
 (2.0310)  can1  596FF71   [8]  14 80 FF FF FF FF F2 67
 (2.0320)  can1  585FF72   [8]  04 80 60 09 60 09 FD 09
 (2.0350)  can1  4100209   [8]  E8 47 03 00 0B 00 00 00
 (2.0360)  can1  8101201   [8]  5A 60 13 8A 08 86 4B 00
 (2.0370)  can1  4100208   [8]  2A 0A 03 00 0B 00 00 00
 (2.0370)  can1  8010C01   [8]  DD 5F 00 00 00 00 00 00
 (2.0380)  can1  8580C02   [8]  0E 00 11 00 10 00 10 00
 (2.0380)  can1  8030C02   [8]  30 75 D8 FF 12 00 00 00
 (2.0390)  can1  89A0C02   [8]  FF EB 00 00 32 1B 01 00
 (2.0410)  can1  595FF71   [8]  04 80 60 09 60 09 F3 09
 (2.0420)  can1  586FF72   [8]  11 80 FF FF FF FF F4 4C
 (2.0450)  can1  4100209   [8]  E9 47 03 00 07 00 00 00
 (2.0470)  can1  4100208   [8]  2B 0A 03 00 07 00 00 00
 (2.0510)  can1  596FF71   [8]  1F 80 FF FF FF FF F3 65
 (2.0520)  can1  585FF72   [8]  04 80 60 09 60 09 FE 09
 (2.0520)  can1  8100302   [5]  01 00 0A 00 09
 (2.0550)  can1  4100209   [8]  EB 47 03 00 0B 00 00 00
 (2.0570)  can1  4100208   [8]  2D 0A 03 00 0B 00 00 00
 (2.0570)  can1  5807202   [8]  04 80 00 00 E0 01 06 3C
 (2.0580)  can1  5817202   [8]  01 00 10 27 10 27 09 E3
 (2.0580)  can1  5907102   [8]  04 80 00 00 E0 01 06 3C
 (2.0690)  can1  5917102   [8]  01 00 10 27 10 27 09 E3
 (2.0700)  can1  5827202   [8]  FA 00 00 00 00 00 06 D4
 (2.0700)  can1  5927102   [8]  FA 00 00 00 00 00 06 D4
 (2.0700)  can1  5837202   [8]  2C 41 06 00 00 00 06 E0
 (2.0710)  can1  5847270   [8]  00 00 00 00 00 00 06 9F
 (2.0710)  can1  5937102   [8]  2C 41 06 00 00 00 06 E0
 (2.0710)  can1  5947102   [8]  00 00 00 00 00 00 06 9F
 (2.0710)  can1  8580C02   [8]  16 00 0C 00 10 00 10 00
 (2.0720)  can1  89A0C02   [8]  CB 6D 01 00 98 C8 00 00
 (2.0720)  can1  595FF71   [8]  04 80 60 09 60 09 F4 09
 (2.0720)  can1  8030C02   [8]  C3 4B 78 00 AC FF 24 04
 (2.0730)  can1  8041001   [8]  A8 01 20 22 10 AF 3B 00
 (2.0730)  can1  586FF72   [8]  13 80 FF FF FF FF F5 E4
 (2.0730)  can1  18800401   [8]  12 C3 89 B2 89 A3 89 00
 (2.0730)  can1  18840401   [8]  12 DF 89 CE 89 BD 89 00
 (2.0740)  can1  18C00401   [8]  12 75 31 BB 2F 2A 2F 00
 (2.0740)  can1  4100209   [8]  EC 47 03 00 07 00 00 00
 (2.0740)  can1  4100208   [8]  2E 0A 03 00 07 00 00 00
 (2.0740)  can1  596FF71   [8]  18 80 FF FF FF FF F4 E6
 (2.0750)  can1  585FF72   [8]  04 80 60 09 60 09 FF 09
 (2.0750)  can1  4100209   [8]  EE 47 03 00 07 00 00 00
 (2.0770)  can1  4100208   [8]  30 0A 03 00 0B 00 00 00
 (2.0770)  can1  8100302   [5]  01 00 0A 00 09
 (2.0780)  can1  8580C02   [8]  11 00 0D 00 10 00 0A 00
 (2.0780)  can1  89A0C02   [8]  32 1B 01 00 32 E0 00 00
 (2.0790)  can1  8030C02   [8]  24 12 DB 00 67 00 E7 09
 (2.0810)  can1  595FF71   [8]  04 80 60 09 60 09 F5 09
 (2.0820)  can1  586FF72   [8]  14 80 FF FF FF FF F6 67
 (2.0820)  can1  589FF72   [8]  1A D0 02 81 02 00 F7 87
 (2.0850)  can1  4100209   [8]  F0 47 03 00 0B 00 00 00
 (2.0870)  can1  4100208   [8]  32 0A 03 00 07 00 00 00
 (2.0910)  can1  596FF71   [8]  14 80 FF FF FF FF F5 67
 (2.0920)  can1  585FF72   [8]  04 80 60 09 60 09 F0 09
 (2.0920)  can1  587FF72   [8]  07 08 60 0F FF FF F6 5C
 (2.0930)  can1  588FF72   [8]  E0 01 50 FF FF FF F6 EE
 (2.0950)  can1  4100209   [8]  F1 47 03 00 07 00 00 00
 (2.0970)  can1  4100208   [8]  34 0A 03 00 0B 00 00 00
 (2.0970)  can1  89A0C02   [8]  FF EB 00 00 FF EB 00 00
 (2.0980)  can1  8030C02   [8]  16 48 7E 00 7E 00 82 04
 (2.0980)  can1  8580C02   [8]  0E 00 0E 00 10 00 0A 00
 (2.1010)  can1  595FF71   [8]  04 80 60 09 60 09 F6 09
 (2.1020)  can1  586FF72   [8]  11 80 FF FF FF FF F7 4C
 (2.1020)  can1  8100302   [5]  01 00 0A 00 09
 (2.1050)  can1  4100209   [8]  F2 47 03 00 07 00 00 00
 (2.1070)  can1  4100208   [8]  35 0A 03 00 07 00 00 00
 (2.1110)  can1  596FF71   [8]  0F 80 FF FF FF FF F6 B6
 (2.1120)  can1  585FF72   [8]  04 80 60 09 60 09 F1 09
 (2.1140)  can1  18800401   [8]  13 A5 89 80 89 8E 89 00
 (2.1140)  can1  18840401   [8]  13 BE 89 A7 89 A9 89 00
 (2.1140)  can1  18C00401   [8]  13 F1 30 5F 30 E1 31 00
 (2.1150)  can1  4100209   [8]  F3 47 03 00 07 00 00 00
 (2.1170)  can1  4100208   [8]  37 0A 03 00 0B 00 00 00
 (2.1170)  can1  5807202   [8]  04 80 00 00 E0 01 07 3C
 (2.1180)  can1  5817202   [8]  01 00 10 27 10 27 0A E3
 (2.1180)  can1  5907102   [8]  04 80 00 00 E0 01 07 3C
 (2.1180)  can1  5917102   [8]  01 00 10 27 10 27 0A E3
 (2.1190)  can1  5827202   [8]  FA 00 00 00 00 00 07 D4
 (2.1200)  can1  5927102   [8]  FA 00 00 00 00 00 07 D4
 (2.1200)  can1  5837202   [8]  2C 41 06 00 00 00 07 E0
 (2.1210)  can1  5847270   [8]  00 00 00 00 00 00 07 9F
 (2.1210)  can1  5937102   [8]  2C 41 06 00 00 00 07 E0
 (2.1210)  can1  5947102   [8]  00 00 00 00 00 00 07 9F
 (2.1220)  can1  8580C02   [8]  0A 00 0C 00 10 00 0A 00
 (2.1220)  can1  89A0C02   [8]  FF B0 00 00 98 C8 00 00
 (2.1220)  can1  8030C02   [8]  8A 70 0B 00 39 00 76 00
 (2.1230)  can1  595FF71   [8]  04 80 60 09 60 09 F7 09
 (2.1230)  can1  597FF71   [8]  00 08 7D 0F FF FF F6 AD
 (2.1240)  can1  586FF72   [8]  15 80 FF FF FF FF F8 33
 (2.1240)  can1  598FF71   [8]  60 01 76 FF FF FF F6 B7
 (2.1240)  can1  599FF71   [8]  1A E0 02 82 02 00 F6 D1
 (2.1250)  can1  4100209   [8]  F5 47 03 00 0B 00 00 00
 (2.1270)  can1  4100208   [8]  38 0A 03 00 07 00 00 00
 (2.1270)  can1  8100302   [5]  01 00 0A 00 09
 (2.1310)  can1  596FF71   [8]  13 80 FF FF FF FF F7 E4
 (2.1320)  can1  585FF72   [8]  04 80 60 09 60 09 F2 09
 (2.1350)  can1  4100209   [8]  F7 47 03 00 07 00 00 00
 (2.1370)  can1  4100208   [8]  3A 0A 03 00 0B 00 00 00
 (2.1370)  can1  8010C01   [8]  DD 5F 00 00 00 00 00 00
 (2.1370)  can1  8101201   [8]  57 60 18 8A 09 86 60 00
 (2.1380)  can1  8030C02   [8]  99 3A 67 00 95 00 DB 05
 (2.1380)  can1  8580C02   [8]  0D 00 0E 00 10 00 0A 00
 (2.1390)  can1  89A0C02   [8]  32 E0 00 00 CB F7 00 00
 (2.1410)  can1  595FF71   [8]  04 80 60 09 60 09 F8 09
 (2.1420)  can1  586FF72   [8]  11 80 FF FF FF FF F9 4C
 (2.1450)  can1  4100209   [8]  F8 47 03 00 07 00 00 00
 (2.1470)  can1  4100208   [8]  3B 0A 03 00 07 00 00 00
 (2.1510)  can1  596FF71   [8]  15 80 FF FF FF FF F8 33
 (2.1520)  can1  585FF72   [8]  04 80 60 09 60 09 F3 09
 (2.1520)  can1  1948FF72   [8]  00 C0 00 55 FF FF FC 0F
 (2.1530)  can1  8100302   [5]  01 00 0A 00 09
 (2.1550)  can1  4100209   [8]  FA 47 03 00 0B 00 00 00
 (2.1570)  can1  4100208   [8]  3D 0A 03 00 07 00 00 00
 (2.1570)  can1  89A0C02   [8]  CB F7 00 00 98 C8 00 00
 (2.1580)  can1  8030C02   [8]  30 75 E7 FF AC FF 00 00
 (2.1580)  can1  8580C02   [8]  0E 00 0C 00 0A 00 10 00
 (2.1610)  can1  595FF71   [8]  04 80 60 09 60 09 F9 09
 (2.1620)  can1  8041001   [8]  A8 01 20 22 10 AF 3B 00
 (2.1620)  can1  586FF72   [8]  12 80 FF FF FF FF FA B0
 (2.1640)  can1  18800401   [8]  14 AE 89 C9 89 C0 89 00
 (2.1640)  can1  18840401   [8]  14 C7 89 E2 89 D8 89 00
 (2.1650)  can1  18C00401   [8]  14 A7 30 12 32 BD 30 00
 (2.1650)  can1  4100209   [8]  FB 47 03 00 07 00 00 00
 (2.1670)  can1  4100208   [8]  3E 0A 03 00 07 00 00 00
 (2.1710)  can1  596FF71   [8]  11 80 FF FF FF FF F9 4C
 (2.1720)  can1  585FF72   [8]  04 80 60 09 60 09 F4 09
 (2.1720)  can1  1949FF72   [8]  0D 80 00 0D 90 00 FD 27
 (2.1720)  can1  194AFF72   [8]  86 77 57 77 F5 56 FE 14
 (2.1730)  can1  194BFF72   [8]  77 F5 FF FF FF FF FF 67
 (2.1730)  can1  194CFF72   [8]  FF FF FF FF FF FF 00 FA
 (2.1750)  can1  4100209   [8]  FD 47 03 00 07 00 00 00
 (2.1770)  can1  4100208   [8]  3F 0A 03 00 07 00 00 00
 (2.1770)  can1  5807202   [8]  04 80 00 00 E0 01 08 3C
 (2.1780)  can1  5817202   [8]  01 00 10 27 10 27 0B E3
 (2.1790)  can1  5907102   [8]  04 80 00 00 E0 01 08 3C
 (2.1790)  can1  5917102   [8]  01 00 10 27 10 27 0B E3
 (2.1790)  can1  5827202   [8]  FA 00 00 00 00 00 08 D4
 (2.1800)  can1  5927102   [8]  FA 00 00 00 00 00 08 D4
 (2.1800)  can1  5837202   [8]  2C 41 06 00 00 00 08 E0
 (2.1800)  can1  5847270   [8]  00 00 00 00 00 00 08 9F
 (2.1810)  can1  5937102   [8]  2C 41 06 00 00 00 08 E0
 (2.1810)  can1  5947102   [8]  00 00 00 00 00 00 08 9F
 (2.1820)  can1  8100302   [5]  01 00 0A 00 09
 (2.1830)  can1  89A0C02   [8]  98 C8 00 00 65 D4 00 00
 (2.1830)  can1  8580C02   [8]  0C 00 0C 00 0A 00 0A 00
 (2.1830)  can1  595FF71   [8]  04 80 60 09 60 09 FA 09
 (2.1840)  can1  8030C02   [8]  0E 63 39 00 50 00 D0 01
 (2.1840)  can1  586FF72   [8]  15 80 FF FF FF FF FB 33
 (2.1840)  can1  589FF72   [8]  1A D0 02 81 02 00 F8 87
 (2.1850)  can1  4100209   [8]  FE 47 03 00 07 00 00 00
 (2.1870)  can1  4100208   [8]  41 0A 03 00 0B 00 00 00
 (2.1910)  can1  596FF71   [8]  12 80 FF FF FF FF FA B0
 (2.1920)  can1  585FF72   [8]  04 80 60 09 60 09 F5 09
 (2.1920)  can1  587FF72   [8]  06 08 5E 0F FF FF F7 66
 (2.1930)  can1  588FF72   [8]  E0 01 50 FF FF FF F7 EE
 (2.1950)  can1  4100209   [8]  FF 47 03 00 07 00 00 00
 (2.1970)  can1  4100208   [8]  42 0A 03 00 07 00 00 00
 (2.1970)  can1  89A0C02   [8]  65 D4 00 00 CB F7 00 00
 (2.1980)  can1  8030C02   [8]  99 3A 50 00 95 00 DB 05
 (2.1980)  can1  8580C02   [8]  0C 00 0E 00 0A 00 0A 00
 (2.2010)  can1  595FF71   [8]  04 80 60 09 60 09 FB 09
 (2.2020)  can1  586FF72   [8]  0D 80 FF FF FF FF FC 1E
 (2.2030)  can1  8100302   [5]  01 00 0A 00 09
 (2.2050)  can1  4100209   [8]  00 48 03 00 07 00 00 00
 (2.2070)  can1  4100208   [8]  44 0A 03 00 07 00 00 00
 (2.2110)  can1  596FF71   [8]  13 80 FF FF FF FF FB E4
 (2.2120)  can1  585FF72   [8]  04 80 60 09 60 09 F6 09
 (2.2140)  can1  18800401   [8]  15 DA 89 C1 89 A7 89 00
 (2.2140)  can1  18840401   [8]  15 F2 89 DA 89 BE 89 00
 (2.2140)  can1  18C00401   [8]  15 36 32 56 30 EC 31 00
 (2.2150)  can1  4100209   [8]  02 48 03 00 07 00 00 00
 (2.2160)  can1  1948FF71   [8]  00 C0 00 55 FF FF FC 0F
 (2.2170)  can1  1949FF71   [8]  0D 80 00 0D 90 00 FD 27
 (2.2170)  can1  4100208   [8]  46 0A 03 00 0B 00 00 00
 (2.2170)  can1  194AFF71   [8]  49 67 58 86 65 58 FE 49
 (2.2180)  can1  8030C02   [8]  92 55 67 00 DE FF 29 03
 (2.2190)  can1  8580C02   [8]  0D 00 09 00 10 00 0A 00
 (2.2190)  can1  89A0C02   [8]  32 E0 00 00 65 99 00 00
 (2.2190)  can1  194BFF71   [8]  86 F5 FF FF FF FF FF 76
 (2.2200)  can1  194CFF71   [8]  FF FF FF FF FF FF 00 FA
 (2.2210)  can1  595FF71   [8]  04 80 60 09 60 09 FC 09
 (2.2220)  can1  597FF71   [8]  09 08 7A 0F FF FF F7 7D
 (2.2220)  can1  598FF71   [8]  60 01 76 FF FF FF F7 B7
 (2.2220)  can1  586FF72   [8]  0C 80 FF FF FF FF FD 4A
 (2.2230)  can1  599FF71   [8]  1A E0 02 82 02 00 F7 D1
 (2.2250)  can1  4100209   [8]  03 48 03 00 07 00 00 00
 (2.2270)  can1  4100208   [8]  47 0A 03 00 07 00 00 00
 (2.2270)  can1  8100302   [5]  01 00 0A 00 09
 (2.2310)  can1  596FF71   [8]  13 80 FF FF FF FF FC E4
 (2.2320)  can1  585FF72   [8]  04 80 60 09 60 09 F7 09
 (2.2350)  can1  4100209   [8]  04 48 03 00 07 00 00 00
 (2.2370)  can1  4100208   [8]  48 0A 03 00 07 00 00 00
 (2.2370)  can1  5807202   [8]  04 80 00 00 E0 01 09 3C
 (2.2380)  can1  5817202   [8]  01 00 10 27 10 27 0C E3
 (2.2380)  can1  5907102   [8]  04 80 00 00 E0 01 09 3C
 (2.2390)  can1  5827202   [8]  FA 00 00 00 00 00 09 D4
 (2.2390)  can1  5917102   [8]  01 00 10 27 10 27 0C E3
 (2.2390)  can1  8010C01   [8]  DD 5F 00 00 00 00 00 00
 (2.2400)  can1  8101201   [8]  57 60 1C 8A 08 86 54 00
 (2.2400)  can1  5837202   [8]  2C 41 06 00 00 00 09 E0
 (2.2410)  can1  5927102   [8]  FA 00 00 00 00 00 09 D4
 (2.2410)  can1  5937102   [8]  2C 41 06 00 00 00 09 E0
 (2.2420)  can1  5847270   [8]  00 00 00 00 00 00 09 9F
 (2.2420)  can1  5947102   [8]  00 00 00 00 00 00 09 9F
 (2.2420)  can1  89A0C02   [8]  32 E0 00 00 99 8D 00 00
 (2.2430)  can1  595FF71   [8]  04 80 60 09 60 09 FD 09
 (2.2430)  can1  8030C02   [8]  92 55 67 00 C7 FF 29 03
 (2.2430)  can1  586FF72   [8]  15 80 FF FF FF FF FE 33
 (2.2440)  can1  8580C02   [8]  0D 00 08 00 0A 00 0A 00
 (2.2450)  can1  4100209   [8]  06 48 03 00 07 00 00 00
 (2.2470)  can1  4100208   [8]  49 0A 03 00 07 00 00 00
 (2.2510)  can1  596FF71   [8]  17 80 FF FF FF FF FD 9B
 (2.2520)  can1  585FF72   [8]  04 80 60 09 60 09 F8 09
 (2.2520)  can1  8100302   [5]  01 00 0A 00 09
 (2.2550)  can1  4100209   [8]  07 48 03 00 07 00 00 00
 (2.2570)  can1  4100208   [8]  4B 0A 03 00 07 00 00 00
 (2.2570)  can1  89A0C02   [8]  65 0F 01 00 CB F7 00 00
 (2.2580)  can1  8030C02   [8]  A1 1F C4 00 95 00 8E 08
 (2.2580)  can1  8580C02   [8]  10 00 0E 00 0A 00 0A 00
 (2.2610)  can1  595FF71   [8]  04 80 60 09 60 09 FE 09
 (2.2620)  can1  8041001   [8]  A8 01 20 22 10 AF 3B 00
 (2.2620)  can1  586FF72   [8]  0F 80 FF FF FF FF FF B6
 (2.2640)  can1  18800401   [8]  16 8F 89 C6 89 D5 89 00
 (2.2640)  can1  18840401   [8]  16 AB 89 D9 89 F2 89 00
 (2.2640)  can1  18C00401   [8]  16 4E 30 A4 31 E8 2F 00
 (2.2650)  can1  4100209   [8]  09 48 03 00 0B 00 00 00
 (2.2670)  can1  4100208   [8]  4C 0A 03 00 07 00 00 00
 (2.2710)  can1  596FF71   [8]  0D 80 FF FF FF FF FE 1E
 (2.2720)  can1  585FF72   [8]  04 80 60 09 60 09 F9 09
 (2.2750)  can1  4100209   [8]  0A 48 03 00 07 00 00 00
 (2.2770)  can1  4100208   [8]  4D 0A 03 00 07 00 00 00
 (2.2770)  can1  8100302   [5]  01 00 0A 00 09
 (2.2780)  can1  8580C02   [8]  09 00 0A 00 0A 00 0A 00
 (2.2780)  can1  89A0C02   [8]  65 99 00 00 FF B0 00 00
 (2.2790)  can1  8030C02   [8]  30 75 DE FF 0B 00 00 00
 (2.2810)  can1  595FF71   [8]  04 80 60 09 60 09 FF 09
 (2.2820)  can1  586FF72   [8]  0D 80 FF FF FF FF F0 1E
 (2.2820)  can1  589FF72   [8]  1A D0 02 81 02 00 F9 87
 (2.2850)  can1  4100209   [8]  0B 48 03 00 07 00 00 00
 (2.2870)  can1  4100208   [8]  4F 0A 03 00 07 00 00 00
 (2.2910)  can1  596FF71   [8]  10 80 FF FF FF FF FF 18
 (2.2920)  can1  585FF72   [8]  04 80 60 09 60 09 FA 09
 (2.2920)  can1  587FF72   [8]  08 08 63 0F FF FF F8 D1
 (2.2930)  can1  588FF72   [8]  E0 01 50 FF FF FF F8 EE
 (2.2950)  can1  4100209   [8]  0D 48 03 00 07 00 00 00
 (2.2970)  can1  4100208   [8]  51 0A 03 00 0B 00 00 00
 (2.2970)  can1  5807202   [8]  04 80 00 00 E0 01 0A 3C
 (2.2980)  can1  5817202   [8]  01 00 10 27 10 27 0D E3
 (2.2980)  can1  5907102   [8]  04 80 00 00 E0 01 0A 3C
 (2.2990)  can1  5917102   [8]  01 00 10 27 10 27 0D E3
 (2.2990)  can1  5827202   [8]  FA 00 00 00 00 00 0A D4
 (2.3000)  can1  5927102   [8]  FA 00 00 00 00 00 0A D4
 (2.3010)  can1  5837202   [8]  2C 41 06 00 00 00 0A E0
 (2.3010)  can1  5847270   [8]  00 00 00 00 00 00 0A 9F
 (2.3020)  can1  5937102   [8]  2C 41 06 00 00 00 0A E0
 (2.3030)  can1  5947102   [8]  00 00 00 00 00 00 0A 9F
 (2.3030)  can1  8580C02   [8]  0B 00 09 00 10 00 0A 00
 (2.3030)  can1  89A0C02   [8]  CC BC 00 00 65 99 00 00
 (2.3040)  can1  8030C02   [8]  30 75 22 00 DE FF 00 00
 (2.3040)  can1  595FF71   [8]  04 80 60 09 60 09 F0 09
 (2.3040)  can1  586FF72   [8]  10 80 FF FF FF FF F1 18
 (2.3040)  can1  8100302   [5]  01 00 0A 00 09
 (2.3050)  can1  4100209   [8]  0E 48 03 00 07 00 00 00
 (2.3070)  can1  4100208   [8]  52 0A 03 00 07 00 00 00
 (2.3110)  can1  596FF71   [8]  11 80 FF FF FF FF F0 4C
 (2.3120)  can1  585FF72   [8]  04 80 60 09 60 09 FB 09
 (2.3140)  can1  18800401   [8]  17 C4 89 00 00 00 00 00
 (2.3140)  can1  18840401   [8]  17 E2 89 00 00 00 00 00
 (2.3140)  can1  18C00401   [8]  17 DD 30 10 27 10 27 00
 (2.3150)  can1  4100209   [8]  0F 48 03 00 07 00 00 00
 (2.3160)  can1  404FF03   [1]  00
 (2.3170)  can1  4100208   [8]  53 0A 03 00 07 00 00 00
 (2.3170)  can1  89A0C02   [8]  98 C8 00 00 CC BC 00 00
 (2.3180)  can1  8030C02   [8]  8A 70 39 00 22 00 76 00
 (2.3190)  can1  8580C02   [8]  0C 00 0B 00 0A 00 0A 00
 (2.3190)  can1  8250C03   [8]  15 00 7B 01 00 00 26 00
 (2.3190)  can1  8840C03   [8]  80 00 1D 00 20 00 07 00
 (2.3200)  can1  88D0C03   [8]  0F 00 00 00 63 00 64 00
 (2.3210)  can1  595FF71   [8]  04 80 60 09 60 09 F1 09
 (2.3220)  can1  597FF71   [8]  04 08 7F 0F FF FF F8 97
 (2.3220)  can1  598FF71   [8]  60 01 76 FF FF FF F8 B7
 (2.3220)  can1  586FF72   [8]  0E 80 FF FF FF FF F2 E2
 (2.3230)  can1  599FF71   [8]  1A E0 02 82 02 00 F8 D1
 (2.3250)  can1  4100209   [8]  10 48 03 00 07 00 00 00
 (2.3270)  can1  4100208   [8]  54 0A 03 00 07 00 00 00
 (2.3270)  can1  8100302   [5]  01 00 0A 00 09
 (2.3310)  can1  596FF71   [8]  0F 80 FF FF FF FF F1 B6
 (2.3320)  can1  585FF72   [8]  04 80 60 09 60 09 FC 09
 (2.3350)  can1  4100209   [8]  11 48 03 00 03 00 00 00
 (2.3370)  can1  4100208   [8]  56 0A 03 00 07 00 00 00
 (2.3370)  can1  89A0C02   [8]  FF B0 00 00 32 A5 00 00
 (2.3380)  can1  8030C02   [8]  00 00 D8 01 A2 01 BD 18
 (2.3380)  can1  8580C02   [8]  0A 00 09 00 0A 00 04 00
 (2.3390)  can1  8101201   [8]  58 60 1A 8A 0B 86 59 00
 (2.3400)  can1  8010C01   [8]  DC 5F 00 00 00 00 00 00
 (2.3410)  can1  595FF71   [8]  04 80 60 09 60 09 F2 09
 (2.3420)  can1  586FF72   [8]  0F 80 FF FF FF FF F3 B6
 (2.3450)  can1  4100209   [8]  12 48 03 00 07 00 00 00
 (2.3470)  can1  4100208   [8]  57 0A 03 00 07 00 00 00
 (2.3510)  can1  596FF71   [8]  13 80 FF FF FF FF F2 E4
 (2.3520)  can1  585FF72   [8]  04 80 60 09 60 09 FD 09
 (2.3520)  can1  8100302   [5]  01 00 0A 00 09
 (2.3550)  can1  4100209   [8]  14 48 03 00 07 00 00 00
 (2.3570)  can1  4100208   [8]  58 0A 03 00 03 00 00 00
 (2.3570)  can1  5807202   [8]  04 80 00 00 E0 01 0B 3C
 (2.3580)  can1  5817202   [8]  01 00 10 27 10 27 0E E3
 (2.3580)  can1  5907102   [8]  04 80 00 00 E0 01 0B 3C
 (2.3580)  can1  5917102   [8]  01 00 10 27 10 27 0E E3
 (2.3590)  can1  5827202   [8]  FA 00 00 00 00 00 0B D4
 (2.3590)  can1  5927102   [8]  FA 00 00 00 00 00 0B D4
 (2.3600)  can1  5837202   [8]  2C 41 06 00 00 00 0B E0
 (2.3600)  can1  5847270   [8]  00 00 00 00 00 00 0B 9F
 (2.3600)  can1  5937102   [8]  2C 41 06 00 00 00 0B E0
 (2.3610)  can1  5947102   [8]  00 00 00 00 00 00 0B 9F
 (2.3620)  can1  8580C02   [8]  0D 00 0A 00 04 00 0A 00
 (2.3620)  can1  89A0C02   [8]  32 E0 00 00 FF B0 00 00
 (2.3620)  can1  595FF71   [8]  04 80 60 09 60 09 F3 09
 (2.3630)  can1  404FF01   [1]  00
 (2.3630)  can1  8030C02   [8]  92 55 67 00 0B 00 29 03
 (2.3630)  can1  8041001   [8]  A8 01 20 22 10 AF 3B 00
 (2.3630)  can1  586FF72   [8]  12 80 FF FF FF FF F4 B0
 (2.3640)  can1  404FF07   [1]  00
 (2.3640)  can1  8120C01   [8]  A6 00 00 00 00 00 00 00
 (2.3640)  can1  80F1201   [4]  12 11 00 00
 (2.3650)  can1  18800401   [8]  00 18 8A 65 89 3B 89 00
 (2.3650)  can1  18840401   [8]  00 35 8A 81 89 61 89 00
 (2.3660)  can1  18C00401   [8]  00 3B 31 33 2F F9 31 00
 (2.3660)  can1  4100209   [8]  15 48 03 00 07 00 00 00
 (2.3670)  can1  4100208   [8]  59 0A 03 00 07 00 00 00
 (2.3710)  can1  596FF71   [8]  0F 80 FF FF FF FF F3 B6
 (2.3720)  can1  585FF72   [8]  04 80 60 09 60 09 FE 09
 (2.3750)  can1  4100209   [8]  16 48 03 00 07 00 00 00
 (2.3770)  can1  4100208   [8]  5A 0A 03 00 07 00 00 00
 (2.3770)  can1  404FF02   [1]  00
 (2.3780)  can1  8100302   [5]  01 00 0A 00 09
 (2.3780)  can1  8580C02   [8]  0A 00 0C 00 0A 00 0A 00
 (2.3780)  can1  89A0C02   [8]  FF B0 00 00 65 D4 00 00
 (2.3790)  can1  8030C02   [8]  0E 63 0B 00 50 00 D0 01
 (2.3810)  can1  595FF71   [8]  04 80 60 09 60 09 F4 09
 (2.3820)  can1  586FF72   [8]  0B 80 FF FF FF FF F5 C9
 (2.3820)  can1  589FF72   [8]  1A D0 02 81 02 00 FA 87
 (2.3850)  can1  4100209   [8]  18 48 03 00 07 00 00 00
 (2.3870)  can1  4100208   [8]  5B 0A 03 00 07 00 00 00
 (2.3910)  can1  596FF71   [8]  0C 80 FF FF FF FF F4 4A
 (2.3920)  can1  585FF72   [8]  04 80 60 09 60 09 FF 09
 (2.3920)  can1  587FF72   [8]  04 08 60 0F FF FF F9 A0
 (2.3930)  can1  588FF72   [8]  E0 01 50 FF FF FF F9 EE
 (2.3950)  can1  4100209   [8]  19 48 03 00 07 00 00 00
 (2.3970)  can1  4100208   [8]  5D 0A 03 00 07 00 00 00
 (2.3970)  can1  89A0C02   [8]  99 8D 00 00 CC 81 00 00
 (2.3980)  can1  8030C02   [8]  30 75 C7 FF B0 FF 00 00
 (2.3980)  can1  8580C02   [8]  08 00 07 00 0A 00 0A 00
 (2.4010)  can1  595FF71   [8]  04 80 60 09 60 09 F5 09
 (2.4020)  can1  586FF72   [8]  0A 80 FF FF FF FF F6 9D
 (2.4020)  can1  528FF72   [8]  0A 00 3D 00 00 00 45 00
 (2.4020)  can1  529FF72   [8]  01 00 4E 00 0C 00 04 00
 (2.4030)  can1  52AFF72   [8]  11 11 11 11 11 11 1E 00
 (2.4040)  can1  52BFF72   [8]  13 18 13 11 00 FF 00 00
 (2.4040)  can1  52CFF72   [8]  00 00 EF FF EF FF 3A 00
 (2.4040)  can1  8100302   [5]  01 00 0A 00 09
 (2.4050)  can1  4100209   [8]  19 48 03 00 03 00 00 00
 (2.4070)  can1  4100208   [8]  5E 0A 03 00 07 00 00 00
 (2.4070)  can1  1948FF72   [8]  00 C0 00 55 FF FF 01 14
 (2.4110)  can1  596FF71   [8]  11 80 FF FF FF FF F5 4C
 (2.4110)  can1  528FF71   [8]  F4 FF 4B 00 00 00 45 00
 (2.4120)  can1  529FF71   [8]  04 00 4F 00 0C 00 04 00
 (2.4120)  can1  52AFF71   [8]  14 14 14 14 14 14 16 00
 (2.4120)  can1  52BFF71   [8]  11 16 11 14 00 FF 00 00
 (2.4130)  can1  52CFF71   [8]  00 00 EF FF EF FF 3A 00
 (2.4130)  can1  585FF72   [8]  04 80 60 09 60 09 F0 09
 (2.4140)  can1  18800401   [8]  01 53 89 6E 89 67 89 00
 (2.4140)  can1  18840401   [8]  01 6D 89 8B 89 83 89 00
 (2.4150)  can1  18C00401   [8]  01 86 30 49 32 05 31 00
 (2.4150)  can1  4100209   [8]  1B 48 03 00 07 00 00 00
 (2.4160)  can1  18101203   [4]  B8 2C A2 07
 (2.4170)  can1  4100208   [8]  5F 0A 03 00 07 00 00 00
 (2.4170)  can1  5807202   [8]  04 80 00 00 E0 01 0C 3C
 (2.4180)  can1  5817202   [8]  01 00 10 27 10 27 0F E3
 (2.4180)  can1  5907102   [8]  04 80 00 00 E0 01 0C 3C
 (2.4180)  can1  5917102   [8]  01 00 10 27 10 27 0F E3
 (2.4180)  can1  5827202   [8]  FA 00 00 00 00 00 0C D4
 (2.4190)  can1  5927102   [8]  FA 00 00 00 00 00 0C D4
 (2.4190)  can1  5837202   [8]  2C 41 06 00 00 00 0C E0
 (2.4200)  can1  5847270   [8]  00 00 00 00 00 00 0C 9F
 (2.4200)  can1  5937102   [8]  2C 41 06 00 00 00 0C E0
 (2.4210)  can1  5947102   [8]  00 00 00 00 00 00 0C 9F
 (2.4220)  can1  8580C02   [8]  0C 00 07 00 0A 00 0A 00
 (2.4220)  can1  89A0C02   [8]  98 C8 00 00 FF 75 00 00
 (2.4220)  can1  597FF71   [8]  00 08 7F 0F FF FF F9 E8
 (2.4230)  can1  598FF71   [8]  60 01 76 FF FF FF F9 B7
 (2.4230)  can1  599FF71   [8]  1A E0 02 82 02 00 F9 D1
 (2.4230)  can1  8030C02   [8]  8A 70 39 00 99 FF 76 00
 (2.4230)  can1  586FF72   [8]  0F 80 FF FF FF FF F7 B6
 (2.4250)  can1  4100209   [8]  1C 48 03 00 07 00 00 00
 (2.4260)  can1  595FF71   [8]  04 80 60 09 60 09 F6 09
 (2.4270)  can1  4100208   [8]  61 0A 03 00 07 00 00 00
 (2.4270)  can1  8100302   [5]  01 00 0A 00 09
 (2.4270)  can1  1949FF72   [8]  0D 90 00 0C 90 00 02 3B
 (2.4280)  can1  194AFF72   [8]  86 77 57 77 55 57 03 7A
 (2.4280)  can1  194BFF72   [8]  77 F5 FF FF FF FF 04 6C
 (2.4290)  can1  194CFF72   [8]  FF FF FF FF FF FF 05 FF
 (2.4320)  can1  585FF72   [8]  04 80 60 09 60 09 F1 09
 (2.4350)  can1  4100209   [8]  1D 48 03 00 07 00 00 00
 (2.4360)  can1  596FF71   [8]  13 80 FF FF FF FF F6 E4
 (2.4370)  can1  4100208   [8]  61 0A 03 00 03 00 00 00
 (2.4370)  can1  89A0C02   [8]  32 E0 00 00 FF B0 00 00
 (2.4380)  can1  8030C02   [8]  92 55 67 00 0B 00 29 03
 (2.4380)  can1  8580C02   [8]  0D 00 0A 00 04 00 0A 00
 (2.4400)  can1  8101201   [8]  57 60 18 8A 0A 86 51 00
 (2.4400)  can1  8010C01   [8]  DD 5F 00 00 00 00 00 00
 (2.4420)  can1  586FF72   [8]  0E 80 FF FF FF FF F8 E2
 (2.4450)  can1  4100209   [8]  1E 48 03 00 03 00 00 00
 (2.4460)  can1  595FF71   [8]  04 80 60 09 60 09 F7 09
 (2.4470)  can1  4100208   [8]  63 0A 03 00 07 00 00 00
 (2.4520)  can1  585FF72   [8]  04 80 60 09 60 09 F2 09
 (2.4530)  can1  8100302   [5]  01 00 0A 00 09
 (2.4550)  can1  4100209   [8]  1F 48 03 00 07 00 00 00
 (2.4560)  can1  596FF71   [8]  0F 80 FF FF FF FF F7 B6
 (2.4570)  can1  4100208   [8]  64 0A 03 00 07 00 00 00
 (2.4570)  can1  89A0C02   [8]  FF B0 00 00 32 A5 00 00
 (2.4580)  can1  8030C02   [8]  30 75 0B 00 F5 FF 00 00
 (2.4580)  can1  8580C02   [8]  0A 00 09 00 0A 00 0A 00
 (2.4610)  can1  8041001   [8]  A8 01 20 22 10 AF 3B 00
 (2.4620)  can1  586FF72   [8]  0A 80 FF FF FF FF F9 9D
 (2.4640)  can1  18800401   [8]  02 82 89 D8 89 C3 89 00
 (2.4640)  can1  18840401   [8]  02 9F 89 F7 89 E0 89 00
 (2.4650)  can1  18C00401   [8]  02 27 32 EA 30 EA 31 00
 (2.4650)  can1  4100209   [8]  21 48 03 00 07 00 00 00
 (2.4660)  can1  595FF71   [8]  04 80 60 09 60 09 F8 09
 (2.4670)  can1  4100208   [8]  65 0A 03 00 07 00 00 00
 (2.4710)  can1  1948FF71   [8]  00 C0 00 55 FF FF 01 14
 (2.4710)  can1  1949FF71   [8]  0D 80 00 0D C0 00 02 5C
 (2.4720)  can1  194AFF71   [8]  48 67 58 86 85 58 03 6D
 (2.4720)  can1  585FF72   [8]  04 80 60 09 60 09 F3 09
 (2.4730)  can1  194BFF71   [8]  88 F5 FF FF FF FF 04 7D
 (2.4730)  can1  194CFF71   [8]  FF FF FF FF FF FF 05 FF
 (2.4750)  can1  4100209   [8]  21 48 03 00 03 00 00 00
 (2.4760)  can1  596FF71   [8]  0E 80 FF FF FF FF F8 E2
 (2.4770)  can1  4100208   [8]  66 0A 03 00 03 00 00 00
 (2.4770)  can1  5807202   [8]  09 80 00 00 E0 01 0D E9
 (2.4780)  can1  5817202   [8]  01 00 10 27 10 27 00 E3
 (2.4790)  can1  5907102   [8]  09 80 00 00 E0 01 0D E9
 (2.4790)  can1  5827202   [8]  FA 00 00 00 00 00 0D D4
 (2.4800)  can1  5917102   [8]  01 00 10 27 10 27 00 E3
 (2.4800)  can1  5927102   [8]  FA 00 00 00 00 00 0D D4
 (2.4800)  can1  5837202   [8]  2C 41 06 00 00 00 0D E0
 (2.4810)  can1  5937102   [8]  2C 41 06 00 00 00 0D E0
 (2.4810)  can1  5847270   [8]  00 00 00 00 00 00 0D 9F
 (2.4820)  can1  5947102   [8]  00 00 00 00 00 00 0D 9F
 (2.4820)  can1  8100302   [5]  02 00 0A 00 09
 (2.4820)  can1  89A0C02   [8]  32 A5 00 00 FF 75 00 00
 (2.4830)  can1  8030C02   [8]  00 00 A2 01 CB 00 97 15
 (2.4830)  can1  8580C02   [8]  09 00 07 00 04 00 04 00
 (2.4840)  can1  586FF72   [8]  0A 80 FF FF FF FF FA 9D
 (2.4840)  can1  589FF72   [8]  1A D0 02 81 02 00 FB 87
 (2.4850)  can1  4100209   [8]  22 48 03 00 07 00 00 00
 (2.4860)  can1  595FF71   [8]  04 80 60 09 60 09 F9 09
 (2.4870)  can1  4100208   [8]  67 0A 03 00 07 00 00 00
 (2.4920)  can1  585FF72   [8]  09 80 60 09 60 09 F4 DC
 (2.4930)  can1  587FF72   [8]  09 08 5E 0F FF FF FA 1B
 (2.4930)  can1  588FF72   [8]  E0 01 50 FF FF FF FA EE
 (2.4950)  can1  4100209   [8]  24 48 03 00 07 00 00 00
 (2.4960)  can1  596FF71   [8]  0C 80 FF FF FF FF F9 4A
 (2.4970)  can1  4100208   [8]  68 0A 03 00 07 00 00 00
 (2.4970)  can1  89A0C02   [8]  99 8D 00 00 FF 75 00 00
 (2.4980)  can1  8030C02   [8]  30 75 C7 FF 99 FF 00 00
 (2.4980)  can1  8580C02   [8]  08 00 07 00 0A 00 0A 00
 (2.5020)  can1  586FF72   [8]  1A 80 FF FF FF FF FB 4E
 (2.5020)  can1  8100302   [5]  02 00 0A 00 09
 (2.5050)  can1  4100209   [8]  24 48 03 00 03 00 00 00
 (2.5060)  can1  595FF71   [8]  09 80 60 09 60 09 FA DC
 (2.5070)  can1  4100208   [8]  69 0A 03 00 03 00 00 00
 (2.5120)  can1  585FF72   [8]  09 80 60 09 60 09 F5 DC
 (2.5140)  can1  18800401   [8]  03 AB 89 A1 89 BC 89 00
 (2.5140)  can1  18840401   [8]  03 C7 89 BD 89 DB 89 00
 (2.5150)  can1  18C00401   [8]  03 ED 30 AF 31 7E 30 00
 (2.5150)  can1  4100209   [8]  26 48 03 00 07 00 00 00
 (2.5160)  can1  596FF71   [8]  15 80 FF FF FF FF FA 33
 (2.5170)  can1  4100208   [8]  6A 0A 03 00 07 00 00 00
 (2.5170)  can1  89A0C02   [8]  CB F7 00 00 CB 32 01 00
 (2.5180)  can1  8030C02   [8]  00 00 95 00 09 01 99 0C
 (2.5180)  can1  8580C02   [8]  0E 00 12 00 0A 00 0A 00
 (2.5210)  can1  597FF71   [8]  08 08 7A 0F FF FF FA 29
 (2.5220)  can1  598FF71   [8]  60 01 76 FF FF FF FA B7
 (2.5220)  can1  599FF71   [8]  1A E0 02 82 02 00 FA D1
 (2.5220)  can1  586FF72   [8]  19 80 FF FF FF FF FC B2
 (2.5250)  can1  4100209   [8]  26 48 03 00 03 00 00 00
 (2.5260)  can1  595FF71   [8]  09 80 60 09 60 09 FB DC
 (2.5270)  can1  4100208   [8]  6C 0A 03 00 07 00 00 00
 (2.5270)  can1  8100302   [5]  02 00 0A 00 09
 (2.5320)  can1  585FF72   [8]  09 80 60 09 60 09 F6 DC
 (2.5350)  can1  4100209   [8]  28 48 03 00 07 00 00 00
 (2.5370)  can1  4100208   [8]  6C 0A 03 00 03 00 00 00
 (2.5370)  can1  5807202   [8]  09 80 00 00 E0 01 0E E9
 (2.5380)  can1  5817202   [8]  01 00 10 27 10 27 01 E3
 (2.5380)  can1  5907102   [8]  09 80 00 00 E0 01 0E E9
 (2.5390)  can1  5917102   [8]  01 00 10 27 10 27 01 E3
 (2.5400)  can1  5827202   [8]  FA 00 00 00 00 00 0E D4
 (2.5400)  can1  5927102   [8]  FA 00 00 00 00 00 0E D4
 (2.5410)  can1  5837202   [8]  2C 41 06 00 00 00 0E E0
 (2.5410)  can1  5847270   [8]  00 00 00 00 00 00 0E 9F
 (2.5410)  can1  5937102   [8]  2C 41 06 00 00 00 0E E0
 (2.5420)  can1  5947102   [8]  00 00 00 00 00 00 0E 9F
 (2.5420)  can1  8580C02   [8]  0E 00 11 00 04 00 0A 00
 (2.5420)  can1  89A0C02   [8]  CB F7 00 00 FE 26 01 00
 (2.5430)  can1  596FF71   [8]  12 80 FF FF FF FF FB B0
 (2.5430)  can1  8030C02   [8]  A8 04 95 00 F2 00 40 0B
 (2.5430)  can1  586FF72   [8]  0B 80 FF FF FF FF FD C9
 (2.5440)  can1  8101201   [8]  52 60 1C 8A 0B 86 84 00
 (2.5440)  can1  8010C01   [8]  D8 5F 00 00 00 00 00 00
 (2.5450)  can1  4100209   [8]  29 48 03 00 07 00 00 00
 (2.5460)  can1  595FF71   [8]  09 80 60 09 60 09 FC DC
 (2.5470)  can1  4100208   [8]  6E 0A 03 00 07 00 00 00
 (2.5520)  can1  8100302   [5]  02 00 0A 00 09
 (2.5550)  can1  4100209   [8]  2A 48 03 00 03 00 00 00
 (2.5570)  can1  4100208   [8]  6F 0A 03 00 07 00 00 00
 (2.5570)  can1  585FF72   [8]  09 80 60 09 60 09 F7 DC
 (2.5580)  can1  89A0C02   [8]  65 D4 00 00 CC 81 00 00
 (2.5580)  can1  8030C02   [8]  00 00 79 02 01 01 2D 22
 (2.5580)  can1  8580C02   [8]  0C 00 07 00 0A 00 04 00
 (2.5610)  can1  596FF71   [8]  05 80 FF FF FF FF FC E0
 (2.5610)  can1  8041001   [8]  A8 01 20 22 10 AF 3B 00
 (2.5620)  can1  586FF72   [8]  04 80 FF FF FF FF FE B4
 (2.5640)  can1  18800401   [8]  04 CC 89 AF 89 E9 85 00
 (2.5640)  can1  18840401   [8]  04 EF 89 D1 89 0B 86 00
 (2.5650)  can1  18C00401   [8]  04 AF 30 B5 2F 83 30 00
 (2.5650)  can1  4100209   [8]  2B 48 03 00 07 00 00 00
 (2.5660)  can1  595FF71   [8]  09 80 60 09 60 09 FD DC
 (2.5670)  can1  4100208   [8]  70 0A 03 00 07 00 00 00
 (2.5750)  can1  4100209   [8]  2C 48 03 00 07 00 00 00
 (2.5770)  can1  4100208   [8]  71 0A 03 00 07 00 00 00
 (2.5770)  can1  585FF72   [8]  09 80 60 09 60 09 F8 DC
 (2.5770)  can1  8100302   [5]  02 00 0A 00 09
 (2.5780)  can1  8580C02   [8]  03 00 02 00 0A 00 0A 00
 (2.5780)  can1  89A0C02   [8]  FF 3A 00 00 33 2F 00 00
 (2.5790)  can1  8030C02   [8]  30 75 26 FF 0F FF 00 00
 (2.5810)  can1  596FF71   [8]  09 80 FF FF FF FF FD 61
 (2.5820)  can1  586FF72   [8]  0C 80 FF FF FF FF FF 4A
 (2.5820)  can1  589FF72   [8]  1A D0 02 81 02 00 FC 87
 (2.5850)  can1  4100209   [8]  2D 48 03 00 03 00 00 00
 (2.5870)  can1  4100208   [8]  72 0A 03 00 03 00 00 00
 (2.5910)  can1  595FF71   [8]  09 80 60 09 60 09 FE DC
 (2.5950)  can1  4100209   [8]  2E 48 03 00 07 00 00 00
 (2.5970)  can1  4100208   [8]  73 0A 03 00 07 00 00 00
 (2.5970)  can1  585FF72   [8]  09 80 60 09 60 09 F9 DC
 (2.5970)  can1  587FF72   [8]  06 08 63 0F FF FF FB F8
 (2.5980)  can1  5807202   [8]  04 80 00 00 E0 01 0F 3C
 (2.5980)  can1  5817202   [8]  01 00 10 27 10 27 02 E3
 (2.5990)  can1  588FF72   [8]  E0 01 50 FF FF FF FB EE
 (2.5990)  can1  5827202   [8]  FA 00 00 00 00 00 0F D4
 (2.6000)  can1  5907102   [8]  04 80 00 00 E0 01 0F 3C
 (2.6010)  can1  5917102   [8]  01 00 10 27 10 27 02 E3
 (2.6010)  can1  5837202   [8]  2C 41 06 00 00 00 0F E0
 (2.6010)  can1  5927102   [8]  FA 00 00 00 00 00 0F D4
 (2.6020)  can1  5937102   [8]  2C 41 06 00 00 00 0F E0
 (2.6020)  can1  5847270   [8]  00 00 00 00 00 00 0F 9F
 (2.6030)  can1  5947102   [8]  00 00 00 00 00 00 0F 9F
 (2.6030)  can1  596FF71   [8]  16 80 FF FF FF FF FE CF
 (2.6030)  can1  8030C02   [8]  30 75 82 FF C7 FF 00 00
 (2.6040)  can1  586FF72   [8]  0F 80 FF FF FF FF F0 B6
 (2.6040)  can1  8580C02   [8]  06 00 08 00 0A 00 0A 00
 (2.6040)  can1  89A0C02   [8]  32 6A 00 00 99 8D 00 00
 (2.6040)  can1  8100302   [5]  01 00 0A 00 09
 (2.6050)  can1  4100209   [8]  2F 48 03 00 07 00 00 00
 (2.6070)  can1  4100208   [8]  75 0A 03 00 07 00 00 00
 (2.6110)  can1  595FF71   [8]  09 80 60 09 60 09 FF DC
 (2.6140)  can1  18800401   [8]  05 A7 89 88 89 93 89 00
 (2.6140)  can1  18840401   [8]  05 CA 89 AE 89 B6 89 00
 (2.6150)  can1  18C00401   [8]  05 C8 31 1A 31 66 32 00
 (2.6150)  can1  4100209   [8]  30 48 03 00 03 00 00 00
 (2.6170)  can1  4100208   [8]  75 0A 03 00 03 00 00 00
 (2.6170)  can1  585FF72   [8]  04 80 60 09 60 09 FA 09
 (2.6180)  can1  89A0C02   [8]  98 03 01 00 FF B0 00 00
 (2.6180)  can1  8030C02   [8]  00 00 50 03 D8 01 C3 2E
 (2.6180)  can1  8580C02   [8]  0F 00 0A 00 04 00 04 00
 (2.6210)  can1  596FF71   [8]  13 80 FF FF FF FF FF E4
 (2.6210)  can1  597FF71   [8]  03 08 7A 0F FF FF FB 2B
 (2.6220)  can1  598FF71   [8]  60 01 76 FF FF FF FB B7
 (2.6220)  can1  586FF72   [8]  08 80 FF FF FF FF F1 35
 (2.6220)  can1  599FF71   [8]  1A E0 02 82 02 00 FB D1
 (2.6250)  can1  4100209   [8]  31 48 03 00 07 00 00 00
 (2.6270)  can1  4100208   [8]  77 0A 03 00 07 00 00 00
 (2.6270)  can1  8100302   [5]  01 00 0A 00 09
 (2.6310)  can1  595FF71   [8]  04 80 60 09 60 09 F0 09
 (2.6350)  can1  4100209   [8]  33 48 03 00 07 00 00 00
 (2.6370)  can1  4100208   [8]  78 0A 03 00 07 00 00 00
 (2.6370)  can1  585FF72   [8]  04 80 60 09 60 09 FB 09
 (2.6380)  can1  8030C02   [8]  92 55 67 00 6B FF 29 03
 (2.6380)  can1  8580C02   [8]  0D 00 05 00 0A 00 0A 00
 (2.6390)  can1  89A0C02   [8]  32 E0 00 00 66 5E 00 00
 (2.6410)  can1  596FF71   [8]  FF 7F FF FF FF FF F0 19
 (2.6420)  can1  586FF72   [8]  05 80 FF FF FF FF F2 E0
 (2.6430)  can1  8101201   [8]  59 60 13 8A 0B 86 53 00
 (2.6440)  can1  8010C01   [8]  DD 5F 00 00 00 00 00 00
 (2.6450)  can1  4100209   [8]  33 48 03 00 03 00 00 00
 (2.6470)  can1  4100208   [8]  79 0A 03 00 07 00 00 00
 (2.6510)  can1  595FF71   [8]  04 80 60 09 60 09 F1 09
 (2.6520)  can1  8100302   [5]  01 00 0A 00 09
 (2.6550)  can1  4100209   [8]  35 48 03 00 07 00 00 00
 (2.6570)  can1  4100208   [8]  7A 0A 03 00 03 00 00 00
 (2.6570)  can1  585FF72   [8]  04 80 60 09 60 09 FC 09
 (2.6570)  can1  5807202   [8]  09 80 00 00 E0 01 00 E9
 (2.6580)  can1  5817202   [8]  01 00 10 27 10 27 03 E3
 (2.6580)  can1  5907102   [8]  09 80 00 00 E0 01 00 E9
 (2.6590)  can1  5917102   [8]  01 00 10 27 10 27 03 E3
 (2.6590)  can1  5827202   [8]  FA 00 00 00 00 00 00 D4
 (2.6600)  can1  5927102   [8]  FA 00 00 00 00 00 00 D4
 (2.6610)  can1  5837202   [8]  2C 41 06 00 00 00 00 E0
 (2.6610)  can1  5847270   [8]  00 00 00 00 00 00 00 9F
 (2.6610)  can1  5937102   [8]  2C 41 06 00 00 00 00 E0
 (2.6620)  can1  5947102   [8]  00 00 00 00 00 00 00 9F
 (2.6710)  can1  8580C02   [8]  00 00 03 00 04 00 0A 00
 (2.6720)  can1  89A0C02   [8]  00 00 00 00 FF 3A 00 00
 (2.6720)  can1  596FF71   [8]  06 80 FF FF FF FF F1 1C
 (2.6720)  can1  8030C02   [8]  30 75 9C FE 26 FF 00 00
 (2.6720)  can1  586FF72   [8]  0C 80 FF FF FF FF F3 4A
 (2.6730)  can1  8041001   [8]  A8 01 20 22 10 AF 3B 00
 (2.6730)  can1  1948FF72   [8]  00 C0 00 55 FF FF 06 19
 (2.6730)  can1  18800401   [8]  06 A6 89 D6 89 E1 89 00
 (2.6730)  can1  18840401   [8]  06 BE 89 F2 89 FA 89 00
 (2.6740)  can1  18C00401   [8]  06 16 31 9C 32 E5 30 00
 (2.6740)  can1  4100209   [8]  36 48 03 00 07 00 00 00
 (2.6740)  can1  4100208   [8]  7B 0A 03 00 07 00 00 00
 (2.6740)  can1  595FF71   [8]  04 80 60 09 60 09 F2 09
 (2.6750)  can1  4100209   [8]  36 48 03 00 03 00 00 00
 (2.6770)  can1  4100208   [8]  7C 0A 03 00 07 00 00 00
 (2.6770)  can1  8100302   [5]  02 00 0A 00 09
 (2.6770)  can1  8580C02   [8]  04 00 08 00 0A 00 04 00
 (2.6780)  can1  89A0C02   [8]  CC 46 00 00 99 8D 00 00
 (2.6780)  can1  8030C02   [8]  00 00 F5 FF 37 01 4C 0F
 (2.6810)  can1  596FF71   [8]  10 80 FF FF FF FF F2 18
 (2.6820)  can1  585FF72   [8]  09 80 60 09 60 09 FD DC
 (2.6820)  can1  586FF72   [8]  14 80 FF FF FF FF F4 67
 (2.6820)  can1  589FF72   [8]  1A D0 02 81 02 00 FD 87
 (2.6820)  can1  1949FF72   [8]  0D 80 00 0D 90 00 07 31
 (2.6830)  can1  194AFF72   [8]  86 77 57 77 75 57 08 9F
 (2.6830)  can1  194BFF72   [8]  6C F5 FF FF FF FF 09 66
 (2.6840)  can1  194CFF72   [8]  FF FF FF FF FF FF 0A 04
 (2.6850)  can1  4100209   [8]  38 48 03 00 07 00 00 00
 (2.6870)  can1  4100208   [8]  7D 0A 03 00 03 00 00 00
 (2.6910)  can1  595FF71   [8]  09 80 60 09 60 09 F3 DC
 (2.6950)  can1  4100209   [8]  39 48 03 00 07 00 00 00
 (2.6970)  can1  4100208   [8]  7E 0A 03 00 07 00 00 00
 (2.6970)  can1  588FF72   [8]  E0 01 50 FF FF FF FC EE
 (2.6970)  can1  89A0C02   [8]  CC BC 00 00 FF EB 00 00
 (2.6980)  can1  8030C02   [8]  16 48 22 00 7E 00 82 04
 (2.6980)  can1  8580C02   [8]  0B 00 0E 00 0A 00 0A 00
 (2.7010)  can1  596FF71   [8]  26 80 FF FF FF FF F3 95
 (2.7020)  can1  585FF72   [8]  09 80 60 09 60 09 FE DC
 (2.7020)  can1  586FF72   [8]  19 80 FF FF FF FF F5 B2
 (2.7030)  can1  587FF72   [8]  03 08 60 0F FF FF FC 23
 (2.7030)  can1  8100302   [5]  02 00 0A 00 09
 (2.7050)  can1  4100209   [8]  3A 48 03 00 03 00 00 00
 (2.7070)  can1  4100208   [8]  80 0A 03 00 07 00 00 00
 (2.7110)  can1  595FF71   [8]  09 80 60 09 60 09 F4 DC
 (2.7140)  can1  18800401   [8]  07 DB 89 CA 89 A4 89 00
 (2.7140)  can1  18840401   [8]  07 F6 89 E5 89 BF 89 00
 (2.7140)  can1  18C00401   [8]  07 AA 32 F1 30 A2 32 00
 (2.7150)  can1  4100209   [8]  3B 48 03 00 07 00 00 00
 (2.7170)  can1  4100208   [8]  80 0A 03 00 03 00 00 00
 (2.7170)  can1  5807202   [8]  04 80 00 00 E0 01 01 3C
 (2.7180)  can1  5817202   [8]  01 00 10 27 10 27 04 E3
 (2.7180)  can1  5907102   [8]  04 80 00 00 E0 01 01 3C
 (2.7190)  can1  5827202   [8]  FA 00 00 00 00 00 01 D4
 (2.7190)  can1  5917102   [8]  01 00 10 27 10 27 04 E3
 (2.7200)  can1  5927102   [8]  FA 00 00 00 00 00 01 D4
 (2.7200)  can1  5837202   [8]  2C 41 06 00 00 00 01 E0
 (2.7210)  can1  5937102   [8]  2C 41 06 00 00 00 01 E0
 (2.7210)  can1  5847270   [8]  00 00 00 00 00 00 01 9F
 (2.7210)  can1  5947102   [8]  00 00 00 00 00 00 01 9F
 (2.7220)  can1  89A0C02   [8]  64 C0 01 00 FE 26 01 00
 (2.7220)  can1  596FF71   [8]  16 80 FF FF FF FF F4 CF
 (2.7220)  can1  597FF71   [8]  07 08 7A 0F FF FF FC 54
 (2.7230)  can1  585FF72   [8]  09 80 60 09 60 09 FF DC
 (2.7240)  can1  586FF72   [8]  12 80 FF FF FF FF F6 B0
 (2.7240)  can1  598FF71   [8]  60 01 76 FF FF FF FC B7
 (2.7240)  can1  599FF71   [8]  1A E0 02 82 02 00 FC D1
 (2.7250)  can1  8030C02   [8]  00 00 1D 02 F2 00 C8 1C
 (2.7250)  can1  8580C02   [8]  1B 00 11 00 04 00 0A 00
 (2.7250)  can1  1948FF71   [8]  00 C0 00 55 FF FF 06 19
 (2.7250)  can1  4100209   [8]  3C 48 03 00 03 00 00 00
 (2.7260)  can1  1949FF71   [8]  0D 80 00 0E B0 00 07 52
 (2.7270)  can1  4100208   [8]  81 0A 03 00 07 00 00 00
 (2.7270)  can1  8100302   [5]  01 00 0A 00 09
 (2.7280)  can1  194AFF71   [8]  48 67 58 83 65 58 08 4F
 (2.7280)  can1  194BFF71   [8]  86 F5 FF FF FF FF 09 80
 (2.7280)  can1  194CFF71   [8]  FF FF FF FF FF FF 0A 04
 (2.7310)  can1  595FF71   [8]  09 80 60 09 60 09 F5 DC
 (2.7350)  can1  4100209   [8]  3D 48 03 00 07 00 00 00
 (2.7370)  can1  4100208   [8]  83 0A 03 00 07 00 00 00
 (2.7370)  can1  89A0C02   [8]  98 03 01 00 65 D4 00 00
 (2.7380)  can1  8030C02   [8]  1D 2D AD 00 50 00 35 07
 (2.7390)  can1  8580C02   [8]  0F 00 0C 00 0A 00 0A 00
 (2.7410)  can1  596FF71   [8]  FE 7F FF FF FF FF F5 4D
 (2.7420)  can1  585FF72   [8]  04 80 60 09 60 09 F0 09
 (2.7420)  can1  586FF72   [8]  FB 7F FF FF FF FF F7 66
 (2.7440)  can1  8101201   [8]  5A 60 1A 8A 0B 86 65 00
 (2.7450)  can1  8010C01   [8]  E1 5F 00 00 00 00 00 00
 (2.7450)  can1  4100209   [8]  3E 48 03 00 07 00 00 00
 (2.7470)  can1  4100208   [8]  84 0A 03 00 07 00 00 00
 (2.7510)  can1  595FF71   [8]  04 80 60 09 60 09 F6 09
 (2.7520)  can1  8100302   [5]  01 00 0A 00 09
 (2.7550)  can1  4100209   [8]  3F 48 03 00 07 00 00 00
 (2.7570)  can1  4100208   [8]  85 0A 03 00 07 00 00 00
 (2.7570)  can1  89A0C02   [8]  00 00 00 00 00 00 00 00
 (2.7580)  can1  8030C02   [8]  30 75 85 FE 40 FE 00 00
 (2.7580)  can1  8580C02   [8]  FF FF FD FF 0A 00 0A 00
 (2.7610)  can1  596FF71   [8]  01 80 FF FF FF FF F6 9F
 (2.7610)  can1  8041001   [8]  A8 01 20 22 10 AF 3B 00
 (2.7620)  can1  585FF72   [8]  04 80 60 09 60 09 F1 09
 (2.7620)  can1  586FF72   [8]  04 80 FF FF FF FF F8 B4
 (2.7640)  can1  18800401   [8]  08 93 89 F9 85 EE 89 00
 (2.7640)  can1  18840401   [8]  08 AD 89 0F 86 08 8A 00
 (2.7640)  can1  18C00401   [8]  08 71 30 8A 32 49 30 00
 (2.7650)  can1  4100209   [8]  40 48 03 00 03 00 00 00
 (2.7670)  can1  4100208   [8]  87 0A 03 00 07 00 00 00
 (2.7710)  can1  595FF71   [8]  04 80 60 09 60 09 F7 09
 (2.7750)  can1  4100209   [8]  41 48 03 00 07 00 00 00
 (2.7770)  can1  4100208   [8]  87 0A 03 00 03 00 00 00
 (2.7770)  can1  5807202   [8]  09 80 00 00 E0 01 02 E9
 (2.7780)  can1  5817202   [8]  01 00 10 27 10 27 05 E3
 (2.7790)  can1  5907102   [8]  09 80 00 00 E0 01 02 E9
 (2.7790)  can1  5917102   [8]  01 00 10 27 10 27 05 E3
 (2.7800)  can1  5827202   [8]  FA 00 00 00 00 00 02 D4
 (2.7800)  can1  5927102   [8]  FA 00 00 00 00 00 02 D4
 (2.7810)  can1  5837202   [8]  2C 41 06 00 00 00 02 E0
 (2.7810)  can1  5847270   [8]  00 00 00 00 00 00 02 9F
 (2.7810)  can1  5937102   [8]  2C 41 06 00 00 00 02 E0
 (2.7820)  can1  5947102   [8]  00 00 00 00 00 00 02 9F
 (2.7830)  can1  8100302   [5]  02 00 0A 00 09
 (2.7830)  can1  89A0C02   [8]  CC 0B 00 00 33 2F 00 00
 (2.7830)  can1  596FF71   [8]  0F 80 FF FF FF FF F7 B6
 (2.7840)  can1  8030C02   [8]  30 75 CA FE 0F FF 00 00
 (2.7840)  can1  8580C02   [8]  00 00 02 00 04 00 0A 00
 (2.7840)  can1  585FF72   [8]  04 80 60 09 60 09 F2 09
 (2.7840)  can1  586FF72   [8]  0B 80 FF FF FF FF F9 C9
 (2.7840)  can1  589FF72   [8]  1A D0 02 81 02 00 FE 87
 (2.7850)  can1  4100209   [8]  43 48 03 00 07 00 00 00
 (2.7870)  can1  4100208   [8]  89 0A 03 00 07 00 00 00
 (2.7910)  can1  595FF71   [8]  04 80 60 09 60 09 F8 09
 (2.7950)  can1  4100209   [8]  43 48 03 00 03 00 00 00
 (2.7970)  can1  4100208   [8]  89 0A 03 00 03 00 00 00
 (2.7970)  can1  8030C02   [8]  00 00 D8 01 01 01 BD 18
 (2.7980)  can1  8580C02   [8]  0A 00 07 00 04 00 04 00
 (2.7980)  can1  89A0C02   [8]  FF B0 00 00 CC 81 00 00
 (2.7990)  can1  588FF72   [8]  E0 01 50 FF FF FF FD EE
 (2.8010)  can1  596FF71   [8]  14 80 FF FF FF FF F8 67
 (2.8020)  can1  585FF72   [8]  09 80 60 09 60 09 F3 DC
 (2.8020)  can1  586FF72   [8]  1C 80 FF FF FF FF FA 99
 (2.8030)  can1  587FF72   [8]  09 08 63 0F FF FF FD 85
 (2.8030)  can1  8100302   [5]  02 00 0A 00 09
 (2.8050)  can1  4100209   [8]  45 48 03 00 07 00 00 00
 (2.8070)  can1  4100208   [8]  8A 0A 03 00 07 00 00 00
 (2.8110)  can1  595FF71   [8]  09 80 60 09 60 09 F9 DC
 (2.8140)  can1  18800401   [8]  09 D6 89 B5 89 A3 89 00
 (2.8140)  can1  18840401   [8]  09 F0 89 CF 89 BC 89 00
 (2.8140)  can1  18C00401   [8]  09 F2 31 A9 2F A5 31 00
 (2.8150)  can1  4100209   [8]  46 48 03 00 07 00 00 00
 (2.8170)  can1  4100208   [8]  8C 0A 03 00 07 00 00 00
 (2.8170)  can1  89A0C02   [8]  FF EB 00 00 65 4A 01 00
 (2.8180)  can1  8030C02   [8]  00 00 7E 00 37 01 4C 0F
 (2.8180)  can1  8580C02   [8]  0E 00 13 00 0A 00 0A 00
 (2.8210)  can1  596FF71   [8]  1C 80 FF FF FF FF F9 99
 (2.8220)  can1  597FF71   [8]  06 08 7A 0F FF FF FD 00
 (2.8220)  can1  598FF71   [8]  60 01 76 FF FF FF FD B7
 (2.8230)  can1  585FF72   [8]  09 80 60 09 60 09 F4 DC
 (2.8230)  can1  586FF72   [8]  1D 80 FF FF FF FF FB CD
 (2.8230)  can1  599FF71   [8]  1A E0 02 82 02 00 FD D1
 (2.8250)  can1  4100209   [8]  47 48 03 00 03 00 00 00
 (2.8270)  can1  4100208   [8]  8C 0A 03 00 03 00 00 00
 (2.8270)  can1  8100302   [5]  02 00 0A 00 09
 (2.8310)  can1  595FF71   [8]  09 80 60 09 60 09 FA DC
 (2.8350)  can1  4100209   [8]  48 48 03 00 07 00 00 00
 (2.8370)  can1  4100208   [8]  8E 0A 03 00 07 00 00 00
 (2.8370)  can1  5807202   [8]  09 80 00 00 E0 01 03 E9
 (2.8380)  can1  5817202   [8]  01 00 10 27 10 27 06 E3
 (2.8380)  can1  5907102   [8]  09 80 00 00 E0 01 03 E9
 (2.8390)  can1  5917102   [8]  01 00 10 27 10 27 06 E3
 (2.8400)  can1  5827202   [8]  FA 00 00 00 00 00 03 D4
 (2.8400)  can1  5927102   [8]  FA 00 00 00 00 00 03 D4
 (2.8400)  can1  5837202   [8]  2C 41 06 00 00 00 03 E0
 (2.8410)  can1  5847270   [8]  00 00 00 00 00 00 03 9F
 (2.8410)  can1  5937102   [8]  2C 41 06 00 00 00 03 E0
 (2.8420)  can1  5947102   [8]  00 00 00 00 00 00 03 9F
 (2.8420)  can1  8580C02   [8]  13 00 14 00 0A 00 0A 00
 (2.8420)  can1  89A0C02   [8]  65 4A 01 00 32 56 01 00
 (2.8430)  can1  596FF71   [8]  0F 80 FF FF FF FF FA B6
 (2.8430)  can1  8030C02   [8]  00 00 37 01 4E 01 A5 10
 (2.8430)  can1  585FF72   [8]  09 80 60 09 60 09 F5 DC
 (2.8430)  can1  586FF72   [8]  0B 80 FF FF FF FF FC C9
 (2.8450)  can1  4100209   [8]  49 48 03 00 07 00 00 00
 (2.8460)  can1  8101201   [8]  52 60 1A 8A 0A 86 75 00
 (2.8460)  can1  8010C01   [8]  D9 5F 00 00 00 00 00 00
 (2.8470)  can1  4100208   [8]  8F 0A 03 00 07 00 00 00
 (2.8510)  can1  595FF71   [8]  09 80 60 09 60 09 FB DC
 (2.8520)  can1  8100302   [5]  02 00 0A 00 09
 (2.8550)  can1  4100209   [8]  4A 48 03 00 07 00 00 00
 (2.8570)  can1  4100208   [8]  90 0A 03 00 07 00 00 00
 (2.8570)  can1  89A0C02   [8]  FF B0 00 00 CC 81 00 00
 (2.8580)  can1  8030C02   [8]  30 75 0B 00 B0 FF 00 00
 (2.8580)  can1  8580C02   [8]  0A 00 07 00 0A 00 0A 00
 (2.8610)  can1  596FF71   [8]  03 80 FF FF FF FF FB 37
 (2.8610)  can1  8041001   [8]  A8 01 20 22 10 AF 3B 00
 (2.8620)  can1  585FF72   [8]  09 80 60 09 60 09 F6 DC
 (2.8620)  can1  586FF72   [8]  00 80 FF FF FF FF FD CB
 (2.8640)  can1  18800401   [8]  0A 6B 89 8A 89 A4 89 00
 (2.8640)  can1  18840401   [8]  0A 91 89 AE 89 C6 89 00
 (2.8650)  can1  18C00401   [8]  0A F6 30 67 32 5E 31 00
 (2.8650)  can1  4100209   [8]  4B 48 03 00 03 00 00 00
 (2.8670)  can1  4100208   [8]  92 0A 03 00 07 00 00 00
 (2.8710)  can1  595FF71   [8]  09 80 60 09 60 09 FC DC
 (2.8750)  can1  4100209   [8]  4C 48 03 00 07 00 00 00
 (2.8770)  can1  4100208   [8]  93 0A 03 00 07 00 00 00
 (2.8770)  can1  8100302   [5]  02 00 0A 00 09
 (2.8780)  can1  8580C02   [8]  02 00 00 00 0A 00 0A 00
 (2.8780)  can1  89A0C02   [8]  66 23 00 00 00 00 00 00
 (2.8780)  can1  8030C02   [8]  30 75 F8 FE B3 FE 00 00
 (2.8810)  can1  596FF71   [8]  13 80 FF FF FF FF FC E4
 (2.8820)  can1  585FF72   [8]  09 80 60 09 60 09 F7 DC
 (2.8820)  can1  586FF72   [8]  0E 80 FF FF FF FF FE E2
 (2.8830)  can1  589FF72   [8]  1A D0 02 81 02 00 FF 87
 (2.8850)  can1  4100209   [8]  4E 48 03 00 07 00 00 00
 (2.8870)  can1  4100208   [8]  94 0A 03 00 07 00 00 00
 (2.8910)  can1  595FF71   [8]  09 80 60 09 60 09 FD DC
 (2.8950)  can1  4100209   [8]  4E 48 03 00 03 00 00 00
 (2.8970)  can1  4100208   [8]  95 0A 03 00 03 00 00 00
 (2.8970)  can1  588FF72   [8]  E0 01 50 FF FF FF FE EE
 (2.8970)  can1  5807202   [8]  09 80 00 00 E0 01 04 E9
 (2.8980)  can1  5817202   [8]  01 00 10 27 10 27 07 E3
 (2.8980)  can1  5907102   [8]  09 80 00 00 E0 01 04 E9
 (2.8990)  can1  5917102   [8]  01 00 10 27 10 27 07 E3
 (2.8990)  can1  5827202   [8]  FA 00 00 00 00 00 04 D4
 (2.9000)  can1  5927102   [8]  FA 00 00 00 00 00 04 D4
 (2.9010)  can1  5837202   [8]  2C 41 06 00 00 00 04 E0
 (2.9010)  can1  5847270   [8]  00 00 00 00 00 00 04 9F
 (2.9010)  can1  5937102   [8]  2C 41 06 00 00 00 04 E0
 (2.9020)  can1  5947102   [8]  00 00 00 00 00 00 04 9F
 (2.9020)  can1  8580C02   [8]  0D 00 09 00 04 00 04 00
 (2.9030)  can1  89A0C02   [8]  32 E0 00 00 32 A5 00 00
 (2.9030)  can1  596FF71   [8]  19 80 FF FF FF FF FD B2
 (2.9040)  can1  8030C02   [8]  00 00 AF 02 A2 01 53 25
 (2.9040)  can1  585FF72   [8]  09 80 60 09 60 09 F8 DC
 (2.9040)  can1  586FF72   [8]  0B 80 FF FF FF FF FF C9
 (2.9050)  can1  528FF72   [8]  1B 00 85 00 00 00 9C 00
 (2.9050)  can1  529FF72   [8]  FC FF 53 00 0D 00 09 00
 (2.9060)  can1  52CFF72   [8]  00 00 EF FF EF FF 3A 00
 (2.9060)  can1  587FF72   [8]  05 08 60 0F FF FF FE F4
 (2.9060)  can1  8100302   [5]  02 00 0A 00 09
 (2.9060)  can1  4100209   [8]  50 48 03 00 07 00 00 00
 (2.9070)  can1  4100208   [8]  96 0A 03 00 07 00 00 00
 (2.9110)  can1  595FF71   [8]  09 80 60 09 60 09 FE DC
 (2.9110)  can1  528FF71   [8]  13 00 A3 00 00 00 9C 00
 (2.9120)  can1  529FF71   [8]  06 00 54 00 0D 00 09 00
 (2.9120)  can1  52CFF71   [8]  00 00 EF FF EF FF 3A 00
 (2.9140)  can1  18800401   [8]  0B C7 89 C3 89 CE 89 00
 (2.9140)  can1  18840401   [8]  0B E9 89 E6 89 F1 89 00
 (2.9140)  can1  18C00401   [8]  0B B2 32 59 31 B2 32 00
 (2.9150)  can1  4100209   [8]  51 48 03 00 07 00 00 00
 (2.9160)  can1  18101203   [4]  36 2D D2 07
 (2.9170)  can1  4100208   [8]  97 0A 03 00 07 00 00 00
 (2.9170)  can1  1948FF72   [8]  00 C0 00 55 FF FF 0B 1E
 (2.9180)  can1  89A0C02   [8]  FE 26 01 00 CC 81 00 00
 (2.9180)  can1  8030C02   [8]  A8 04 F2 00 B0 FF 40 0B
 (2.9190)  can1  8580C02   [8]  11 00 07 00 0A 00 0A 00
 (2.9210)  can1  596FF71   [8]  07 80 FF FF FF FF FE 48
 (2.9210)  can1  597FF71   [8]  05 08 7D 0F FF FF FE 86
 (2.9220)  can1  598FF71   [8]  60 01 76 FF FF FF FE B7
 (2.9220)  can1  585FF72   [8]  09 80 60 09 60 09 F9 DC
 (2.9230)  can1  586FF72   [8]  11 80 FF FF FF FF F0 4C
 (2.9230)  can1  599FF71   [8]  1A E0 02 82 02 00 FE D1
 (2.9250)  can1  4100209   [8]  51 48 03 00 03 00 00 00
 (2.9270)  can1  4100208   [8]  99 0A 03 00 07 00 00 00
 (2.9270)  can1  8100302   [5]  02 00 0A 00 09
 (2.9310)  can1  595FF71   [8]  09 80 60 09 60 09 FF DC
 (2.9350)  can1  4100209   [8]  53 48 03 00 07 00 00 00
 (2.9370)  can1  4100208   [8]  9A 0A 03 00 07 00 00 00
 (2.9370)  can1  1949FF72   [8]  0C 80 00 0C B0 00 0C 54
 (2.9380)  can1  89A0C02   [8]  99 52 00 00 98 C8 00 00
 (2.9380)  can1  8030C02   [8]  8A 70 54 FF 39 00 76 00
 (2.9390)  can1  8580C02   [8]  04 00 0C 00 0A 00 0A 00
 (2.9390)  can1  194AFF72   [8]  86 77 57 77 75 57 0D A4
 (2.9390)  can1  194BFF72   [8]  72 F5 FF FF FF FF 0E 71
 (2.9400)  can1  194CFF72   [8]  FF FF FF FF FF FF 0F 09
 (2.9410)  can1  596FF71   [8]  0A 80 FF FF FF FF FF 9D
 (2.9420)  can1  585FF72   [8]  09 80 60 09 60 09 FA DC
 (2.9420)  can1  586FF72   [8]  0E 80 FF FF FF FF F1 E2
 (2.9450)  can1  4100209   [8]  54 48 03 00 07 00 00 00
 (2.9460)  can1  8101201   [8]  55 60 16 8A 0D 86 72 00
 (2.9470)  can1  4100208   [8]  9B 0A 03 00 03 00 00 00
 (2.9480)  can1  8010C01   [8]  D9 5F 00 00 00 00 00 00
 (2.9510)  can1  595FF71   [8]  09 80 60 09 60 09 F0 DC
 (2.9520)  can1  8100302   [5]  02 00 0A 00 09
 (2.9550)  can1  4100209   [8]  55 48 03 00 07 00 00 00
 (2.9570)  can1  4100208   [8]  9C 0A 03 00 07 00 00 00
 (2.9570)  can1  5807202   [8]  09 80 00 00 E0 01 05 E9
 (2.9580)  can1  5817202   [8]  01 00 10 27 10 27 08 E3
 (2.9580)  can1  5907102   [8]  09 80 00 00 E0 01 05 E9
 (2.9590)  can1  5827202   [8]  FA 00 00 00 00 00 05 D4
 (2.9590)  can1  5917102   [8]  01 00 10 27 10 27 08 E3
 (2.9590)  can1  5927102   [8]  FA 00 00 00 00 00 05 D4
 (2.9600)  can1  5837202   [8]  2C 41 06 00 00 00 05 E0
 (2.9600)  can1  5937102   [8]  2C 41 06 00 00 00 05 E0
 (2.9610)  can1  5847270   [8]  00 00 00 00 00 00 05 9F
 (2.9620)  can1  5947102   [8]  00 00 00 00 00 00 05 9F
 (2.9620)  can1  89A0C02   [8]  FF 75 00 00 32 A5 00 00
 (2.9630)  can1  596FF71   [8]  16 80 FF FF FF FF F0 CF
 (2.9630)  can1  8030C02   [8]  30 75 99 FF F5 FF 00 00
 (2.9630)  can1  8041001   [8]  A8 01 20 22 10 AF 3B 00
 (2.9630)  can1  585FF72   [8]  09 80 60 09 60 09 FB DC
 (2.9640)  can1  586FF72   [8]  0A 80 FF FF FF FF F2 9D
 (2.9640)  can1  8580C02   [8]  07 00 09 00 0A 00 0A 00
 (2.9640)  can1  18800401   [8]  0C C6 89 A1 89 A5 89 00
 (2.9650)  can1  18840401   [8]  0C EA 89 C6 89 C9 89 00
 (2.9650)  can1  18C00401   [8]  0C 1D 31 56 32 DF 30 00
 (2.9650)  can1  4100209   [8]  57 48 03 00 07 00 00 00
 (2.9670)  can1  4100208   [8]  9D 0A 03 00 07 00 00 00
 (2.9710)  can1  595FF71   [8]  09 80 60 09 60 09 F1 DC
 (2.9750)  can1  4100209   [8]  58 48 03 00 07 00 00 00
 (2.9760)  can1  1948FF71   [8]  00 C0 00 55 FF FF 0B 1E
 (2.9770)  can1  4100208   [8]  9E 0A 03 00 07 00 00 00
 (2.9770)  can1  8100302   [5]  02 00 0A 00 09
 (2.9780)  can1  8580C02   [8]  0F 00 07 00 0A 00 0A 00
 (2.9780)  can1  89A0C02   [8]  98 03 01 00 FF 75 00 00
 (2.9780)  can1  8030C02   [8]  1D 2D AD 00 99 FF 35 07
 (2.9810)  can1  596FF71   [8]  12 80 FF FF FF FF F1 B0
 (2.9820)  can1  1949FF71   [8]  0D 80 00 0D A0 00 0C 46
 (2.9820)  can1  194AFF71   [8]  49 37 58 86 65 58 0D 28
 (2.9820)  can1  585FF72   [8]  09 80 60 09 60 09 FC DC
 (2.9830)  can1  586FF72   [8]  11 80 FF FF FF FF F3 4C
 (2.9830)  can1  589FF72   [8]  1A D0 02 81 02 00 F0 87
 (2.9840)  can1  194BFF71   [8]  86 F5 FF FF FF FF 0E 85
 (2.9840)  can1  194CFF71   [8]  FF FF FF FF FF FF 0F 09
 (2.9850)  can1  4100209   [8]  59 48 03 00 07 00 00 00
 (2.9870)  can1  4100208   [8]  A0 0A 03 00 07 00 00 00
 (2.9910)  can1  595FF71   [8]  09 80 60 09 60 09 F2 DC
 (2.9950)  can1  4100209   [8]  5A 48 03 00 07 00 00 00
 (2.9970)  can1  4100208   [8]  A1 0A 03 00 07 00 00 00
 (2.9970)  can1  588FF72   [8]  E0 01 50 FF FF FF FF EE
 (2.9970)  can1  89A0C02   [8]  65 D4 00 00 98 C8 00 00
 (2.9980)  can1  8030C02   [8]  0E 63 50 00 39 00 D0 01
 (2.9980)  can1  8580C02   [8]  0C 00 0C 00 0A 00 0A 00
 (3.0010)  can1  596FF71   [8]  08 80 FF FF FF FF F2 35
 (3.0020)  can1  585FF72   [8]  09 80 60 09 60 09 FD DC
 (3.0020)  can1  586FF72   [8]  16 80 FF FF FF FF F4 CF
 (3.0030)  can1  587FF72   [8]  00 08 63 0F FF FF FF 2F
 (3.0030)  can1  8100302   [5]  02 00 0A 00 09
 (3.0050)  can1  4100209   [8]  5B 48 03 00 03 00 00 00
 (3.0070)  can1  4100208   [8]  A2 0A 03 00 07 00 00 00
 (3.0110)  can1  595FF71   [8]  09 80 60 09 60 09 F3 DC
 (3.0140)  can1  18800401   [8]  0D B8 89 D3 89 C0 89 00
 (3.0140)  can1  18840401   [8]  0D DC 89 F7 89 E4 89 00
 (3.0140)  can1  18C00401   [8]  0D FD 31 11 30 F1 30 00
 (3.0150)  can1  4100209   [8]  5C 48 03 00 07 00 00 00
 (3.0170)  can1  4100208   [8]  A4 0A 03 00 07 00 00 00
 (3.0170)  can1  5807202   [8]  04 80 00 00 E0 01 06 3C
 (3.0180)  can1  5817202   [8]  01 00 10 27 10 27 09 E3
 (3.0180)  can1  5907102   [8]  04 80 00 00 E0 01 06 3C
 (3.0180)  can1  5917102   [8]  01 00 10 27 10 27 09 E3
 (3.0190)  can1  5827202   [8]  FA 00 00 00 00 00 06 D4
 (3.0190)  can1  5927102   [8]  FA 00 00 00 00 00 06 D4
 (3.0200)  can1  5837202   [8]  2C 41 06 00 00 00 06 E0
 (3.0200)  can1  5847270   [8]  00 00 00 00 00 00 06 9F
 (3.0210)  can1  5937102   [8]  2C 41 06 00 00 00 06 E0
 (3.0210)  can1  5947102   [8]  00 00 00 00 00 00 06 9F
 (3.0210)  can1  8580C02   [8]  05 00 0F 00 0A 00 0A 00
 (3.0220)  can1  89A0C02   [8]  66 5E 00 00 98 03 01 00
 (3.0220)  can1  596FF71   [8]  11 80 FF FF FF FF F3 4C
 (3.0230)  can1  597FF71   [8]  05 08 7A 0F FF FF FF FC
 (3.0230)  can1  598FF71   [8]  60 01 76 FF FF FF FF B7
 (3.0240)  can1  585FF72   [8]  09 80 60 09 60 09 FE DC
 (3.0240)  can1  586FF72   [8]  0E 80 FF FF FF FF F5 E2
 (3.0240)  can1  599FF71   [8]  1A E0 02 82 02 00 FF D1
 (3.0240)  can1  8030C02   [8]  1D 2D 6B FF AD 00 35 07
 (3.0250)  can1  4100209   [8]  5E 48 03 00 07 00 00 00
 (3.0270)  can1  4100208   [8]  A5 0A 03 00 07 00 00 00
 (3.0270)  can1  8100302   [5]  01 00 0A 00 09
 (3.0310)  can1  595FF71   [8]  09 80 60 09 60 09 F4 DC
 (3.0350)  can1  4100209   [8]  5F 48 03 00 07 00 00 00
 (3.0370)  can1  4100208   [8]  A6 0A 03 00 07 00 00 00
 (3.0370)  can1  8030C02   [8]  8A 70 39 00 F5 FF 76 00
 (3.0380)  can1  8580C02   [8]  0C 00 09 00 0A 00 0A 00
 (3.0380)  can1  89A0C02   [8]  98 C8 00 00 32 A5 00 00
 (3.0410)  can1  596FF71   [8]  14 80 FF FF FF FF F4 67
 (3.0420)  can1  585FF72   [8]  04 80 60 09 60 09 FF 09
 (3.0420)  can1  586FF72   [8]  FE 7F FF FF FF FF F6 4D
 (3.0450)  can1  4100209   [8]  60 48 03 00 07 00 00 00
 (3.0470)  can1  4100208   [8]  A7 0A 03 00 07 00 00 00
 (3.0470)  can1  8101201   [8]  56 60 10 8A 0D 86 77 00
 (3.0480)  can1  8010C01   [8]  DD 5F 00 00 00 00 00 00
 (3.0510)  can1  595FF71   [8]  04 80 60 09 60 09 F5 09
 (3.0520)  can1  8100302   [5]  01 00 0A 00 09
 (3.0550)  can1  4100209   [8]  62 48 03 00 07 00 00 00
 (3.0570)  can1  4100208   [8]  A9 0A 03 00 07 00 00 00
 (3.0570)  can1  89A0C02   [8]  FF EB 00 00 00 00 00 00
 (3.0580)  can1  8030C02   [8]  16 48 7E 00 85 FE 82 04
 (3.0580)  can1  8580C02   [8]  0E 00 FF FF 0A 00 0A 00
 (3.0610)  can1  596FF71   [8]  06 80 FF FF FF FF F5 1C
 (3.0610)  can1  8041001   [8]  A8 01 20 22 10 AF 3B 00
 (3.0620)  can1  585FF72   [8]  04 80 60 09 60 09 F0 09
 (3.0620)  can1  586FF72   [8]  08 80 FF FF FF FF F7 35
 (3.0640)  can1  18800401   [8]  0E 90 89 88 89 6E 89 00
 (3.0640)  can1  18840401   [8]  0E AE 89 A6 89 89 89 00
 (3.0650)  can1  18C00401   [8]  0E 2B 2F 91 31 9D 30 00
 (3.0650)  can1  4100209   [8]  63 48 03 00 07 00 00 00
 (3.0670)  can1  4100208   [8]  AA 0A 03 00 07 00 00 00
 (3.0710)  can1  595FF71   [8]  04 80 60 09 60 09 F6 09
 (3.0750)  can1  4100209   [8]  64 48 03 00 07 00 00 00
 (3.0770)  can1  4100208   [8]  AB 0A 03 00 07 00 00 00
 (3.0770)  can1  5807202   [8]  04 80 00 00 E0 01 07 3C
 (3.0780)  can1  5817202   [8]  01 00 10 27 10 27 0A E3
 (3.0780)  can1  5907102   [8]  04 80 00 00 E0 01 07 3C
 (3.0790)  can1  5917102   [8]  01 00 10 27 10 27 0A E3
 (3.0790)  can1  5827202   [8]  FA 00 00 00 00 00 07 D4
 (3.0800)  can1  5927102   [8]  FA 00 00 00 00 00 07 D4
 (3.0800)  can1  5837202   [8]  2C 41 06 00 00 00 07 E0
 (3.0810)  can1  5847270   [8]  00 00 00 00 00 00 07 9F
 (3.0810)  can1  5937102   [8]  2C 41 06 00 00 00 07 E0
 (3.0820)  can1  5947102   [8]  00 00 00 00 00 00 07 9F
 (3.0820)  can1  8100302   [5]  01 00 0A 00 09
 (3.0830)  can1  89A0C02   [8]  CC 46 00 00 66 5E 00 00
 (3.0830)  can1  596FF71   [8]  0C 80 FF FF FF FF F6 4A
 (3.0830)  can1  8030C02   [8]  30 75 3D FF 6B FF 00 00
 (3.0830)  can1  8580C02   [8]  04 00 05 00 0A 00 0A 00
 (3.0840)  can1  585FF72   [8]  04 80 60 09 60 09 F1 09
 (3.0840)  can1  586FF72   [8]  13 80 FF FF FF FF F8 E4
 (3.0840)  can1  589FF72   [8]  1A D0 02 81 02 00 F1 87
 (3.0850)  can1  4100209   [8]  65 48 03 00 07 00 00 00
 (3.0870)  can1  4100208   [8]  AD 0A 03 00 07 00 00 00
 (3.0910)  can1  595FF71   [8]  04 80 60 09 60 09 F7 09
 (3.0950)  can1  4100209   [8]  67 48 03 00 07 00 00 00
 (3.0970)  can1  4100208   [8]  AE 0A 03 00 07 00 00 00
 (3.0970)  can1  588FF72   [8]  E0 01 50 FF FF FF F0 EE
 (3.0980)  can1  8580C02   [8]  08 00 0D 00 0A 00 0A 00
 (3.0980)  can1  8030C02   [8]  92 55 C7 FF 67 00 29 03
 (3.0980)  can1  89A0C02   [8]  99 8D 00 00 32 E0 00 00
 (3.1010)  can1  596FF71   [8]  18 80 FF FF FF FF F7 E6
 (3.1020)  can1  585FF72   [8]  04 80 60 09 60 09 F2 09
 (3.1020)  can1  586FF72   [8]  18 80 FF FF FF FF F9 E6
 (3.1020)  can1  587FF72   [8]  07 08 63 0F FF FF F0 AC
 (3.1030)  can1  8100302   [5]  01 00 0A 00 09
 (3.1050)  can1  4100209   [8]  68 48 03 00 07 00 00 00
 (3.1070)  can1  4100208   [8]  AF 0A 03 00 07 00 00 00
 (3.1110)  can1  595FF71   [8]  04 80 60 09 60 09 F8 09
 (3.1140)  can1  18800401   [8]  0F 1A 89 91 89 B7 89 00
 (3.1140)  can1  18840401   [8]  0F 36 89 AF 89 D4 89 00
 (3.1150)  can1  18C00401   [8]  0F 53 32 07 31 A1 32 00
 (3.1150)  can1  4100209   [8]  69 48 03 00 03 00 00 00
 (3.1170)  can1  4100208   [8]  B0 0A 03 00 07 00 00 00
 (3.1170)  can1  89A0C02   [8]  32 1B 01 00 32 1B 01 00
 (3.1180)  can1  8030C02   [8]  00 00 BB 03 BB 03 0E 35
 (3.1180)  can1  8580C02   [8]  11 00 11 00 0A 00 04 00
 (3.1210)  can1  596FF71   [8]  13 80 FF FF FF FF F8 E4
 (3.1210)  can1  597FF71   [8]  05 08 7D 0F FF FF F0 86
 (3.1220)  can1  598FF71   [8]  60 01 76 FF FF FF F0 B7
 (3.1220)  can1  585FF72   [8]  04 80 60 09 60 09 F3 09
 (3.1230)  can1  586FF72   [8]  0D 80 FF FF FF FF FA 1E
 (3.1230)  can1  599FF71   [8]  1A E0 02 82 02 00 F0 D1
 (3.1250)  can1  4100209   [8]  6A 48 03 00 07 00 00 00
 (3.1270)  can1  4100208   [8]  B2 0A 03 00 07 00 00 00
 (3.1270)  can1  8100302   [5]  01 00 0A 00 09
 (3.1310)  can1  595FF71   [8]  04 80 60 09 60 09 F9 09
 (3.1350)  can1  4100209   [8]  6B 48 03 00 07 00 00 00
 (3.1370)  can1  4100208   [8]  B3 0A 03 00 07 00 00 00
 (3.1370)  can1  5807202   [8]  04 80 00 00 E0 01 08 3C
 (3.1380)  can1  5817202   [8]  01 00 10 27 10 27 0B E3
 (3.1380)  can1  5907102   [8]  04 80 00 00 E0 01 08 3C
 (3.1390)  can1  5917102   [8]  01 00 10 27 10 27 0B E3
 (3.1390)  can1  5827202   [8]  FA 00 00 00 00 00 08 D4
 (3.1390)  can1  5927102   [8]  FA 00 00 00 00 00 08 D4
 (3.1400)  can1  5837202   [8]  2C 41 06 00 00 00 08 E0
 (3.1410)  can1  5847270   [8]  00 00 00 00 00 00 08 9F
 (3.1410)  can1  5937102   [8]  2C 41 06 00 00 00 08 E0
 (3.1420)  can1  5947102   [8]  00 00 00 00 00 00 08 9F
 (3.1420)  can1  8580C02   [8]  0D 00 09 00 0A 00 0A 00
 (3.1420)  can1  89A0C02   [8]  32 E0 00 00 65 99 00 00
 (3.1430)  can1  596FF71   [8]  0A 80 FF FF FF FF F9 9D
 (3.1430)  can1  8030C02   [8]  92 55 67 00 DE FF 29 03
 (3.1430)  can1  585FF72   [8]  04 80 60 09 60 09 F4 09
 (3.1430)  can1  586FF72   [8]  0A 80 FF FF FF FF FB 9D
 (3.1450)  can1  4100209   [8]  6D 48 03 00 07 00 00 00
 (3.1470)  can1  4100208   [8]  B4 0A 03 00 07 00 00 00
 (3.1480)  can1  8101201   [8]  58 60 18 8A 0B 86 64 00
 (3.1480)  can1  8010C01   [8]  DF 5F 00 00 00 00 00 00
 (3.1510)  can1  595FF71   [8]  04 80 60 09 60 09 FA 09
 (3.1520)  can1  8100302   [5]  01 00 0A 00 09
 (3.1550)  can1  4100209   [8]  6E 48 03 00 07 00 00 00
 (3.1570)  can1  4100208   [8]  B6 0A 03 00 07 00 00 00
 (3.1570)  can1  89A0C02   [8]  FF 75 00 00 FF 75 00 00
 (3.1580)  can1  8030C02   [8]  30 75 99 FF 99 FF 00 00
 (3.1580)  can1  8580C02   [8]  07 00 07 00 0A 00 0A 00
 (3.1610)  can1  596FF71   [8]  0F 80 FF FF FF FF FA B6
 (3.1610)  can1  8041001   [8]  A8 01 20 22 10 AF 3B 00
 (3.1620)  can1  585FF72   [8]  04 80 60 09 60 09 F5 09
 (3.1620)  can1  586FF72   [8]  0C 80 FF FF FF FF FC 4A
 (3.1640)  can1  18800401   [8]  10 A8 89 B0 89 A4 89 00
 (3.1640)  can1  18840401   [8]  10 C5 89 CD 89 C1 89 00
 (3.1640)  can1  18C00401   [8]  10 0A 31 AD 32 A3 30 00
 (3.1650)  can1  4100209   [8]  6E 48 03 00 03 00 00 00
 (3.1670)  can1  4100208   [8]  B6 0A 03 00 03 00 00 00
 (3.1710)  can1  595FF71   [8]  04 80 60 09 60 09 FB 09
 (3.1720)  can1  1948FF72   [8]  00 C0 00 55 FF FF 10 23
 (3.1750)  can1  4100209   [8]  70 48 03 00 07 00 00 00
 (3.1770)  can1  4100208   [8]  B8 0A 03 00 07 00 00 00
 (3.1770)  can1  8100302   [5]  01 00 0A 00 09
 (3.1780)  can1  8580C02   [8]  0A 00 08 00 0A 00 0A 00
 (3.1780)  can1  89A0C02   [8]  FF B0 00 00 99 8D 00 00
 (3.1780)  can1  8030C02   [8]  30 75 0B 00 C7 FF 00 00
 (3.1810)  can1  596FF71   [8]  13 80 FF FF FF FF FB E4
 (3.1820)  can1  585FF72   [8]  04 80 60 09 60 09 F6 09
 (3.1820)  can1  586FF72   [8]  0D 80 FF FF FF FF FD 1E
 (3.1820)  can1  589FF72   [8]  1A D0 02 81 02 00 F2 87
 (3.1850)  can1  4100209   [8]  71 48 03 00 07 00 00 00
 (3.1870)  can1  4100208   [8]  B9 0A 03 00 07 00 00 00
 (3.1880)  can1  1949FF72   [8]  0D 80 00 0D 90 00 11 3B
 (3.1880)  can1  194AFF72   [8]  86 77 57 77 F5 56 12 28
 (3.1890)  can1  194BFF72   [8]  77 F5 FF FF FF FF 13 7B
 (3.1890)  can1  194CFF72   [8]  FF FF FF FF FF FF 14 0E
 (3.1910)  can1  595FF71   [8]  04 80 60 09 60 09 FC 09
 (3.1950)  can1  4100209   [8]  72 48 03 00 07 00 00 00
 (3.1970)  can1  4100208   [8]  BA 0A 03 00 07 00 00 00
 (3.1970)  can1  5807202   [8]  04 80 00 00 E0 01 09 3C
 (3.1980)  can1  5817202   [8]  01 00 10 27 10 27 0C E3
 (3.1980)  can1  5907102   [8]  04 80 00 00 E0 01 09 3C
 (3.1990)  can1  5827202   [8]  FA 00 00 00 00 00 09 D4
 (3.1990)  can1  5917102   [8]  01 00 10 27 10 27 0C E3
 (3.2000)  can1  588FF72   [8]  E0 01 50 FF FF FF F1 EE
 (3.2000)  can1  5837202   [8]  2C 41 06 00 00 00 09 E0
 (3.2010)  can1  5927102   [8]  FA 00 00 00 00 00 09 D4
 (3.2010)  can1  5937102   [8]  2C 41 06 00 00 00 09 E0
 (3.2010)  can1  5847270   [8]  00 00 00 00 00 00 09 9F
 (3.2020)  can1  5947102   [8]  00 00 00 00 00 00 09 9F
 (3.2020)  can1  89A0C02   [8]  32 E0 00 00 65 99 00 00
 (3.2030)  can1  596FF71   [8]  0D 80 FF FF FF FF FC 1E
 (3.2030)  can1  8030C02   [8]  92 55 67 00 DE FF 29 03
 (3.2030)  can1  8580C02   [8]  0D 00 09 00 0A 00 0A 00
 (3.2040)  can1  585FF72   [8]  04 80 60 09 60 09 F7 09
 (3.2040)  can1  586FF72   [8]  0E 80 FF FF FF FF FE E2
 (3.2040)  can1  587FF72   [8]  07 08 63 0F FF FF F1 AC
 (3.2040)  can1  8100302   [5]  01 00 0A 00 09
 (3.2050)  can1  4100209   [8]  73 48 03 00 03 00 00 00
 (3.2070)  can1  4100208   [8]  BB 0A 03 00 07 00 00 00
 (3.2110)  can1  595FF71   [8]  04 80 60 09 60 09 FD 09
 (3.2140)  can1  18800401   [8]  11 86 89 7B 89 94 89 00
 (3.2140)  can1  18840401   [8]  11 A3 89 97 89 AE 89 00
 (3.2150)  can1  18C00401   [8]  11 84 32 54 30 40 32 00
 (3.2150)  can1  4100209   [8]  74 48 03 00 07 00 00 00
 (3.2170)  can1  4100208   [8]  BC 0A 03 00 03 00 00 00
 (3.2170)  can1  89A0C02   [8]  65 99 00 00 32 A5 00 00
 (3.2180)  can1  8030C02   [8]  30 75 DE FF F5 FF 00 00
 (3.2180)  can1  8580C02   [8]  09 00 09 00 04 00 0A 00
 (3.2210)  can1  596FF71   [8]  0A 80 FF FF FF FF FD 9D
 (3.2210)  can1  597FF71   [8]  01 08 7F 0F FF FF F1 BC
 (3.2220)  can1  598FF71   [8]  60 01 76 FF FF FF F1 B7
 (3.2220)  can1  585FF72   [8]  04 80 60 09 60 09 F8 09
 (3.2230)  can1  586FF72   [8]  0D 80 FF FF FF FF FF 1E
 (3.2230)  can1  599FF71   [8]  1A E0 02 82 02 00 F1 D1
 (3.2250)  can1  4100209   [8]  76 48 03 00 07 00 00 00
 (3.2270)  can1  4100208   [8]  BD 0A 03 00 07 00 00 00
 (3.2270)  can1  8100302   [5]  01 00 0A 00 09
 (3.2310)  can1  595FF71   [8]  04 80 60 09 60 09 FE 09
 (3.2310)  can1  1948FF71   [8]  00 C0 00 55 FF FF 10 23
 (3.2350)  can1  4100209   [8]  76 48 03 00 03 00 00 00
 (3.2360)  can1  1949FF71   [8]  0D 80 00 0D D0 00 11 7B
 (3.2360)  can1  194AFF71   [8]  48 37 58 86 35 58 12 FC
 (3.2370)  can1  194BFF71   [8]  86 F5 FF FF FF FF 13 8A
 (3.2370)  can1  4100208   [8]  BF 0A 03 00 07 00 00 00
 (3.2380)  can1  194CFF71   [8]  FF FF FF FF FF FF 14 0E
 (3.2380)  can1  8030C02   [8]  00 00 CB 00 6C 01 71 12
 (3.2390)  can1  8580C02   [8]  07 00 09 00 0A 00 04 00
 (3.2390)  can1  89A0C02   [8]  FF 75 00 00 65 99 00 00
 (3.2410)  can1  596FF71   [8]  0C 80 FF FF FF FF FE 4A
 (3.2420)  can1  585FF72   [8]  04 80 60 09 60 09 F9 09
 (3.2420)  can1  586FF72   [8]  0D 80 FF FF FF FF F0 1E
 (3.2450)  can1  4100209   [8]  77 48 03 00 07 00 00 00
 (3.2470)  can1  4100208   [8]  BF 0A 03 00 03 00 00 00
 (3.2490)  can1  8101201   [8]  56 60 19 8A 0C 86 4D 00
 (3.2490)  can1  8010C01   [8]  DE 5F 00 00 00 00 00 00
 (3.2510)  can1  595FF71   [8]  04 80 60 09 60 09 FF 09
 (3.2520)  can1  8100302   [5]  01 00 0A 00 09
 (3.2550)  can1  4100209   [8]  79 48 03 00 07 00 00 00
 (3.2570)  can1  4100208   [8]  C1 0A 03 00 07 00 00 00
 (3.2570)  can1  5807202   [8]  04 80 00 00 E0 01 0A 3C
 (3.2580)  can1  5817202   [8]  01 00 10 27 10 27 0D E3
 (3.2590)  can1  5907102   [8]  04 80 00 00 E0 01 0A 3C
 (3.2590)  can1  5917102   [8]  01 00 10 27 10 27 0D E3
 (3.2600)  can1  5827202   [8]  FA 00 00 00 00 00 0A D4
 (3.2600)  can1  5927102   [8]  FA 00 00 00 00 00 0A D4
 (3.2600)  can1  5837202   [8]  2C 41 06 00 00 00 0A E0
 (3.2610)  can1  5847270   [8]  00 00 00 00 00 00 0A 9F
 (3.2610)  can1  5937102   [8]  2C 41 06 00 00 00 0A E0
 (3.2620)  can1  5947102   [8]  00 00 00 00 00 00 0A 9F
 (3.2620)  can1  8580C02   [8]  08 00 09 00 0A 00 0A 00
 (3.2630)  can1  89A0C02   [8]  99 8D 00 00 65 99 00 00
 (3.2630)  can1  596FF71   [8]  0B 80 FF FF FF FF FF C9
 (3.2630)  can1  8030C02   [8]  30 75 C7 FF DE FF 00 00
 (3.2640)  can1  8041001   [8]  A8 01 20 22 10 AF 3B 00
 (3.2640)  can1  585FF72   [8]  04 80 60 09 60 09 FA 09
 (3.2650)  can1  586FF72   [8]  09 80 FF FF FF FF F1 61
 (3.2650)  can1  18800401   [8]  12 C5 89 B4 89 A3 89 00
 (3.2730)  can1  18840401   [8]  12 E1 89 CF 89 BF 89 00
 (3.2740)  can1  18C00401   [8]  12 74 31 BA 2F 28 2F 00
 (3.2740)  can1  4100209   [8]  79 48 03 00 03 00 00 00
 (3.2740)  can1  4100208   [8]  C2 0A 03 00 07 00 00 00
 (3.2750)  can1  595FF71   [8]  04 80 60 09 60 09 F0 09
 (3.2750)  can1  4100209   [8]  7B 48 03 00 07 00 00 00
 (3.2770)  can1  4100208   [8]  C2 0A 03 00 03 00 00 00
 (3.2770)  can1  8100302   [5]  01 00 0A 00 09
 (3.2780)  can1  8580C02   [8]  07 00 06 00 04 00 0A 00
 (3.2780)  can1  89A0C02   [8]  CC 81 00 00 32 6A 00 00
 (3.2780)  can1  8030C02   [8]  30 75 B0 FF 82 FF 00 00
 (3.2810)  can1  596FF71   [8]  0A 80 FF FF FF FF F0 9D
 (3.2820)  can1  585FF72   [8]  04 80 60 09 60 09 FB 09
 (3.2820)  can1  586FF72   [8]  0E 80 FF FF FF FF F2 E2
 (3.2820)  can1  589FF72   [8]  1A D0 02 81 02 00 F3 87
 (3.2850)  can1  4100209   [8]  7B 48 03 00 03 00 00 00
 (3.2870)  can1  4100208   [8]  C4 0A 03 00 07 00 00 00
 (3.2910)  can1  595FF71   [8]  04 80 60 09 60 09 F1 09
 (3.2950)  can1  4100209   [8]  7D 48 03 00 07 00 00 00
 (3.2970)  can1  4100208   [8]  C5 0A 03 00 07 00 00 00
 (3.2970)  can1  89A0C02   [8]  FF 75 00 00 32 A5 00 00
 (3.2980)  can1  8030C02   [8]  30 75 99 FF F5 FF 00 00
 (3.2980)  can1  8580C02   [8]  07 00 09 00 0A 00 0A 00
 (3.3010)  can1  596FF71   [8]  0B 80 FF FF FF FF F1 C9
 (3.3020)  can1  585FF72   [8]  04 80 60 09 60 09 FC 09
 (3.3020)  can1  586FF72   [8]  0B 80 FF FF FF FF F3 C9
 (3.3030)  can1  587FF72   [8]  06 08 60 0F FF FF F2 08
 (3.3030)  can1  588FF72   [8]  E0 01 50 FF FF FF F2 EE
 (3.3040)  can1  8100302   [5]  01 00 0A 00 09
