 (1.4170)  can1  8030C02   [8]  00 00 2A 68 2A 68 92 17
 (1.4200)  can1  8580C02   [8]  00 00 00 00 00 00 00 00
 (1.4210)  can1  4100209   [8]  00 00 00 00 00 00 00 00
 (1.4220)  can1  4100208   [8]  00 00 00 00 00 00 00 00
 (1.4220)  can1  8100302   [5]  00 25 0A 00 06
 (1.4220)  can1  4100209   [8]  00 00 00 00 00 00 00 00
 (1.4220)  can1  4100208   [8]  00 00 00 00 00 00 00 00
 (1.4230)  can1  8100302   [5]  00 25 0A 00 07
 (1.4270)  can1  4100209   [8]  00 00 00 00 00 00 00 00
 (1.4280)  can1  4100208   [8]  00 00 00 00 00 00 00 00
 (1.4280)  can1  18800401   [8]  0D EF 8F 17 90 07 90 00
 (1.4280)  can1  18840401   [8]  0D EF 8F 17 90 07 90 00
 (1.4290)  can1  18C00401   [8]  0D 2A 30 47 2F 47 2F 00
 (1.4360)  can1  89A0C02   [8]  00 00 00 00 00 00 00 00
 (1.4370)  can1  8030C02   [8]  00 00 2A 68 2A 68 92 17
 (1.4370)  can1  8580C02   [8]  00 00 00 00 00 00 00 00
 (1.4380)  can1  4100209   [8]  00 00 00 00 00 00 00 00
 (1.4380)  can1  4100208   [8]  00 00 00 00 00 00 00 00
 (1.4460)  can1  8100302   [5]  00 25 0A 00 07
 (1.4470)  can1  4100209   [8]  00 00 00 00 00 00 00 00
 (1.4480)  can1  4100208   [8]  00 00 00 00 00 00 00 00
 (1.4560)  can1  89A0C02   [8]  00 00 00 00 00 00 00 00
 (1.4560)  can1  8030C02   [8]  00 00 2A 68 2A 68 92 17
 (1.4560)  can1  8580C02   [8]  00 00 00 00 00 00 00 00
 (1.4570)  can1  4100209   [8]  00 00 00 00 00 00 00 00
 (1.4580)  can1  4100208   [8]  00 00 00 00 00 00 00 00
 (1.4670)  can1  4100209   [8]  00 00 00 00 00 00 00 00
 (1.4680)  can1  4100208   [8]  00 00 00 00 00 00 00 00
 (1.4700)  can1  8100302   [5]  00 26 0A 00 07
 (1.4760)  can1  89A0C02   [8]  00 00 00 00 00 00 00 00
 (1.4760)  can1  8030C02   [8]  00 00 2A 68 2A 68 92 17
 (1.4770)  can1  8041001   [8]  37 02 60 3C FD A2 1B 00
 (1.4770)  can1  8580C02   [8]  00 00 00 00 00 00 00 00
 (1.4780)  can1  4100209   [8]  00 00 00 00 00 00 00 00
 (1.4780)  can1  4100208   [8]  00 00 00 00 00 00 00 00
 (1.4790)  can1  18800401   [8]  0E C9 8F C0 8F A5 8F 00
 (1.4790)  can1  18840401   [8]  0E C9 8F BF 8F A5 8F 00
 (1.4790)  can1  18C00401   [8]  0E 5B 2F F1 2F 18 30 00
 (1.4870)  can1  4100209   [8]  00 00 00 00 00 00 00 00
 (1.4880)  can1  4100208   [8]  00 00 00 00 00 00 00 00
 (1.4960)  can1  8100302   [5]  00 25 0A 00 07
 (1.4960)  can1  8580C02   [8]  00 00 00 00 00 00 00 00
 (1.4970)  can1  89A0C02   [8]  00 00 00 00 00 00 00 00
 (1.4970)  can1  8030C02   [8]  00 00 2A 68 2A 68 92 17
 (1.4980)  can1  4100209   [8]  00 00 00 00 00 00 00 00
 (1.4980)  can1  4100208   [8]  00 00 00 00 00 00 00 00
 (1.4980)  can1  8101201   [8]  00 00 6F 90 11 8D 02 00
 (1.4990)  can1  8010C01   [8]  00 00 00 00 00 00 00 00
 (1.5070)  can1  4100209   [8]  00 00 00 00 00 00 00 00
 (1.5080)  can1  4100208   [8]  00 00 00 00 00 00 00 00
 (1.5160)  can1  89A0C02   [8]  00 00 00 00 00 00 00 00
 (1.5160)  can1  8030C02   [8]  00 00 2A 68 2A 68 92 17
 (1.5160)  can1  8580C02   [8]  00 00 00 00 00 00 00 00
 (1.5170)  can1  4100209   [8]  00 00 00 00 00 00 00 00
 (1.5180)  can1  4100208   [8]  00 00 00 00 00 00 00 00
 (1.5200)  can1  8100302   [5]  00 25 0A 00 07
 (1.5250)  can1  404FF03   [1]  00
 (1.5270)  can1  4100209   [8]  00 00 00 00 00 00 00 00
 (1.5280)  can1  8250C03   [8]  00 00 00 00 00 00 00 00
 (1.5280)  can1  4100208   [8]  00 00 00 00 00 00 00 00
 (1.5290)  can1  8840C03   [8]  35 00 14 00 1C 00 07 00
 (1.5290)  can1  88D0C03   [8]  11 00 08 00 00 00 00 00
 (1.5300)  can1  18800401   [8]  0F 61 8F C6 8F F9 8F 00
 (1.5300)  can1  18840401   [8]  0F 60 8F C6 8F F9 8F 00
 (1.5300)  can1  18C00401   [8]  0F 6F 30 5C 30 B4 30 00
 (1.5360)  can1  89A0C02   [8]  00 00 00 00 00 00 00 00
 (1.5360)  can1  8030C02   [8]  00 00 2A 68 2A 68 92 17
 (1.5370)  can1  8580C02   [8]  00 00 00 00 00 00 00 00
 (1.5370)  can1  404FF07   [1]  00
 (1.5380)  can1  4100209   [8]  00 00 00 00 00 00 00 00
 (1.5380)  can1  4100208   [8]  00 00 00 00 00 00 00 00
 (1.5460)  can1  8100302   [5]  00 25 0A 00 07
 (1.5470)  can1  4100209   [8]  00 00 00 00 00 00 00 00
 (1.5480)  can1  4100208   [8]  00 00 00 00 00 00 00 00
 (1.5560)  can1  89A0C02   [8]  00 00 00 00 00 00 00 00
 (1.5560)  can1  8030C02   [8]  00 00 2A 68 2A 68 92 17
 (1.5570)  can1  8580C02   [8]  00 00 00 00 00 00 00 00
 (1.5570)  can1  4100209   [8]  00 00 00 00 00 00 00 00
 (1.5580)  can1  4100208   [8]  00 00 00 00 00 00 00 00
 (1.5670)  can1  4100209   [8]  00 00 00 00 00 00 00 00
 (1.5680)  can1  4100208   [8]  00 00 00 00 00 00 00 00
 (1.5700)  can1  8100302   [5]  00 25 0A 00 07
 (1.5760)  can1  89A0C02   [8]  00 00 00 00 00 00 00 00
 (1.5760)  can1  404FF01   [1]  00
 (1.5760)  can1  8030C02   [8]  00 00 2A 68 2A 68 92 17
 (1.5770)  can1  8041001   [8]  37 02 60 3C FD A2 1B 00
 (1.5770)  can1  8580C02   [8]  00 00 00 00 00 00 00 00
 (1.5780)  can1  4100209   [8]  00 00 00 00 00 00 00 00
 (1.5780)  can1  4100208   [8]  00 00 00 00 00 00 00 00
 (1.5780)  can1  8120C01   [8]  3F 00 00 00 00 00 00 00
 (1.5790)  can1  80F1201   [4]  B2 11 00 00
 (1.5790)  can1  18800401   [8]  10 EE 8F EF 8F E7 8F 00
 (1.5800)  can1  18840401   [8]  10 EE 8F EF 8F E7 8F 00
 (1.5800)  can1  18C00401   [8]  10 69 30 C0 30 1F 30 00
 (1.5870)  can1  4100209   [8]  00 00 00 00 00 00 00 00
 (1.5880)  can1  4100208   [8]  00 00 00 00 00 00 00 00
 (1.5950)  can1  404FF02   [1]  00
 (1.5960)  can1  8100302   [5]  00 24 0A 00 07
 (1.5970)  can1  89A0C02   [8]  00 00 00 00 00 00 00 00
 (1.5970)  can1  8580C02   [8]  00 00 00 00 00 00 00 00
 (1.5980)  can1  8030C02   [8]  00 00 2A 68 2A 68 92 17
 (1.5980)  can1  4100209   [8]  00 00 00 00 00 00 00 00
 (1.5980)  can1  4100208   [8]  00 00 00 00 00 00 00 00
 (1.5990)  can1  8101201   [8]  00 00 6F 90 11 8D 00 00
 (1.6000)  can1  8010C01   [8]  00 00 00 00 00 00 00 00
 (1.6070)  can1  4100209   [8]  00 00 00 00 00 00 00 00
 (1.6080)  can1  4100208   [8]  00 00 00 00 00 00 00 00
 (1.6160)  can1  89A0C02   [8]  00 00 00 00 00 00 00 00
 (1.6160)  can1  8030C02   [8]  00 00 2A 68 2A 68 92 17
 (1.6160)  can1  8580C02   [8]  00 00 00 00 00 00 00 00
 (1.6170)  can1  4100209   [8]  00 00 00 00 00 00 00 00
 (1.6180)  can1  4100208   [8]  00 00 00 00 00 00 00 00
 (1.6200)  can1  8100302   [5]  00 25 0A 00 07
 (1.6260)  can1  18101203   [4]  A9 2C AA 01
 (1.6270)  can1  4100209   [8]  00 00 00 00 00 00 00 00
 (1.6280)  can1  4100208   [8]  00 00 00 00 00 00 00 00
 (1.6280)  can1  18800401   [8]  11 D2 8F C9 8F D9 8F 00
 (1.6290)  can1  18840401   [8]  11 D1 8F C9 8F D8 8F 00
 (1.6290)  can1  18C00401   [8]  11 97 30 D3 2F 52 30 00
 (1.6360)  can1  89A0C02   [8]  00 00 00 00 00 00 00 00
 (1.6360)  can1  8030C02   [8]  00 00 2A 68 2A 68 92 17
 (1.6360)  can1  8580C02   [8]  00 00 00 00 00 00 00 00
 (1.6370)  can1  4100209   [8]  00 00 00 00 00 00 00 00
 (1.6380)  can1  4100208   [8]  00 00 00 00 00 00 00 00
 (1.6460)  can1  8100302   [5]  00 25 0A 00 07
 (1.6470)  can1  4100209   [8]  00 00 00 00 00 00 00 00
 (1.6480)  can1  4100208   [8]  00 00 00 00 00 00 00 00
 (1.6560)  can1  89A0C02   [8]  00 00 00 00 00 00 00 00
 (1.6560)  can1  8030C02   [8]  00 00 2A 68 2A 68 92 17
 (1.6570)  can1  8580C02   [8]  00 00 00 00 00 00 00 00
 (1.6570)  can1  4100209   [8]  00 00 00 00 00 00 00 00
 (1.6580)  can1  4100208   [8]  00 00 00 00 00 00 00 00
 (1.6670)  can1  4100209   [8]  00 00 00 00 00 00 00 00
 (1.6680)  can1  4100208   [8]  00 00 00 00 00 00 00 00
 (1.6700)  can1  8100302   [5]  00 25 0A 00 07
 (1.6760)  can1  89A0C02   [8]  00 00 00 00 00 00 00 00
 (1.6760)  can1  8030C02   [8]  00 00 2A 68 2A 68 92 17
 (1.6760)  can1  8041001   [8]  37 02 60 3C FD A2 1B 00
 (1.6770)  can1  8580C02   [8]  00 00 00 00 00 00 00 00
 (1.6770)  can1  4100209   [8]  00 00 00 00 00 00 00 00
 (1.6780)  can1  4100208   [8]  00 00 00 00 00 00 00 00
 (1.6780)  can1  18800401   [8]  12 12 90 05 90 CC 8F 00
 (1.6790)  can1  18840401   [8]  12 11 90 04 90 CB 8F 00
 (1.6790)  can1  18C00401   [8]  12 B5 2F 3A 2F 0A 2F 00
 (1.6870)  can1  4100209   [8]  00 00 00 00 00 00 00 00
 (1.6880)  can1  4100208   [8]  00 00 00 00 00 00 00 00
 (1.6960)  can1  8100302   [5]  00 25 0A 00 07
 (1.6960)  can1  8580C02   [8]  00 00 00 00 00 00 00 00
 (1.6970)  can1  89A0C02   [8]  00 00 00 00 00 00 00 00
 (1.6970)  can1  8030C02   [8]  00 00 2A 68 2A 68 92 17
 (1.6970)  can1  4100209   [8]  00 00 00 00 00 00 00 00
 (1.6980)  can1  4100208   [8]  00 00 00 00 00 00 00 00
 (1.7000)  can1  8101201   [8]  00 00 70 90 12 8D 00 00
 (1.7000)  can1  8010C01   [8]  00 00 00 00 00 00 00 00
 (1.7070)  can1  4100209   [8]  00 00 00 00 00 00 00 00
 (1.7080)  can1  4100208   [8]  00 00 00 00 00 00 00 00
 (1.7160)  can1  89A0C02   [8]  00 00 00 00 00 00 00 00
 (1.7160)  can1  8030C02   [8]  00 00 2A 68 2A 68 92 17
 (1.7170)  can1  8580C02   [8]  00 00 00 00 00 00 00 00
 (1.7170)  can1  4100209   [8]  00 00 00 00 00 00 00 00
 (1.7180)  can1  4100208   [8]  00 00 00 00 00 00 00 00
 (1.7200)  can1  8100302   [5]  00 25 0A 00 07
 (1.7270)  can1  4100209   [8]  00 00 00 00 00 00 00 00
 (1.7280)  can1  4100208   [8]  00 00 00 00 00 00 00 00
 (1.7280)  can1  18800401   [8]  13 C5 8F AF 8F C1 8F 00
 (1.7290)  can1  18840401   [8]  13 C5 8F AE 8F C1 8F 00
 (1.7290)  can1  18C00401   [8]  13 78 2F BD 2F 0A 30 00
 (1.7360)  can1  89A0C02   [8]  00 00 00 00 00 00 00 00
 (1.7360)  can1  8030C02   [8]  00 00 2A 68 2A 68 92 17
 (1.7370)  can1  8580C02   [8]  00 00 00 00 00 00 00 00
 (1.7370)  can1  4100209   [8]  00 00 00 00 00 00 00 00
 (1.7380)  can1  4100208   [8]  00 00 00 00 00 00 00 00
 (1.7460)  can1  8100302   [5]  00 25 0A 00 07
 (1.7470)  can1  4100209   [8]  00 00 00 00 00 00 00 00
 (1.7480)  can1  4100208   [8]  00 00 00 00 00 00 00 00
 (1.7560)  can1  89A0C02   [8]  00 00 00 00 00 00 00 00
 (1.7560)  can1  8030C02   [8]  00 00 2A 68 2A 68 92 17
 (1.7560)  can1  8580C02   [8]  00 00 00 00 00 00 00 00
 (1.7570)  can1  4100209   [8]  00 00 00 00 00 00 00 00
 (1.7580)  can1  4100208   [8]  00 00 00 00 00 00 00 00
 (1.7670)  can1  4100209   [8]  00 00 00 00 00 00 00 00
 (1.7680)  can1  4100208   [8]  00 00 00 00 00 00 00 00
 (1.7700)  can1  8100302   [5]  00 25 0A 00 07
 (1.7760)  can1  89A0C02   [8]  00 00 00 00 00 00 00 00
 (1.7760)  can1  8030C02   [8]  00 00 2A 68 2A 68 92 17
 (1.7770)  can1  8041001   [8]  37 02 60 3C FD A2 1B 00
 (1.7770)  can1  8580C02   [8]  00 00 00 00 00 00 00 00
 (1.7780)  can1  4100209   [8]  00 00 00 00 00 00 00 00
 (1.7780)  can1  4100208   [8]  00 00 00 00 00 00 00 00
 (1.7790)  can1  18800401   [8]  14 D3 8F F7 8F F6 8F 00
 (1.7790)  can1  18840401   [8]  14 D0 8F F7 8F F0 8F 00
 (1.7790)  can1  18C00401   [8]  14 E2 2F 1F 30 E3 2F 00
 (1.7870)  can1  4100209   [8]  00 00 00 00 00 00 00 00
 (1.7880)  can1  4100208   [8]  00 00 00 00 00 00 00 00
 (1.7960)  can1  8100302   [5]  00 24 0A 00 07
 (1.7960)  can1  8580C02   [8]  00 00 00 00 00 00 00 00
 (1.7970)  can1  89A0C02   [8]  00 00 00 00 00 00 00 00
 (1.7970)  can1  8030C02   [8]  00 00 2A 68 2A 68 92 17
 (1.7980)  can1  4100209   [8]  00 00 00 00 00 00 00 00
 (1.7980)  can1  4100208   [8]  00 00 00 00 00 00 00 00
 (1.8010)  can1  8101201   [8]  00 00 6F 90 12 8D 00 00
 (1.8020)  can1  8010C01   [8]  00 00 00 00 00 00 00 00
 (1.8070)  can1  4100209   [8]  00 00 00 00 00 00 00 00
 (1.8080)  can1  4100208   [8]  00 00 00 00 00 00 00 00
 (1.8160)  can1  89A0C02   [8]  00 00 00 00 00 00 00 00
 (1.8160)  can1  8030C02   [8]  00 00 2A 68 2A 68 92 17
 (1.8160)  can1  8580C02   [8]  00 00 00 00 00 00 00 00
 (1.8170)  can1  4100209   [8]  00 00 00 00 00 00 00 00
 (1.8180)  can1  4100208   [8]  00 00 00 00 00 00 00 00
 (1.8200)  can1  8100302   [5]  00 25 0A 00 07
 (1.8270)  can1  4100209   [8]  00 00 00 00 00 00 00 00
 (1.8280)  can1  4100208   [8]  00 00 00 00 00 00 00 00
 (1.8290)  can1  18800401   [8]  15 06 90 F6 8F DF 8F 00
 (1.8290)  can1  18840401   [8]  15 06 90 F6 8F DF 8F 00
 (1.8290)  can1  18C00401   [8]  15 2E 30 A6 2F 07 30 00
 (1.8360)  can1  89A0C02   [8]  00 00 00 00 00 00 00 00
 (1.8360)  can1  8030C02   [8]  00 00 2A 68 2A 68 92 17
 (1.8370)  can1  8580C02   [8]  00 00 00 00 00 00 00 00
 (1.8370)  can1  4100209   [8]  00 00 00 00 00 00 00 00
 (1.8380)  can1  4100208   [8]  00 00 00 00 00 00 00 00
 (1.8460)  can1  8100302   [5]  00 24 0A 00 07
 (1.8470)  can1  4100209   [8]  00 00 00 00 00 00 00 00
 (1.8480)  can1  4100208   [8]  00 00 00 00 00 00 00 00
 (1.8560)  can1  89A0C02   [8]  00 00 00 00 00 00 00 00
 (1.8560)  can1  8030C02   [8]  00 00 2A 68 2A 68 92 17
 (1.8570)  can1  8580C02   [8]  00 00 00 00 00 00 00 00
 (1.8570)  can1  4100209   [8]  00 00 00 00 00 00 00 00
 (1.8580)  can1  4100208   [8]  00 00 00 00 00 00 00 00
 (1.8670)  can1  4100209   [8]  00 00 00 00 00 00 00 00
 (1.8680)  can1  4100208   [8]  00 00 00 00 00 00 00 00
 (1.8710)  can1  8100302   [5]  00 25 0A 00 07
 (1.8750)  can1  8041001   [8]  37 02 60 3C FD A2 1B 00
 (1.8760)  can1  8030C02   [8]  00 00 2A 68 2A 68 92 17
 (1.8760)  can1  8580C02   [8]  00 00 00 00 00 00 00 00
 (1.8770)  can1  89A0C02   [8]  00 00 00 00 00 00 00 00
 (1.8770)  can1  4100209   [8]  00 00 00 00 00 00 00 00
 (1.8780)  can1  4100208   [8]  00 00 00 00 00 00 00 00
 (1.8780)  can1  18800401   [8]  16 D6 8F EE 8F 16 90 00
 (1.8780)  can1  18840401   [8]  16 D6 8F ED 8F 15 90 00
 (1.8790)  can1  18C00401   [8]  16 8F 2F BC 2F 0F 2F 00
 (1.8870)  can1  4100209   [8]  00 00 00 00 00 00 00 00
 (1.8880)  can1  4100208   [8]  00 00 00 00 00 00 00 00
 (1.8960)  can1  8100302   [5]  00 24 0A 00 07
 (1.8960)  can1  8580C02   [8]  00 00 00 00 00 00 00 00
 (1.8970)  can1  89A0C02   [8]  00 00 00 00 00 00 00 00
 (1.8970)  can1  8030C02   [8]  00 00 2A 68 2A 68 92 17
 (1.8980)  can1  4100209   [8]  00 00 00 00 00 00 00 00
 (1.8980)  can1  4100208   [8]  00 00 00 00 00 00 00 00
 (1.9020)  can1  8101201   [8]  00 00 71 90 12 8D 01 00
 (1.9020)  can1  8010C01   [8]  00 00 00 00 00 00 00 00
 (1.9070)  can1  4100209   [8]  00 00 00 00 00 00 00 00
 (1.9080)  can1  4100208   [8]  00 00 00 00 00 00 00 00
 (1.9160)  can1  89A0C02   [8]  00 00 00 00 00 00 00 00
 (1.9170)  can1  8030C02   [8]  00 00 2A 68 2A 68 92 17
 (1.9170)  can1  8580C02   [8]  00 00 00 00 00 00 00 00
 (1.9180)  can1  4100209   [8]  00 00 00 00 00 00 00 00
 (1.9180)  can1  4100208   [8]  00 00 00 00 00 00 00 00
 (1.9210)  can1  8100302   [5]  00 26 0A 00 07
 (1.9270)  can1  4100209   [8]  00 00 00 00 00 00 00 00
 (1.9280)  can1  4100208   [8]  00 00 00 00 00 00 00 00
 (1.9280)  can1  18800401   [8]  17 0A 90 00 00 00 00 00
 (1.9290)  can1  18840401   [8]  17 0A 90 00 00 00 00 00
 (1.9290)  can1  18C00401   [8]  17 02 2F 10 27 10 27 00
 (1.9360)  can1  89A0C02   [8]  00 00 00 00 00 00 00 00
 (1.9360)  can1  8030C02   [8]  00 00 2A 68 2A 68 92 17
 (1.9370)  can1  8580C02   [8]  00 00 00 00 00 00 00 00
 (1.9370)  can1  4100209   [8]  00 00 00 00 00 00 00 00
 (1.9380)  can1  4100208   [8]  00 00 00 00 00 00 00 00
 (1.9460)  can1  8100302   [5]  00 24 0A 00 07
 (1.9470)  can1  4100209   [8]  00 00 00 00 00 00 00 00
 (1.9480)  can1  4100208   [8]  00 00 00 00 00 00 00 00
 (1.9560)  can1  89A0C02   [8]  00 00 00 00 00 00 00 00
 (1.9560)  can1  8030C02   [8]  00 00 2A 68 2A 68 92 17
 (1.9560)  can1  8580C02   [8]  00 00 00 00 00 00 00 00
 (1.9570)  can1  4100209   [8]  00 00 00 00 00 00 00 00
 (1.9580)  can1  4100208   [8]  00 00 00 00 00 00 00 00
 (1.9670)  can1  4100209   [8]  00 00 00 00 00 00 00 00
 (1.9680)  can1  4100208   [8]  00 00 00 00 00 00 00 00
 (1.9700)  can1  8100302   [5]  00 25 0A 00 07
 (1.9760)  can1  89A0C02   [8]  00 00 00 00 00 00 00 00
 (1.9760)  can1  8030C02   [8]  00 00 2A 68 2A 68 92 17
 (1.9770)  can1  8041001   [8]  37 02 60 3C FD A2 1B 00
 (1.9770)  can1  8580C02   [8]  00 00 00 00 00 00 00 00
 (1.9770)  can1  4100209   [8]  00 00 00 00 00 00 00 00
 (1.9780)  can1  4100208   [8]  00 00 00 00 00 00 00 00
 (1.9780)  can1  18800401   [8]  00 6D 90 82 8F 66 8F 00
 (1.9780)  can1  18840401   [8]  00 6F 90 81 8F 66 8F 00
 (1.9790)  can1  18C00401   [8]  00 AD 2F 25 2F 19 30 00
 (1.9870)  can1  4100209   [8]  00 00 00 00 00 00 00 00
 (1.9880)  can1  4100208   [8]  00 00 00 00 00 00 00 00
 (1.9960)  can1  8100302   [5]  00 25 0A 00 07
 (1.9960)  can1  8580C02   [8]  00 00 00 00 00 00 00 00
 (1.9960)  can1  89A0C02   [8]  00 00 00 00 00 00 00 00
 (1.9970)  can1  8030C02   [8]  00 00 2A 68 2A 68 92 17
 (1.9970)  can1  4100209   [8]  00 00 00 00 00 00 00 00
 (1.9980)  can1  4100208   [8]  00 00 00 00 00 00 00 00
 (2.0030)  can1  8101201   [8]  00 00 6D 90 10 8D 02 00
 (2.0040)  can1  8010C01   [8]  00 00 00 00 00 00 00 00
 (2.0070)  can1  4100209   [8]  00 00 00 00 00 00 00 00
 (2.0080)  can1  4100208   [8]  00 00 00 00 00 00 00 00
 (2.0160)  can1  89A0C02   [8]  00 00 00 00 00 00 00 00
 (2.0160)  can1  8030C02   [8]  00 00 2A 68 2A 68 92 17
 (2.0160)  can1  8580C02   [8]  00 00 00 00 00 00 00 00
 (2.0170)  can1  4100209   [8]  00 00 00 00 00 00 00 00
 (2.0180)  can1  4100208   [8]  00 00 00 00 00 00 00 00
 (2.0200)  can1  8100302   [5]  00 24 0A 00 07
 (2.0270)  can1  4100209   [8]  00 00 00 00 00 00 00 00
 (2.0280)  can1  4100208   [8]  00 00 00 00 00 00 00 00
 (2.0280)  can1  18800401   [8]  01 74 8F 88 8F 7F 8F 00
 (2.0290)  can1  18840401   [8]  01 73 8F 88 8F 7F 8F 00
 (2.0290)  can1  18C00401   [8]  01 C7 2F 43 30 EA 2F 00
 (2.0360)  can1  89A0C02   [8]  00 00 00 00 00 00 00 00
 (2.0360)  can1  8030C02   [8]  00 00 2A 68 2A 68 92 17
 (2.0370)  can1  8580C02   [8]  00 00 00 00 00 00 00 00
 (2.0370)  can1  4100209   [8]  00 00 00 00 00 00 00 00
 (2.0380)  can1  4100208   [8]  00 00 00 00 00 00 00 00
 (2.0460)  can1  8100302   [5]  00 25 0A 00 07
 (2.0470)  can1  4100209   [8]  00 00 00 00 00 00 00 00
 (2.0480)  can1  4100208   [8]  00 00 00 00 00 00 00 00
 (2.0560)  can1  89A0C02   [8]  00 00 00 00 00 00 00 00
 (2.0560)  can1  8030C02   [8]  00 00 2A 68 2A 68 92 17
 (2.0560)  can1  8580C02   [8]  00 00 00 00 00 00 00 00
 (2.0570)  can1  4100209   [8]  00 00 00 00 00 00 00 00
 (2.0580)  can1  4100208   [8]  00 00 00 00 00 00 00 00
 (2.0670)  can1  4100209   [8]  00 00 00 00 00 00 00 00
 (2.0680)  can1  4100208   [8]  00 00 00 00 00 00 00 00
 (2.0710)  can1  8100302   [5]  00 24 0A 00 07
 (2.0760)  can1  89A0C02   [8]  00 00 00 00 00 00 00 00
 (2.0760)  can1  8030C02   [8]  00 00 2A 68 2A 68 92 17
 (2.0770)  can1  8041001   [8]  37 02 60 3C FD A2 1B 00
 (2.0770)  can1  8580C02   [8]  00 00 00 00 00 00 00 00
 (2.0770)  can1  4100209   [8]  00 00 00 00 00 00 00 00
 (2.0780)  can1  4100208   [8]  00 00 00 00 00 00 00 00
 (2.0780)  can1  18800401   [8]  02 A1 8F 0C 90 F4 8F 00
 (2.0780)  can1  18840401   [8]  02 A1 8F 0B 90 F4 8F 00
 (2.0790)  can1  18C00401   [8]  02 1F 30 E2 2F 02 30 00
 (2.0870)  can1  4100209   [8]  00 00 00 00 00 00 00 00
 (2.0880)  can1  4100208   [8]  00 00 00 00 00 00 00 00
 (2.0960)  can1  8100302   [5]  00 25 0A 00 07
 (2.0960)  can1  8580C02   [8]  00 00 00 00 00 00 00 00
 (2.0970)  can1  89A0C02   [8]  00 00 00 00 00 00 00 00
 (2.0970)  can1  8030C02   [8]  00 00 2A 68 2A 68 92 17
 (2.0980)  can1  4100209   [8]  00 00 00 00 00 00 00 00
 (2.0980)  can1  4100208   [8]  00 00 00 00 00 00 00 00
 (2.1040)  can1  8101201   [8]  00 00 6E 90 10 8D 03 00
 (2.1050)  can1  8010C01   [8]  00 00 00 00 00 00 00 00
 (2.1070)  can1  4100209   [8]  00 00 00 00 00 00 00 00
 (2.1080)  can1  4100208   [8]  00 00 00 00 00 00 00 00
 (2.1160)  can1  89A0C02   [8]  00 00 00 00 00 00 00 00
 (2.1160)  can1  8030C02   [8]  00 00 2A 68 2A 68 92 17
 (2.1160)  can1  8580C02   [8]  00 00 00 00 00 00 00 00
 (2.1170)  can1  4100209   [8]  00 00 00 00 00 00 00 00
 (2.1180)  can1  4100208   [8]  00 00 00 00 00 00 00 00
 (2.1200)  can1  8100302   [5]  00 24 0A 00 07
 (2.1260)  can1  18101203   [4]  D1 2C 94 01
 (2.1270)  can1  4100209   [8]  00 00 00 00 00 00 00 00
 (2.1280)  can1  4100208   [8]  00 00 00 00 00 00 00 00
 (2.1280)  can1  18800401   [8]  03 E6 8F D8 8F ED 8F 00
 (2.1290)  can1  18840401   [8]  03 E5 8F D8 8F ED 8F 00
 (2.1290)  can1  18C00401   [8]  03 D1 2F CD 2F 91 2F 00
 (2.1360)  can1  89A0C02   [8]  00 00 00 00 00 00 00 00
 (2.1360)  can1  8030C02   [8]  00 00 2A 68 2A 68 92 17
 (2.1370)  can1  8580C02   [8]  00 00 00 00 00 00 00 00
 (2.1370)  can1  4100209   [8]  00 00 00 00 00 00 00 00
 (2.1380)  can1  4100208   [8]  00 00 00 00 00 00 00 00
 (2.1460)  can1  8100302   [5]  00 24 0A 00 07
 (2.1470)  can1  4100209   [8]  00 00 00 00 00 00 00 00
 (2.1480)  can1  4100208   [8]  00 00 00 00 00 00 00 00
 (2.1560)  can1  89A0C02   [8]  00 00 00 00 00 00 00 00
 (2.1560)  can1  8030C02   [8]  00 00 2A 68 2A 68 92 17
 (2.1570)  can1  8580C02   [8]  00 00 00 00 00 00 00 00
 (2.1570)  can1  4100209   [8]  00 00 00 00 00 00 00 00
 (2.1580)  can1  4100208   [8]  00 00 00 00 00 00 00 00
 (2.1670)  can1  4100209   [8]  00 00 00 00 00 00 00 00
 (2.1680)  can1  4100208   [8]  00 00 00 00 00 00 00 00
 (2.1700)  can1  8100302   [5]  00 25 0A 00 07
 (2.1760)  can1  89A0C02   [8]  00 00 00 00 00 00 00 00
 (2.1760)  can1  8030C02   [8]  00 00 2A 68 2A 68 92 17
 (2.1760)  can1  8041001   [8]  37 02 60 3C FD A2 1B 00
 (2.1770)  can1  8580C02   [8]  00 00 00 00 00 00 00 00
 (2.1770)  can1  4100209   [8]  00 00 00 00 00 00 00 00
 (2.1780)  can1  4100208   [8]  00 00 00 00 00 00 00 00
 (2.1780)  can1  18800401   [8]  04 0C 90 FE 8F 10 8D 00
 (2.1780)  can1  18840401   [8]  04 0C 90 FD 8F 10 8D 00
 (2.1790)  can1  18C00401   [8]  04 FA 2E DE 2E 0C 30 00
 (2.1870)  can1  4100209   [8]  00 00 00 00 00 00 00 00
 (2.1880)  can1  4100208   [8]  00 00 00 00 00 00 00 00
 (2.1960)  can1  8100302   [5]  00 25 0A 00 07
 (2.1960)  can1  8580C02   [8]  00 00 00 00 00 00 00 00
 (2.1960)  can1  89A0C02   [8]  00 00 00 00 00 00 00 00
 (2.1970)  can1  8030C02   [8]  00 00 2A 68 2A 68 92 17
 (2.1970)  can1  4100209   [8]  00 00 00 00 00 00 00 00
 (2.1980)  can1  4100208   [8]  00 00 00 00 00 00 00 00
 (2.2050)  can1  8101201   [8]  00 00 6D 90 10 8D 02 00
 (2.2060)  can1  8010C01   [8]  00 00 00 00 00 00 00 00
 (2.2070)  can1  4100209   [8]  00 00 00 00 00 00 00 00
 (2.2080)  can1  4100208   [8]  00 00 00 00 00 00 00 00
 (2.2160)  can1  89A0C02   [8]  00 00 00 00 00 00 00 00
 (2.2160)  can1  8030C02   [8]  00 00 2A 68 2A 68 92 17
 (2.2170)  can1  8580C02   [8]  00 00 00 00 00 00 00 00
 (2.2170)  can1  4100209   [8]  00 00 00 00 00 00 00 00
 (2.2180)  can1  4100208   [8]  00 00 00 00 00 00 00 00
 (2.2200)  can1  8100302   [5]  00 25 0A 00 07
 (2.2270)  can1  4100209   [8]  00 00 00 00 00 00 00 00
 (2.2280)  can1  4100208   [8]  00 00 00 00 00 00 00 00
 (2.2280)  can1  18800401   [8]  05 DA 8F CA 8F D4 8F 00
 (2.2280)  can1  18840401   [8]  05 DA 8F CA 8F D3 8F 00
 (2.2290)  can1  18C00401   [8]  05 FC 2F 57 30 71 30 00
 (2.2360)  can1  89A0C02   [8]  00 00 00 00 00 00 00 00
 (2.2360)  can1  8030C02   [8]  00 00 2A 68 2A 68 92 17
 (2.2370)  can1  8580C02   [8]  00 00 00 00 00 00 00 00
 (2.2370)  can1  4100209   [8]  00 00 00 00 00 00 00 00
 (2.2380)  can1  4100208   [8]  00 00 00 00 00 00 00 00
 (2.2460)  can1  8100302   [5]  00 25 0A 00 07
 (2.2470)  can1  4100209   [8]  00 00 00 00 00 00 00 00
 (2.2480)  can1  4100208   [8]  00 00 00 00 00 00 00 00
 (2.2560)  can1  89A0C02   [8]  00 00 00 00 00 00 00 00
 (2.2560)  can1  8030C02   [8]  00 00 2A 68 2A 68 92 17
 (2.2560)  can1  8580C02   [8]  00 00 00 00 00 00 00 00
 (2.2570)  can1  4100209   [8]  00 00 00 00 00 00 00 00
 (2.2580)  can1  4100208   [8]  00 00 00 00 00 00 00 00
 (2.2670)  can1  4100209   [8]  00 00 00 00 00 00 00 00
 (2.2680)  can1  4100208   [8]  00 00 00 00 00 00 00 00
 (2.2710)  can1  8100302   [5]  00 26 0A 00 07
 (2.2760)  can1  89A0C02   [8]  00 00 00 00 00 00 00 00
 (2.2760)  can1  8030C02   [8]  00 00 2A 68 2A 68 92 17
 (2.2770)  can1  8041001   [8]  37 02 60 3C FD A2 1B 00
 (2.2770)  can1  8580C02   [8]  00 00 00 00 00 00 00 00
 (2.2770)  can1  4100209   [8]  00 00 00 00 00 00 00 00
 (2.2780)  can1  4100208   [8]  00 00 00 00 00 00 00 00
 (2.2780)  can1  18800401   [8]  06 D4 8F 0E 90 1A 90 00
 (2.2780)  can1  18840401   [8]  06 D3 8F 0E 90 19 90 00
 (2.2790)  can1  18C00401   [8]  06 4E 30 A8 30 5E 30 00
 (2.2870)  can1  4100209   [8]  00 00 00 00 00 00 00 00
 (2.2880)  can1  4100208   [8]  00 00 00 00 00 00 00 00
 (2.2960)  can1  8100302   [5]  00 25 0A 00 07
 (2.2960)  can1  8580C02   [8]  00 00 00 00 00 00 00 00
 (2.2970)  can1  89A0C02   [8]  00 00 00 00 00 00 00 00
 (2.2970)  can1  8030C02   [8]  00 00 2A 68 2A 68 92 17
 (2.2980)  can1  4100209   [8]  00 00 00 00 00 00 00 00
 (2.2980)  can1  4100208   [8]  00 00 00 00 00 00 00 00
 (2.3060)  can1  8101201   [8]  00 00 6F 90 10 8D 00 00
 (2.3070)  can1  8010C01   [8]  00 00 00 00 00 00 00 00
 (2.3070)  can1  4100209   [8]  00 00 00 00 00 00 00 00
 (2.3080)  can1  4100208   [8]  00 00 00 00 00 00 00 00
 (2.3160)  can1  89A0C02   [8]  00 00 00 00 00 00 00 00
 (2.3160)  can1  8030C02   [8]  00 00 2A 68 2A 68 92 17
 (2.3160)  can1  8580C02   [8]  00 00 00 00 00 00 00 00
 (2.3170)  can1  4100209   [8]  00 00 00 00 00 00 00 00
 (2.3180)  can1  4100208   [8]  00 00 00 00 00 00 00 00
 (2.3210)  can1  8100302   [5]  00 25 0A 00 07
 (2.3270)  can1  4100209   [8]  00 00 00 00 00 00 00 00
 (2.3280)  can1  4100208   [8]  00 00 00 00 00 00 00 00
 (2.3280)  can1  18800401   [8]  07 11 90 03 90 E6 8F 00
 (2.3290)  can1  18840401   [8]  07 11 90 03 90 E5 8F 00
 (2.3290)  can1  18C00401   [8]  07 B1 30 35 30 A5 30 00
 (2.3360)  can1  89A0C02   [8]  00 00 00 00 00 00 00 00
 (2.3360)  can1  8030C02   [8]  00 00 2A 68 2A 68 92 17
 (2.3370)  can1  8580C02   [8]  00 00 00 00 00 00 00 00
 (2.3370)  can1  4100209   [8]  00 00 00 00 00 00 00 00
 (2.3380)  can1  4100208   [8]  00 00 00 00 00 00 00 00
 (2.3460)  can1  8100302   [5]  00 25 0A 00 07
 (2.3470)  can1  4100209   [8]  00 00 00 00 00 00 00 00
 (2.3480)  can1  4100208   [8]  00 00 00 00 00 00 00 00
 (2.3560)  can1  89A0C02   [8]  00 00 00 00 00 00 00 00
 (2.3560)  can1  8030C02   [8]  00 00 2A 68 2A 68 92 17
 (2.3570)  can1  8580C02   [8]  00 00 00 00 00 00 00 00
 (2.3570)  can1  4100209   [8]  00 00 00 00 00 00 00 00
 (2.3580)  can1  4100208   [8]  00 00 00 00 00 00 00 00
 (2.3670)  can1  4100209   [8]  00 00 00 00 00 00 00 00
 (2.3680)  can1  4100208   [8]  00 00 00 00 00 00 00 00
 (2.3700)  can1  8100302   [5]  00 25 0A 00 07
 (2.3760)  can1  89A0C02   [8]  00 00 00 00 00 00 00 00
 (2.3760)  can1  8030C02   [8]  00 00 2A 68 2A 68 92 17
 (2.3760)  can1  8041001   [8]  37 02 60 3C FD A2 1B 00
 (2.3770)  can1  8580C02   [8]  00 00 00 00 00 00 00 00
 (2.3770)  can1  4100209   [8]  00 00 00 00 00 00 00 00
 (2.3780)  can1  4100208   [8]  00 00 00 00 00 00 00 00
 (2.3790)  can1  18800401   [8]  08 DD 8F 40 8D 33 90 00
 (2.3790)  can1  18840401   [8]  08 DD 8F 41 8D 33 90 00
 (2.3790)  can1  18C00401   [8]  08 05 30 8B 30 A2 2F 00
 (2.3870)  can1  4100209   [8]  00 00 00 00 00 00 00 00
 (2.3880)  can1  4100208   [8]  00 00 00 00 00 00 00 00
 (2.3960)  can1  8100302   [5]  00 24 0A 00 07
 (2.3960)  can1  8580C02   [8]  00 00 00 00 00 00 00 00
 (2.3970)  can1  89A0C02   [8]  00 00 00 00 00 00 00 00
 (2.3970)  can1  8030C02   [8]  00 00 2A 68 2A 68 92 17
 (2.3970)  can1  4100209   [8]  00 00 00 00 00 00 00 00
 (2.3980)  can1  4100208   [8]  00 00 00 00 00 00 00 00
 (2.4070)  can1  8101201   [8]  00 00 6D 90 10 8D 02 00
 (2.4080)  can1  4100209   [8]  00 00 00 00 00 00 00 00
 (2.4080)  can1  8010C01   [8]  00 00 00 00 00 00 00 00
 (2.4090)  can1  4100208   [8]  00 00 00 00 00 00 00 00
 (2.4160)  can1  89A0C02   [8]  00 00 00 00 00 00 00 00
 (2.4170)  can1  8030C02   [8]  00 00 2A 68 2A 68 92 17
 (2.4180)  can1  8580C02   [8]  00 00 00 00 00 00 00 00
 (2.4190)  can1  4100209   [8]  00 00 00 00 00 00 00 00
 (2.4190)  can1  4100208   [8]  00 00 00 00 00 00 00 00
 (2.4210)  can1  8100302   [5]  00 25 0A 00 07
 (2.4280)  can1  4100209   [8]  00 00 00 00 00 00 00 00
 (2.4280)  can1  4100208   [8]  00 00 00 00 00 00 00 00
 (2.4290)  can1  18800401   [8]  09 28 90 E2 8F D2 8F 00
 (2.4300)  can1  18840401   [8]  09 27 90 E3 8F D2 8F 00
 (2.4300)  can1  18C00401   [8]  09 08 30 A8 2F 1A 30 00
 (2.4360)  can1  89A0C02   [8]  00 00 00 00 00 00 00 00
 (2.4370)  can1  8030C02   [8]  00 00 2A 68 2A 68 92 17
 (2.4370)  can1  8580C02   [8]  00 00 00 00 00 00 00 00
 (2.4380)  can1  4100209   [8]  00 00 00 00 00 00 00 00
 (2.4380)  can1  4100208   [8]  00 00 00 00 00 00 00 00
 (2.4460)  can1  8100302   [5]  00 24 0A 00 07
 (2.4480)  can1  4100209   [8]  00 00 00 00 00 00 00 00
 (2.4480)  can1  4100208   [8]  00 00 00 00 00 00 00 00
 (2.4560)  can1  89A0C02   [8]  00 00 00 00 00 00 00 00
 (2.4560)  can1  8030C02   [8]  00 00 2A 68 2A 68 92 17
 (2.4570)  can1  8580C02   [8]  00 00 00 00 00 00 00 00
 (2.4590)  can1  4100209   [8]  00 00 00 00 00 00 00 00
 (2.4590)  can1  4100208   [8]  00 00 00 00 00 00 00 00
 (2.4680)  can1  4100209   [8]  00 00 00 00 00 00 00 00
 (2.4690)  can1  4100208   [8]  00 00 00 00 00 00 00 00
 (2.4710)  can1  8100302   [5]  00 25 0A 00 07
 (2.4760)  can1  89A0C02   [8]  00 00 00 00 00 00 00 00
 (2.4760)  can1  8030C02   [8]  00 00 2A 68 2A 68 92 17
 (2.4770)  can1  8041001   [8]  37 02 60 3C FD A2 1B 00
 (2.4780)  can1  8580C02   [8]  00 00 00 00 00 00 00 00
 (2.4780)  can1  4100209   [8]  00 00 00 00 00 00 00 00
 (2.4790)  can1  4100208   [8]  00 00 00 00 00 00 00 00
 (2.4800)  can1  18800401   [8]  0A B4 8F C8 8F D4 8F 00
 (2.4800)  can1  18840401   [8]  0A B7 8F C8 8F D5 8F 00
 (2.4810)  can1  18C00401   [8]  0A 50 30 A1 30 6E 30 00
 (2.4880)  can1  4100209   [8]  00 00 00 00 00 00 00 00
 (2.4880)  can1  4100208   [8]  00 00 00 00 00 00 00 00
 (2.4960)  can1  8100302   [5]  00 25 0A 00 07
 (2.4970)  can1  8580C02   [8]  00 00 00 00 00 00 00 00
 (2.4970)  can1  89A0C02   [8]  00 00 00 00 00 00 00 00
 (2.4980)  can1  8030C02   [8]  00 00 2A 68 2A 68 92 17
 (2.4990)  can1  4100209   [8]  00 00 00 00 00 00 00 00
 (2.4990)  can1  4100208   [8]  00 00 00 00 00 00 00 00
 (2.5080)  can1  4100209   [8]  00 00 00 00 00 00 00 00
 (2.5080)  can1  4100208   [8]  00 00 00 00 00 00 00 00
 (2.5090)  can1  8101201   [8]  00 00 70 90 11 8D 00 00
 (2.5090)  can1  8010C01   [8]  00 00 00 00 00 00 00 00
 (2.5160)  can1  89A0C02   [8]  00 00 00 00 00 00 00 00
 (2.5160)  can1  8030C02   [8]  00 00 2A 68 2A 68 92 17
 (2.5170)  can1  8580C02   [8]  00 00 00 00 00 00 00 00
 (2.5190)  can1  4100209   [8]  00 00 00 00 00 00 00 00
 (2.5190)  can1  4100208   [8]  00 00 00 00 00 00 00 00
 (2.5210)  can1  8100302   [5]  00 25 0A 00 07
 (2.5260)  can1  404FF03   [1]  00
 (2.5280)  can1  4100209   [8]  00 00 00 00 00 00 00 00
 (2.5280)  can1  8250C03   [8]  00 00 00 00 00 00 00 00
 (2.5290)  can1  4100208   [8]  00 00 00 00 00 00 00 00
 (2.5300)  can1  8840C03   [8]  34 00 11 00 1D 00 07 00
 (2.5310)  can1  88D0C03   [8]  2D 00 08 00 00 00 00 00
 (2.5310)  can1  18800401   [8]  0B 03 90 01 90 08 90 00
 (2.5310)  can1  18840401   [8]  0B 03 90 01 90 08 90 00
 (2.5320)  can1  18C00401   [8]  0B D5 30 79 30 C4 30 00
 (2.5360)  can1  89A0C02   [8]  00 00 00 00 00 00 00 00
 (2.5360)  can1  8030C02   [8]  00 00 2A 68 2A 68 92 17
 (2.5370)  can1  8580C02   [8]  00 00 00 00 00 00 00 00
 (2.5370)  can1  404FF07   [1]  00
 (2.5380)  can1  4100209   [8]  00 00 00 00 00 00 00 00
 (2.5390)  can1  4100208   [8]  00 00 00 00 00 00 00 00
 (2.5460)  can1  8100302   [5]  00 25 0A 00 07
 (2.5480)  can1  4100209   [8]  00 00 00 00 00 00 00 00
 (2.5480)  can1  4100208   [8]  00 00 00 00 00 00 00 00
 (2.5560)  can1  89A0C02   [8]  00 00 00 00 00 00 00 00
 (2.5560)  can1  8030C02   [8]  00 00 2A 68 2A 68 92 17
 (2.5570)  can1  8580C02   [8]  00 00 00 00 00 00 00 00
 (2.5580)  can1  4100209   [8]  00 00 00 00 00 00 00 00
 (2.5590)  can1  4100208   [8]  00 00 00 00 00 00 00 00
 (2.5680)  can1  4100209   [8]  00 00 00 00 00 00 00 00
 (2.5680)  can1  4100208   [8]  00 00 00 00 00 00 00 00
 (2.5710)  can1  8100302   [5]  00 25 0A 00 07
 (2.5760)  can1  89A0C02   [8]  00 00 00 00 00 00 00 00
 (2.5770)  can1  404FF01   [1]  00
 (2.5770)  can1  8030C02   [8]  00 00 2A 68 2A 68 92 17
 (2.5780)  can1  8041001   [8]  37 02 60 3C FD A2 1B 00
 (2.5780)  can1  8580C02   [8]  00 00 00 00 00 00 00 00
 (2.5790)  can1  4100209   [8]  00 00 00 00 00 00 00 00
 (2.5800)  can1  4100208   [8]  00 00 00 00 00 00 00 00
 (2.5800)  can1  8120C01   [8]  3F 00 00 00 00 00 00 00
 (2.5810)  can1  80F1201   [4]  20 12 00 00
 (2.5810)  can1  18800401   [8]  0C 00 90 E7 8F E4 8F 00
 (2.5820)  can1  18840401   [8]  0C 00 90 E6 8F E4 8F 00
 (2.5820)  can1  18C00401   [8]  0C 52 30 7F 30 09 30 00
 (2.5880)  can1  4100209   [8]  00 00 00 00 00 00 00 00
 (2.5880)  can1  4100208   [8]  00 00 00 00 00 00 00 00
 (2.5960)  can1  404FF02   [1]  00
 (2.5970)  can1  8100302   [5]  00 24 0A 00 07
 (2.5970)  can1  8580C02   [8]  00 00 00 00 00 00 00 00
 (2.5970)  can1  89A0C02   [8]  00 00 00 00 00 00 00 00
 (2.5980)  can1  8030C02   [8]  00 00 2A 68 2A 68 92 17
 (2.5990)  can1  4100209   [8]  00 00 00 00 00 00 00 00
 (2.5990)  can1  4100208   [8]  00 00 00 00 00 00 00 00
 (2.6080)  can1  4100209   [8]  00 00 00 00 00 00 00 00
 (2.6080)  can1  4100208   [8]  00 00 00 00 00 00 00 00
 (2.6270)  can1  8101201   [8]  00 00 6F 90 11 8D 03 00
 (2.6280)  can1  8010C01   [8]  00 00 00 00 00 00 00 00
 (2.6290)  can1  89A0C02   [8]  00 00 00 00 00 00 00 00
 (2.6300)  can1  8030C02   [8]  00 00 2A 68 2A 68 92 17
 (2.6300)  can1  8580C02   [8]  00 00 00 00 00 00 00 00
 (2.6310)  can1  4100209   [8]  00 00 00 00 00 00 00 00
 (2.6310)  can1  4100208   [8]  00 00 00 00 00 00 00 00
 (2.6320)  can1  8100302   [5]  00 24 0A 00 07
 (2.6320)  can1  18101203   [4]  CC 2C 82 01
 (2.6330)  can1  4100209   [8]  00 00 00 00 00 00 00 00
 (2.6330)  can1  4100208   [8]  00 00 00 00 00 00 00 00
 (2.6340)  can1  18800401   [8]  0D EF 8F 17 90 07 90 00
 (2.6340)  can1  18840401   [8]  0D EF 8F 17 90 07 90 00
 (2.6350)  can1  18C00401   [8]  0D 2A 30 46 2F 47 2F 00
 (2.6370)  can1  89A0C02   [8]  00 00 00 00 00 00 00 00
 (2.6370)  can1  8030C02   [8]  00 00 2A 68 2A 68 92 17
 (2.6380)  can1  8580C02   [8]  00 00 00 00 00 00 00 00
 (2.6390)  can1  4100209   [8]  00 00 00 00 00 00 00 00
 (2.6390)  can1  4100208   [8]  00 00 00 00 00 00 00 00
 (2.6460)  can1  8100302   [5]  00 24 0A 00 07
 (2.6480)  can1  4100209   [8]  00 00 00 00 00 00 00 00
 (2.6490)  can1  4100208   [8]  00 00 00 00 00 00 00 00
 (2.6560)  can1  89A0C02   [8]  00 00 00 00 00 00 00 00
 (2.6560)  can1  8030C02   [8]  00 00 2A 68 2A 68 92 17
 (2.6570)  can1  8580C02   [8]  00 00 00 00 00 00 00 00
 (2.6580)  can1  4100209   [8]  00 00 00 00 00 00 00 00
 (2.6580)  can1  4100208   [8]  00 00 00 00 00 00 00 00
 (2.6680)  can1  4100209   [8]  00 00 00 00 00 00 00 00
 (2.6680)  can1  4100208   [8]  00 00 00 00 00 00 00 00
 (2.6710)  can1  8100302   [5]  00 25 0A 00 07
 (2.6760)  can1  89A0C02   [8]  00 00 00 00 00 00 00 00
 (2.6760)  can1  8030C02   [8]  00 00 2A 68 2A 68 92 17
 (2.6770)  can1  8041001   [8]  37 02 60 3C FD A2 1B 00
 (2.6770)  can1  8580C02   [8]  00 00 00 00 00 00 00 00
 (2.6780)  can1  4100209   [8]  00 00 00 00 00 00 00 00
 (2.6790)  can1  4100208   [8]  00 00 00 00 00 00 00 00
 (2.6790)  can1  18800401   [8]  0E CA 8F C0 8F A6 8F 00
 (2.6800)  can1  18840401   [8]  0E C9 8F BF 8F A5 8F 00
 (2.6810)  can1  18C00401   [8]  0E 5B 2F F0 2F 18 30 00
 (2.6880)  can1  4100209   [8]  00 00 00 00 00 00 00 00
 (2.6880)  can1  4100208   [8]  00 00 00 00 00 00 00 00
 (2.6960)  can1  8100302   [5]  00 24 0A 00 07
 (2.6960)  can1  8580C02   [8]  00 00 00 00 00 00 00 00
 (2.6970)  can1  89A0C02   [8]  00 00 00 00 00 00 00 00
 (2.6970)  can1  8030C02   [8]  00 00 2A 68 2A 68 92 17
 (2.6980)  can1  4100209   [8]  00 00 00 00 00 00 00 00
 (2.6980)  can1  4100208   [8]  00 00 00 00 00 00 00 00
 (2.7080)  can1  4100209   [8]  00 00 00 00 00 00 00 00
 (2.7090)  can1  4100208   [8]  00 00 00 00 00 00 00 00
 (2.7110)  can1  8101201   [8]  00 00 70 90 12 8D 00 00
 (2.7110)  can1  8010C01   [8]  00 00 00 00 00 00 00 00
 (2.7160)  can1  89A0C02   [8]  00 00 00 00 00 00 00 00
 (2.7160)  can1  8030C02   [8]  00 00 2A 68 2A 68 92 17
 (2.7170)  can1  8580C02   [8]  00 00 00 00 00 00 00 00
 (2.7180)  can1  4100209   [8]  00 00 00 00 00 00 00 00
 (2.7180)  can1  4100208   [8]  00 00 00 00 00 00 00 00
 (2.7210)  can1  8100302   [5]  00 25 0A 00 07
 (2.7280)  can1  4100209   [8]  00 00 00 00 00 00 00 00
 (2.7290)  can1  4100208   [8]  00 00 00 00 00 00 00 00
 (2.7290)  can1  18800401   [8]  0F 61 8F C7 8F F9 8F 00
 (2.7300)  can1  18840401   [8]  0F 61 8F C7 8F F9 8F 00
 (2.7300)  can1  18C00401   [8]  0F 6F 30 5B 30 B4 30 00
 (2.7360)  can1  89A0C02   [8]  00 00 00 00 00 00 00 00
 (2.7370)  can1  8030C02   [8]  00 00 2A 68 2A 68 92 17
 (2.7370)  can1  8580C02   [8]  00 00 00 00 00 00 00 00
 (2.7380)  can1  4100209   [8]  00 00 00 00 00 00 00 00
 (2.7380)  can1  4100208   [8]  00 00 00 00 00 00 00 00
 (2.7460)  can1  8100302   [5]  00 25 0A 00 07
 (2.7480)  can1  4100209   [8]  00 00 00 00 00 00 00 00
 (2.7480)  can1  4100208   [8]  00 00 00 00 00 00 00 00
 (2.7560)  can1  89A0C02   [8]  00 00 00 00 00 00 00 00
 (2.7570)  can1  8030C02   [8]  00 00 2A 68 2A 68 92 17
 (2.7570)  can1  8580C02   [8]  00 00 00 00 00 00 00 00
 (2.7590)  can1  4100209   [8]  00 00 00 00 00 00 00 00
 (2.7590)  can1  4100208   [8]  00 00 00 00 00 00 00 00
 (2.7680)  can1  4100209   [8]  00 00 00 00 00 00 00 00
 (2.7690)  can1  4100208   [8]  00 00 00 00 00 00 00 00
 (2.7710)  can1  8100302   [5]  00 22 0A 00 07
 (2.7760)  can1  89A0C02   [8]  00 00 00 00 00 00 00 00
 (2.7760)  can1  8030C02   [8]  00 00 2A 68 2A 68 92 17
 (2.7770)  can1  8041001   [8]  37 02 60 3C FD A2 1B 00
 (2.7780)  can1  8580C02   [8]  00 00 00 00 00 00 00 00
 (2.7780)  can1  4100209   [8]  00 00 00 00 00 00 00 00
 (2.7790)  can1  4100208   [8]  00 00 00 00 00 00 00 00
 (2.7800)  can1  18800401   [8]  10 ED 8F F1 8F E6 8F 00
 (2.7800)  can1  18840401   [8]  10 EE 8F F0 8F E7 8F 00
 (2.7810)  can1  18C00401   [8]  10 69 30 BF 30 1E 30 00
 (2.7880)  can1  4100209   [8]  00 00 00 00 00 00 00 00
 (2.7890)  can1  4100208   [8]  00 00 00 00 00 00 00 00
 (2.7960)  can1  8100302   [5]  00 25 0A 00 07
 (2.7970)  can1  8580C02   [8]  00 00 00 00 00 00 00 00
 (2.7980)  can1  89A0C02   [8]  00 00 00 00 00 00 00 00
 (2.7980)  can1  8030C02   [8]  00 00 2A 68 2A 68 92 17
 (2.7980)  can1  4100209   [8]  00 00 00 00 00 00 00 00
 (2.7990)  can1  4100208   [8]  00 00 00 00 00 00 00 00
 (2.8080)  can1  4100209   [8]  00 00 00 00 00 00 00 00
 (2.8080)  can1  4100208   [8]  00 00 00 00 00 00 00 00
 (2.8120)  can1  8101201   [8]  00 00 6D 90 11 8D 01 00
 (2.8120)  can1  8010C01   [8]  00 00 00 00 00 00 00 00
 (2.8160)  can1  89A0C02   [8]  00 00 00 00 00 00 00 00
 (2.8170)  can1  8030C02   [8]  00 00 2A 68 2A 68 92 17
 (2.8170)  can1  8580C02   [8]  00 00 00 00 00 00 00 00
 (2.8190)  can1  4100209   [8]  00 00 00 00 00 00 00 00
 (2.8190)  can1  4100208   [8]  00 00 00 00 00 00 00 00
 (2.8210)  can1  8100302   [5]  00 25 0A 00 07
 (2.8280)  can1  4100209   [8]  00 00 00 00 00 00 00 00
 (2.8290)  can1  4100208   [8]  00 00 00 00 00 00 00 00
 (2.8290)  can1  18800401   [8]  11 D2 8F CA 8F D9 8F 00
 (2.8300)  can1  18840401   [8]  11 D2 8F C9 8F D8 8F 00
 (2.8300)  can1  18C00401   [8]  11 97 30 D3 2F 52 30 00
 (2.8360)  can1  89A0C02   [8]  00 00 00 00 00 00 00 00
 (2.8360)  can1  8030C02   [8]  00 00 2A 68 2A 68 92 17
 (2.8370)  can1  8580C02   [8]  00 00 00 00 00 00 00 00
 (2.8380)  can1  4100209   [8]  00 00 00 00 00 00 00 00
 (2.8380)  can1  4100208   [8]  00 00 00 00 00 00 00 00
 (2.8460)  can1  8100302   [5]  00 25 0A 00 07
 (2.8480)  can1  4100209   [8]  00 00 00 00 00 00 00 00
 (2.8480)  can1  4100208   [8]  00 00 00 00 00 00 00 00
 (2.8560)  can1  89A0C02   [8]  00 00 00 00 00 00 00 00
 (2.8570)  can1  8030C02   [8]  00 00 2A 68 2A 68 92 17
 (2.8570)  can1  8580C02   [8]  00 00 00 00 00 00 00 00
 (2.8580)  can1  4100209   [8]  00 00 00 00 00 00 00 00
 (2.8580)  can1  4100208   [8]  00 00 00 00 00 00 00 00
 (2.8680)  can1  4100209   [8]  00 00 00 00 00 00 00 00
 (2.8680)  can1  4100208   [8]  00 00 00 00 00 00 00 00
 (2.8710)  can1  8100302   [5]  00 24 0A 00 07
 (2.8760)  can1  89A0C02   [8]  00 00 00 00 00 00 00 00
 (2.8760)  can1  8030C02   [8]  00 00 2A 68 2A 68 92 17
 (2.8770)  can1  8041001   [8]  37 02 60 3C FD A2 1B 00
 (2.8770)  can1  8580C02   [8]  00 00 00 00 00 00 00 00
 (2.8780)  can1  4100209   [8]  00 00 00 00 00 00 00 00
 (2.8780)  can1  4100208   [8]  00 00 00 00 00 00 00 00
 (2.8790)  can1  18800401   [8]  12 12 90 06 90 CC 8F 00
 (2.8790)  can1  18840401   [8]  12 12 90 05 90 CB 8F 00
 (2.8800)  can1  18C00401   [8]  12 B5 2F 39 2F 0A 2F 00
 (2.8880)  can1  4100209   [8]  00 00 00 00 00 00 00 00
 (2.8890)  can1  4100208   [8]  00 00 00 00 00 00 00 00
 (2.8960)  can1  8100302   [5]  00 25 0A 00 07
 (2.8960)  can1  8580C02   [8]  00 00 00 00 00 00 00 00
 (2.8970)  can1  89A0C02   [8]  00 00 00 00 00 00 00 00
 (2.8980)  can1  8030C02   [8]  00 00 2A 68 2A 68 92 17
 (2.8990)  can1  4100209   [8]  00 00 00 00 00 00 00 00
 (2.8990)  can1  4100208   [8]  00 00 00 00 00 00 00 00
 (2.9080)  can1  4100209   [8]  00 00 00 00 00 00 00 00
 (2.9080)  can1  4100208   [8]  00 00 00 00 00 00 00 00
 (2.9130)  can1  8101201   [8]  00 00 70 90 12 8D 02 00
 (2.9140)  can1  8010C01   [8]  00 00 00 00 00 00 00 00
 (2.9160)  can1  89A0C02   [8]  00 00 00 00 00 00 00 00
 (2.9170)  can1  8030C02   [8]  00 00 2A 68 2A 68 92 17
 (2.9170)  can1  8580C02   [8]  00 00 00 00 00 00 00 00
 (2.9180)  can1  4100209   [8]  00 00 00 00 00 00 00 00
 (2.9180)  can1  4100208   [8]  00 00 00 00 00 00 00 00
 (2.9210)  can1  8100302   [5]  00 29 0A 00 07
 (2.9280)  can1  4100209   [8]  00 00 00 00 00 00 00 00
 (2.9280)  can1  4100208   [8]  00 00 00 00 00 00 00 00
 (2.9290)  can1  18800401   [8]  13 C6 8F 99 8F C2 8F 00
 (2.9300)  can1  18840401   [8]  13 C6 8F AC 8F C2 8F 00
 (2.9300)  can1  18C00401   [8]  13 78 2F BC 2F 09 30 00
 (2.9360)  can1  89A0C02   [8]  00 00 00 00 00 00 00 00
 (2.9360)  can1  8030C02   [8]  00 00 2A 68 2A 68 92 17
 (2.9370)  can1  8580C02   [8]  00 00 00 00 00 00 00 00
 (2.9380)  can1  4100209   [8]  00 00 00 00 00 00 00 00
 (2.9390)  can1  4100208   [8]  00 00 00 00 00 00 00 00
 (2.9460)  can1  8100302   [5]  00 24 0A 00 07
 (2.9480)  can1  4100209   [8]  00 00 00 00 00 00 00 00
 (2.9480)  can1  4100208   [8]  00 00 00 00 00 00 00 00
 (2.9560)  can1  89A0C02   [8]  00 00 00 00 00 00 00 00
 (2.9560)  can1  8030C02   [8]  00 00 2A 68 2A 68 92 17
 (2.9570)  can1  8580C02   [8]  00 00 00 00 00 00 00 00
 (2.9580)  can1  4100209   [8]  00 00 00 00 00 00 00 00
 (2.9580)  can1  4100208   [8]  00 00 00 00 00 00 00 00
 (2.9680)  can1  4100209   [8]  00 00 00 00 00 00 00 00
 (2.9680)  can1  4100208   [8]  00 00 00 00 00 00 00 00
 (2.9710)  can1  8100302   [5]  00 25 0A 00 07
 (2.9760)  can1  8041001   [8]  37 02 60 3C FD A2 1B 00
 (2.9770)  can1  8030C02   [8]  00 00 2A 68 2A 68 92 17
 (2.9770)  can1  8580C02   [8]  00 00 00 00 00 00 00 00
 (2.9780)  can1  89A0C02   [8]  00 00 00 00 00 00 00 00
 (2.9790)  can1  4100209   [8]  00 00 00 00 00 00 00 00
 (2.9790)  can1  4100208   [8]  00 00 00 00 00 00 00 00
 (2.9800)  can1  18800401   [8]  14 D2 8F F8 8F F0 8F 00
 (2.9800)  can1  18840401   [8]  14 D0 8F F8 8F EE 8F 00
 (2.9810)  can1  18C00401   [8]  14 E1 2F 1E 30 E2 2F 00
 (2.9880)  can1  4100209   [8]  00 00 00 00 00 00 00 00
 (2.9880)  can1  4100208   [8]  00 00 00 00 00 00 00 00
 (2.9960)  can1  8100302   [5]  00 24 0A 00 07
 (2.9960)  can1  8580C02   [8]  00 00 00 00 00 00 00 00
 (2.9970)  can1  89A0C02   [8]  00 00 00 00 00 00 00 00
 (2.9970)  can1  8030C02   [8]  00 00 2A 68 2A 68 92 17
 (2.9980)  can1  4100209   [8]  00 00 00 00 00 00 00 00
 (2.9990)  can1  4100208   [8]  00 00 00 00 00 00 00 00
 (3.0080)  can1  4100209   [8]  00 00 00 00 00 00 00 00
 (3.0080)  can1  4100208   [8]  00 00 00 00 00 00 00 00
 (3.0140)  can1  8101201   [8]  00 00 6F 90 11 8D 00 00
 (3.0140)  can1  8010C01   [8]  00 00 00 00 00 00 00 00
 (3.0160)  can1  89A0C02   [8]  00 00 00 00 00 00 00 00
 (3.0160)  can1  8030C02   [8]  00 00 2A 68 2A 68 92 17
 (3.0170)  can1  8580C02   [8]  00 00 00 00 00 00 00 00
 (3.0190)  can1  4100209   [8]  00 00 00 00 00 00 00 00
 (3.0190)  can1  4100208   [8]  00 00 00 00 00 00 00 00
 (3.0210)  can1  8100302   [5]  00 24 0A 00 07
 (3.0280)  can1  4100209   [8]  00 00 00 00 00 00 00 00
 (3.0290)  can1  4100208   [8]  00 00 00 00 00 00 00 00
 (3.0290)  can1  18800401   [8]  15 07 90 F7 8F DE 8F 00
 (3.0300)  can1  18840401   [8]  15 06 90 F6 8F DE 8F 00
 (3.0300)  can1  18C00401   [8]  15 2E 30 A5 2F 07 30 00
 (3.0360)  can1  89A0C02   [8]  00 00 00 00 00 00 00 00
 (3.0360)  can1  8030C02   [8]  00 00 2A 68 2A 68 92 17
 (3.0370)  can1  8580C02   [8]  00 00 00 00 00 00 00 00
 (3.0380)  can1  4100209   [8]  00 00 00 00 00 00 00 00
 (3.0380)  can1  4100208   [8]  00 00 00 00 00 00 00 00
 (3.0460)  can1  8100302   [5]  00 24 0A 00 07
 (3.0480)  can1  4100209   [8]  00 00 00 00 00 00 00 00
 (3.0480)  can1  4100208   [8]  00 00 00 00 00 00 00 00
 (3.0560)  can1  89A0C02   [8]  00 00 00 00 00 00 00 00
 (3.0560)  can1  8030C02   [8]  00 00 2A 68 2A 68 92 17
 (3.0560)  can1  8580C02   [8]  00 00 00 00 00 00 00 00
 (3.0580)  can1  4100209   [8]  00 00 00 00 00 00 00 00
 (3.0590)  can1  4100208   [8]  00 00 00 00 00 00 00 00
 (3.0680)  can1  4100209   [8]  00 00 00 00 00 00 00 00
 (3.0680)  can1  4100208   [8]  00 00 00 00 00 00 00 00
 (3.0710)  can1  8100302   [5]  00 24 0A 00 07
 (3.0760)  can1  89A0C02   [8]  00 00 00 00 00 00 00 00
 (3.0770)  can1  8030C02   [8]  00 00 2A 68 2A 68 92 17
 (3.0770)  can1  8041001   [8]  37 02 60 3C FD A2 1B 00
 (3.0770)  can1  8580C02   [8]  00 00 00 00 00 00 00 00
 (3.0780)  can1  4100209   [8]  00 00 00 00 00 00 00 00
 (3.0780)  can1  4100208   [8]  00 00 00 00 00 00 00 00
 (3.0790)  can1  18800401   [8]  16 D7 8F ED 8F 15 90 00
 (3.0790)  can1  18840401   [8]  16 D6 8F EC 8F 15 90 00
 (3.0800)  can1  18C00401   [8]  16 8F 2F BB 2F 0E 2F 00
 (3.0880)  can1  4100209   [8]  00 00 00 00 00 00 00 00
 (3.0880)  can1  4100208   [8]  00 00 00 00 00 00 00 00
 (3.0960)  can1  8100302   [5]  00 24 0A 00 07
 (3.0960)  can1  8580C02   [8]  00 00 00 00 00 00 00 00
 (3.0970)  can1  89A0C02   [8]  00 00 00 00 00 00 00 00
 (3.0980)  can1  8030C02   [8]  00 00 2A 68 2A 68 92 17
 (3.0990)  can1  4100209   [8]  00 00 00 00 00 00 00 00
 (3.0990)  can1  4100208   [8]  00 00 00 00 00 00 00 00
 (3.1080)  can1  4100209   [8]  00 00 00 00 00 00 00 00
 (3.1080)  can1  4100208   [8]  00 00 00 00 00 00 00 00
 (3.1150)  can1  8101201   [8]  00 00 70 90 12 8D 02 00
 (3.1150)  can1  8010C01   [8]  00 00 00 00 00 00 00 00
 (3.1170)  can1  89A0C02   [8]  00 00 00 00 00 00 00 00
 (3.1180)  can1  8030C02   [8]  00 00 2A 68 2A 68 92 17
 (3.1180)  can1  8580C02   [8]  00 00 00 00 00 00 00 00
 (3.1190)  can1  4100209   [8]  00 00 00 00 00 00 00 00
 (3.1200)  can1  4100208   [8]  00 00 00 00 00 00 00 00
 (3.1210)  can1  8100302   [5]  00 24 0A 00 07
 (3.1260)  can1  18101203   [4]  AE 2C 86 01
 (3.1280)  can1  4100209   [8]  00 00 00 00 00 00 00 00
 (3.1280)  can1  4100208   [8]  00 00 00 00 00 00 00 00
 (3.1290)  can1  18800401   [8]  17 0B 90 00 00 00 00 00
 (3.1300)  can1  18840401   [8]  17 0A 90 00 00 00 00 00
 (3.1300)  can1  18C00401   [8]  17 02 2F 10 27 10 27 00
 (3.1360)  can1  89A0C02   [8]  00 00 00 00 00 00 00 00
 (3.1360)  can1  8030C02   [8]  00 00 2A 68 2A 68 92 17
 (3.1370)  can1  8580C02   [8]  00 00 00 00 00 00 00 00
 (3.1390)  can1  4100209   [8]  00 00 00 00 00 00 00 00
 (3.1400)  can1  4100208   [8]  00 00 00 00 00 00 00 00
 (3.1460)  can1  8100302   [5]  00 24 0A 00 07
 (3.1480)  can1  4100209   [8]  00 00 00 00 00 00 00 00
 (3.1480)  can1  4100208   [8]  00 00 00 00 00 00 00 00
 (3.1560)  can1  89A0C02   [8]  00 00 00 00 00 00 00 00
 (3.1570)  can1  8030C02   [8]  00 00 2A 68 2A 68 92 17
 (3.1570)  can1  8580C02   [8]  00 00 00 00 00 00 00 00
 (3.1590)  can1  4100209   [8]  00 00 00 00 00 00 00 00
 (3.1590)  can1  4100208   [8]  00 00 00 00 00 00 00 00
 (3.1680)  can1  4100209   [8]  00 00 00 00 00 00 00 00
 (3.1680)  can1  4100208   [8]  00 00 00 00 00 00 00 00
 (3.1710)  can1  8100302   [5]  00 24 0A 00 07
 (3.1760)  can1  89A0C02   [8]  00 00 00 00 00 00 00 00
 (3.1760)  can1  8030C02   [8]  00 00 2A 68 2A 68 92 17
 (3.1770)  can1  8041001   [8]  37 02 60 3C FD A2 1B 00
 (3.1770)  can1  8580C02   [8]  00 00 00 00 00 00 00 00
 (3.1780)  can1  4100209   [8]  00 00 00 00 00 00 00 00
 (3.1790)  can1  4100208   [8]  00 00 00 00 00 00 00 00
 (3.1790)  can1  18800401   [8]  00 70 90 82 8F 68 8F 00
 (3.1800)  can1  18840401   [8]  00 6F 90 82 8F 67 8F 00
 (3.1800)  can1  18C00401   [8]  00 AD 2F 25 2F 19 30 00
 (3.1880)  can1  4100209   [8]  00 00 00 00 00 00 00 00
 (3.1880)  can1  4100208   [8]  00 00 00 00 00 00 00 00
 (3.1960)  can1  8100302   [5]  00 25 0A 00 07
 (3.1970)  can1  8580C02   [8]  00 00 00 00 00 00 00 00
 (3.1970)  can1  89A0C02   [8]  00 00 00 00 00 00 00 00
 (3.1970)  can1  8030C02   [8]  00 00 2A 68 2A 68 92 17
 (3.1980)  can1  4100209   [8]  00 00 00 00 00 00 00 00
 (3.1990)  can1  4100208   [8]  00 00 00 00 00 00 00 00
 (3.2080)  can1  4100209   [8]  00 00 00 00 00 00 00 00
 (3.2080)  can1  4100208   [8]  00 00 00 00 00 00 00 00
 (3.2170)  can1  8101201   [8]  00 00 70 90 12 8D 02 00
 (3.2180)  can1  8010C01   [8]  00 00 00 00 00 00 00 00
 (3.2180)  can1  8030C02   [8]  00 00 2A 68 2A 68 92 17
 (3.2190)  can1  8580C02   [8]  00 00 00 00 00 00 00 00
 (3.2190)  can1  89A0C02   [8]  00 00 00 00 00 00 00 00
 (3.2190)  can1  4100209   [8]  00 00 00 00 00 00 00 00
 (3.2200)  can1  4100208   [8]  00 00 00 00 00 00 00 00
 (3.2220)  can1  8100302   [5]  00 25 0A 00 07
 (3.2280)  can1  4100209   [8]  00 00 00 00 00 00 00 00
 (3.2280)  can1  4100208   [8]  00 00 00 00 00 00 00 00
 (3.2280)  can1  18800401   [8]  01 73 8F 89 8F 81 8F 00
 (3.2290)  can1  18840401   [8]  01 73 8F 88 8F 80 8F 00
 (3.2290)  can1  18C00401   [8]  01 C6 2F 43 30 EA 2F 00
 (3.2360)  can1  89A0C02   [8]  00 00 00 00 00 00 00 00
 (3.2370)  can1  8030C02   [8]  00 00 2A 68 2A 68 92 17
 (3.2370)  can1  8580C02   [8]  00 00 00 00 00 00 00 00
 (3.2380)  can1  4100209   [8]  00 00 00 00 00 00 00 00
 (3.2380)  can1  4100208   [8]  00 00 00 00 00 00 00 00
 (3.2460)  can1  8100302   [5]  00 24 0A 00 07
 (3.2480)  can1  4100209   [8]  00 00 00 00 00 00 00 00
 (3.2490)  can1  4100208   [8]  00 00 00 00 00 00 00 00
 (3.2560)  can1  89A0C02   [8]  00 00 00 00 00 00 00 00
 (3.2560)  can1  8030C02   [8]  00 00 2A 68 2A 68 92 17
 (3.2560)  can1  8580C02   [8]  00 00 00 00 00 00 00 00
 (3.2590)  can1  4100209   [8]  00 00 00 00 00 00 00 00
 (3.2600)  can1  4100208   [8]  00 00 00 00 00 00 00 00
 (3.2680)  can1  4100209   [8]  00 00 00 00 00 00 00 00
 (3.2680)  can1  4100208   [8]  00 00 00 00 00 00 00 00
 (3.2710)  can1  8100302   [5]  00 25 0A 00 07
 (3.2760)  can1  89A0C02   [8]  00 00 00 00 00 00 00 00
 (3.2770)  can1  8030C02   [8]  00 00 2A 68 2A 68 92 17
 (3.2770)  can1  8041001   [8]  37 02 60 3C FD A2 1B 00
 (3.2780)  can1  8580C02   [8]  00 00 00 00 00 00 00 00
 (3.2780)  can1  4100209   [8]  00 00 00 00 00 00 00 00
 (3.2790)  can1  4100208   [8]  00 00 00 00 00 00 00 00
 (3.2790)  can1  18800401   [8]  02 A4 8F 0A 90 F5 8F 00
 (3.2800)  can1  18840401   [8]  02 A3 8F 0A 90 F5 8F 00
 (3.2800)  can1  18C00401   [8]  02 1F 30 E1 2F 01 30 00
 (3.2880)  can1  4100209   [8]  00 00 00 00 00 00 00 00
 (3.2890)  can1  4100208   [8]  00 00 00 00 00 00 00 00
 (3.2960)  can1  8100302   [5]  00 24 0A 00 07
 (3.2960)  can1  8580C02   [8]  00 00 00 00 00 00 00 00
 (3.2970)  can1  89A0C02   [8]  00 00 00 00 00 00 00 00
 (3.2980)  can1  8030C02   [8]  00 00 2A 68 2A 68 92 17
 (3.2980)  can1  4100209   [8]  00 00 00 00 00 00 00 00
 (3.2990)  can1  4100208   [8]  00 00 00 00 00 00 00 00
 (3.3080)  can1  4100209   [8]  00 00 00 00 00 00 00 00
 (3.3090)  can1  4100208   [8]  00 00 00 00 00 00 00 00
 (3.3160)  can1  89A0C02   [8]  00 00 00 00 00 00 00 00
 (3.3160)  can1  8030C02   [8]  00 00 2A 68 2A 68 92 17
 (3.3170)  can1  8010C01   [8]  00 00 00 00 00 00 00 00
 (3.3170)  can1  8101201   [8]  00 00 71 90 13 8D 01 00
 (3.3180)  can1  8580C02   [8]  00 00 00 00 00 00 00 00
 (3.3190)  can1  4100209   [8]  00 00 00 00 00 00 00 00
 (3.3190)  can1  4100208   [8]  00 00 00 00 00 00 00 00
 (3.3210)  can1  8100302   [5]  00 24 0A 00 07
 (3.3280)  can1  4100209   [8]  00 00 00 00 00 00 00 00
 (3.3280)  can1  4100208   [8]  00 00 00 00 00 00 00 00
 (3.3290)  can1  18800401   [8]  03 E5 8F D9 8F EE 8F 00
 (3.3300)  can1  18840401   [8]  03 E5 8F D8 8F ED 8F 00
 (3.3300)  can1  18C00401   [8]  03 D1 2F CC 2F 90 2F 00
 (3.3360)  can1  89A0C02   [8]  00 00 00 00 00 00 00 00
 (3.3370)  can1  8030C02   [8]  00 00 2A 68 2A 68 92 17
 (3.3370)  can1  8580C02   [8]  00 00 00 00 00 00 00 00
 (3.3390)  can1  4100209   [8]  00 00 00 00 00 00 00 00
 (3.3390)  can1  4100208   [8]  00 00 00 00 00 00 00 00
 (3.3460)  can1  8100302   [5]  00 24 0A 00 07
 (3.3480)  can1  4100209   [8]  00 00 00 00 00 00 00 00
 (3.3480)  can1  4100208   [8]  00 00 00 00 00 00 00 00
 (3.3560)  can1  89A0C02   [8]  00 00 00 00 00 00 00 00
 (3.3560)  can1  8030C02   [8]  00 00 2A 68 2A 68 92 17
 (3.3570)  can1  8580C02   [8]  00 00 00 00 00 00 00 00
 (3.3580)  can1  4100209   [8]  00 00 00 00 00 00 00 00
 (3.3580)  can1  4100208   [8]  00 00 00 00 00 00 00 00
 (3.3680)  can1  4100209   [8]  00 00 00 00 00 00 00 00
 (3.3690)  can1  4100208   [8]  00 00 00 00 00 00 00 00
 (3.3710)  can1  8100302   [5]  00 25 0A 00 07
 (3.3760)  can1  89A0C02   [8]  00 00 00 00 00 00 00 00
 (3.3760)  can1  8030C02   [8]  00 00 2A 68 2A 68 92 17
 (3.3770)  can1  8041001   [8]  37 02 60 3C FD A2 1B 00
 (3.3770)  can1  8580C02   [8]  00 00 00 00 00 00 00 00
 (3.3780)  can1  4100209   [8]  00 00 00 00 00 00 00 00
 (3.3790)  can1  4100208   [8]  00 00 00 00 00 00 00 00
 (3.3790)  can1  18800401   [8]  04 0D 90 FE 8F 0F 8D 00
 (3.3800)  can1  18840401   [8]  04 0D 90 FE 8F 11 8D 00
 (3.3800)  can1  18C00401   [8]  04 F9 2E DD 2E 0B 30 00
 (3.3880)  can1  4100209   [8]  00 00 00 00 00 00 00 00
 (3.3880)  can1  4100208   [8]  00 00 00 00 00 00 00 00
 (3.3960)  can1  8100302   [5]  00 25 0A 00 07
 (3.3970)  can1  8580C02   [8]  00 00 00 00 00 00 00 00
 (3.3970)  can1  89A0C02   [8]  00 00 00 00 00 00 00 00
 (3.3980)  can1  8030C02   [8]  00 00 2A 68 2A 68 92 17
 (3.3980)  can1  4100209   [8]  00 00 00 00 00 00 00 00
 (3.3980)  can1  4100208   [8]  00 00 00 00 00 00 00 00
 (3.4080)  can1  4100209   [8]  00 00 00 00 00 00 00 00
 (3.4090)  can1  4100208   [8]  00 00 00 00 00 00 00 00
 (3.4160)  can1  89A0C02   [8]  00 00 00 00 00 00 00 00
 (3.4170)  can1  8030C02   [8]  00 00 2A 68 2A 68 92 17
 (3.4180)  can1  8580C02   [8]  00 00 00 00 00 00 00 00
 (3.4190)  can1  8101201   [8]  00 00 6C 90 11 8D 00 00
 (3.4190)  can1  8010C01   [8]  00 00 00 00 00 00 00 00
 (3.4200)  can1  4100209   [8]  00 00 00 00 00 00 00 00
 (3.4200)  can1  4100208   [8]  00 00 00 00 00 00 00 00
 (3.4210)  can1  8100302   [5]  00 25 0A 00 07
 (3.4280)  can1  4100209   [8]  00 00 00 00 00 00 00 00
 (3.4290)  can1  4100208   [8]  00 00 00 00 00 00 00 00
 (3.4290)  can1  18800401   [8]  05 DB 8F CA 8F D2 8F 00
 (3.4300)  can1  18840401   [8]  05 DB 8F CA 8F D2 8F 00
 (3.4310)  can1  18C00401   [8]  05 FC 2F 57 30 71 30 00
 (3.4360)  can1  89A0C02   [8]  00 00 00 00 00 00 00 00
 (3.4360)  can1  8030C02   [8]  00 00 2A 68 2A 68 92 17
 (3.4370)  can1  8580C02   [8]  00 00 00 00 00 00 00 00
 (3.4380)  can1  4100209   [8]  00 00 00 00 00 00 00 00
 (3.4380)  can1  4100208   [8]  00 00 00 00 00 00 00 00
 (3.4460)  can1  8100302   [5]  00 25 0A 00 07
 (3.4480)  can1  4100209   [8]  00 00 00 00 00 00 00 00
 (3.4480)  can1  4100208   [8]  00 00 00 00 00 00 00 00
 (3.4560)  can1  89A0C02   [8]  00 00 00 00 00 00 00 00
 (3.4560)  can1  8030C02   [8]  00 00 2A 68 2A 68 92 17
 (3.4570)  can1  8580C02   [8]  00 00 00 00 00 00 00 00
 (3.4590)  can1  4100209   [8]  00 00 00 00 00 00 00 00
 (3.4590)  can1  4100208   [8]  00 00 00 00 00 00 00 00
 (3.4680)  can1  4100209   [8]  00 00 00 00 00 00 00 00
 (3.4690)  can1  4100208   [8]  00 00 00 00 00 00 00 00
 (3.4710)  can1  8100302   [5]  00 25 0A 00 07
 (3.4760)  can1  89A0C02   [8]  00 00 00 00 00 00 00 00
 (3.4760)  can1  8030C02   [8]  00 00 2A 68 2A 68 92 17
 (3.4770)  can1  8041001   [8]  37 02 60 3C FD A2 1B 00
 (3.4780)  can1  8580C02   [8]  00 00 00 00 00 00 00 00
 (3.4790)  can1  4100209   [8]  00 00 00 00 00 00 00 00
 (3.4790)  can1  4100208   [8]  00 00 00 00 00 00 00 00
 (3.4800)  can1  18800401   [8]  06 D4 8F 0F 90 1A 90 00
 (3.4800)  can1  18840401   [8]  06 D4 8F 0F 90 1A 90 00
 (3.4810)  can1  18C00401   [8]  06 4E 30 A8 30 5E 30 00
 (3.4880)  can1  4100209   [8]  00 00 00 00 00 00 00 00
 (3.4890)  can1  4100208   [8]  00 00 00 00 00 00 00 00
 (3.4960)  can1  8100302   [5]  00 24 0A 00 07
 (3.4970)  can1  8580C02   [8]  00 00 00 00 00 00 00 00
 (3.4970)  can1  89A0C02   [8]  00 00 00 00 00 00 00 00
 (3.4980)  can1  8030C02   [8]  00 00 2A 68 2A 68 92 17
 (3.4990)  can1  4100209   [8]  00 00 00 00 00 00 00 00
 (3.4990)  can1  4100208   [8]  00 00 00 00 00 00 00 00
 (3.5080)  can1  4100209   [8]  00 00 00 00 00 00 00 00
 (3.5080)  can1  4100208   [8]  00 00 00 00 00 00 00 00
 (3.5160)  can1  89A0C02   [8]  00 00 00 00 00 00 00 00
 (3.5170)  can1  8030C02   [8]  00 00 2A 68 2A 68 92 17
 (3.5170)  can1  8580C02   [8]  00 00 00 00 00 00 00 00
 (3.5190)  can1  4100209   [8]  00 00 00 00 00 00 00 00
 (3.5200)  can1  4100208   [8]  00 00 00 00 00 00 00 00
 (3.5200)  can1  8010C01   [8]  00 00 00 00 00 00 00 00
 (3.5200)  can1  8101201   [8]  00 00 6E 90 11 8D 02 00
 (3.5210)  can1  8100302   [5]  00 25 0A 00 07
 (3.5260)  can1  404FF03   [1]  00
 (3.5280)  can1  4100209   [8]  00 00 00 00 00 00 00 00
 (3.5280)  can1  8250C03   [8]  00 00 00 00 00 00 00 00
 (3.5290)  can1  4100208   [8]  00 00 00 00 00 00 00 00
 (3.5300)  can1  8840C03   [8]  2A 00 11 00 1E 00 07 00
 (3.5300)  can1  88D0C03   [8]  2C 00 08 00 00 00 00 00
 (3.5310)  can1  18800401   [8]  07 12 90 03 90 E6 8F 00
 (3.5310)  can1  18840401   [8]  07 11 90 04 90 E6 8F 00
 (3.5320)  can1  18C00401   [8]  07 B1 30 35 30 A5 30 00
 (3.5360)  can1  89A0C02   [8]  00 00 00 00 00 00 00 00
 (3.5360)  can1  8030C02   [8]  00 00 2A 68 2A 68 92 17
 (3.5370)  can1  8580C02   [8]  00 00 00 00 00 00 00 00
 (3.5390)  can1  404FF07   [1]  00
 (3.5390)  can1  4100209   [8]  00 00 00 00 00 00 00 00
 (3.5390)  can1  4100208   [8]  00 00 00 00 00 00 00 00
 (3.5460)  can1  8100302   [5]  00 25 0A 00 06
 (3.5480)  can1  4100209   [8]  00 00 00 00 00 00 00 00
 (3.5480)  can1  4100208   [8]  00 00 00 00 00 00 00 00
 (3.5560)  can1  89A0C02   [8]  00 00 00 00 00 00 00 00
 (3.5560)  can1  8030C02   [8]  00 00 2A 68 2A 68 92 17
 (3.5570)  can1  8580C02   [8]  00 00 00 00 00 00 00 00
 (3.5590)  can1  4100209   [8]  00 00 00 00 00 00 00 00
 (3.5590)  can1  4100208   [8]  00 00 00 00 00 00 00 00
 (3.5680)  can1  4100209   [8]  00 00 00 00 00 00 00 00
 (3.5680)  can1  4100208   [8]  00 00 00 00 00 00 00 00
 (3.5710)  can1  8100302   [5]  00 25 0A 00 07
 (3.5760)  can1  89A0C02   [8]  00 00 00 00 00 00 00 00
 (3.5770)  can1  404FF01   [1]  00
 (3.5770)  can1  8030C02   [8]  00 00 2A 68 2A 68 92 17
 (3.5780)  can1  8041001   [8]  37 02 60 3C FD A2 1B 00
 (3.5780)  can1  8580C02   [8]  00 00 00 00 00 00 00 00
 (3.5790)  can1  4100209   [8]  00 00 00 00 00 00 00 00
 (3.5800)  can1  4100208   [8]  00 00 00 00 00 00 00 00
 (3.5800)  can1  8120C01   [8]  3F 00 00 00 00 00 00 00
 (3.5810)  can1  80F1201   [4]  A6 13 00 00
 (3.5810)  can1  18800401   [8]  08 DD 8F 42 8D 32 90 00
 (3.5820)  can1  18840401   [8]  08 DD 8F 41 8D 33 90 00
 (3.5820)  can1  18C00401   [8]  08 04 30 8B 30 A2 2F 00
 (3.5880)  can1  4100209   [8]  00 00 00 00 00 00 00 00
 (3.5880)  can1  4100208   [8]  00 00 00 00 00 00 00 00
 (3.5960)  can1  404FF02   [1]  00
 (3.5970)  can1  8100302   [5]  00 25 0A 00 07
 (3.5970)  can1  8580C02   [8]  00 00 00 00 00 00 00 00
 (3.5980)  can1  89A0C02   [8]  00 00 00 00 00 00 00 00
 (3.5990)  can1  8030C02   [8]  00 00 2A 68 2A 68 92 17
 (3.5990)  can1  4100209   [8]  00 00 00 00 00 00 00 00
 (3.6000)  can1  4100208   [8]  00 00 00 00 00 00 00 00
 (3.6080)  can1  4100209   [8]  00 00 00 00 00 00 00 00
 (3.6080)  can1  4100208   [8]  00 00 00 00 00 00 00 00
 (3.6160)  can1  89A0C02   [8]  00 00 00 00 00 00 00 00
 (3.6170)  can1  8030C02   [8]  00 00 2A 68 2A 68 92 17
 (3.6170)  can1  8580C02   [8]  00 00 00 00 00 00 00 00
 (3.6190)  can1  4100209   [8]  00 00 00 00 00 00 00 00
 (3.6190)  can1  4100208   [8]  00 00 00 00 00 00 00 00
 (3.6190)  can1  8101201   [8]  00 00 6E 90 10 8D 00 00
 (3.6200)  can1  8010C01   [8]  00 00 00 00 00 00 00 00
 (3.6210)  can1  8100302   [5]  00 25 0A 00 07
 (3.6260)  can1  18101203   [4]  44 2C 86 01
 (3.6280)  can1  4100209   [8]  00 00 00 00 00 00 00 00
 (3.6280)  can1  4100208   [8]  00 00 00 00 00 00 00 00
 (3.6290)  can1  18800401   [8]  09 27 90 E2 8F D2 8F 00
 (3.6300)  can1  18840401   [8]  09 27 90 E3 8F D3 8F 00
 (3.6300)  can1  18C00401   [8]  09 08 30 A7 2F 19 30 00
 (3.6360)  can1  89A0C02   [8]  00 00 00 00 00 00 00 00
 (3.6360)  can1  8030C02   [8]  00 00 2A 68 2A 68 92 17
 (3.6370)  can1  8580C02   [8]  00 00 00 00 00 00 00 00
 (3.6380)  can1  4100209   [8]  00 00 00 00 00 00 00 00
 (3.6390)  can1  4100208   [8]  00 00 00 00 00 00 00 00
 (3.6460)  can1  8100302   [5]  00 24 0A 00 07
 (3.6480)  can1  4100209   [8]  00 00 00 00 00 00 00 00
 (3.6480)  can1  4100208   [8]  00 00 00 00 00 00 00 00
 (3.6560)  can1  89A0C02   [8]  00 00 00 00 00 00 00 00
 (3.6560)  can1  8030C02   [8]  00 00 2A 68 2A 68 92 17
 (3.6570)  can1  8580C02   [8]  00 00 00 00 00 00 00 00
 (3.6580)  can1  4100209   [8]  00 00 00 00 00 00 00 00
 (3.6580)  can1  4100208   [8]  00 00 00 00 00 00 00 00
 (3.6680)  can1  4100209   [8]  00 00 00 00 00 00 00 00
 (3.6690)  can1  4100208   [8]  00 00 00 00 00 00 00 00
 (3.6710)  can1  8100302   [5]  00 24 0A 00 07
 (3.6760)  can1  89A0C02   [8]  00 00 00 00 00 00 00 00
 (3.6760)  can1  8030C02   [8]  00 00 2A 68 2A 68 92 17
 (3.6770)  can1  8041001   [8]  37 02 60 3C FD A2 1B 00
 (3.6770)  can1  8580C02   [8]  00 00 00 00 00 00 00 00
 (3.6780)  can1  4100209   [8]  00 00 00 00 00 00 00 00
 (3.6790)  can1  4100208   [8]  00 00 00 00 00 00 00 00
 (3.6790)  can1  18800401   [8]  0A B7 8F C7 8F D4 8F 00
 (3.6800)  can1  18840401   [8]  0A B7 8F C8 8F D4 8F 00
 (3.6800)  can1  18C00401   [8]  0A 50 30 A0 30 6D 30 00
 (3.6880)  can1  4100209   [8]  00 00 00 00 00 00 00 00
 (3.6880)  can1  4100208   [8]  00 00 00 00 00 00 00 00
 (3.6960)  can1  8100302   [5]  00 25 0A 00 07
 (3.6960)  can1  8580C02   [8]  00 00 00 00 00 00 00 00
 (3.6970)  can1  89A0C02   [8]  00 00 00 00 00 00 00 00
 (3.6970)  can1  8030C02   [8]  00 00 2A 68 2A 68 92 17
 (3.6980)  can1  4100209   [8]  00 00 00 00 00 00 00 00
 (3.6980)  can1  4100208   [8]  00 00 00 00 00 00 00 00
 (3.7080)  can1  4100209   [8]  00 00 00 00 00 00 00 00
 (3.7090)  can1  4100208   [8]  00 00 00 00 00 00 00 00
 (3.7160)  can1  89A0C02   [8]  00 00 00 00 00 00 00 00
 (3.7160)  can1  8030C02   [8]  00 00 2A 68 2A 68 92 17
 (3.7170)  can1  8580C02   [8]  00 00 00 00 00 00 00 00
 (3.7180)  can1  4100209   [8]  00 00 00 00 00 00 00 00
 (3.7180)  can1  4100208   [8]  00 00 00 00 00 00 00 00
 (3.7210)  can1  8101201   [8]  00 00 70 90 11 8D 02 00
 (3.7210)  can1  8010C01   [8]  00 00 00 00 00 00 00 00
 (3.7220)  can1  8100302   [5]  00 25 0A 00 07
 (3.7280)  can1  4100209   [8]  00 00 00 00 00 00 00 00
 (3.7290)  can1  4100208   [8]  00 00 00 00 00 00 00 00
 (3.7290)  can1  18800401   [8]  0B 03 90 02 90 08 90 00
 (3.7300)  can1  18840401   [8]  0B 03 90 01 90 08 90 00
 (3.7310)  can1  18C00401   [8]  0B D5 30 79 30 C4 30 00
 (3.7360)  can1  89A0C02   [8]  00 00 00 00 00 00 00 00
 (3.7360)  can1  8030C02   [8]  00 00 2A 68 2A 68 92 17
 (3.7370)  can1  8580C02   [8]  00 00 00 00 00 00 00 00
 (3.7380)  can1  4100209   [8]  00 00 00 00 00 00 00 00
 (3.7380)  can1  4100208   [8]  00 00 00 00 00 00 00 00
 (3.7460)  can1  8100302   [5]  00 25 0A 00 07
 (3.7480)  can1  4100209   [8]  00 00 00 00 00 00 00 00
 (3.7480)  can1  4100208   [8]  00 00 00 00 00 00 00 00
 (3.7560)  can1  89A0C02   [8]  00 00 00 00 00 00 00 00
 (3.7560)  can1  8030C02   [8]  00 00 2A 68 2A 68 92 17
 (3.7570)  can1  8580C02   [8]  00 00 00 00 00 00 00 00
 (3.7590)  can1  4100209   [8]  00 00 00 00 00 00 00 00
 (3.7590)  can1  4100208   [8]  00 00 00 00 00 00 00 00
 (3.7680)  can1  4100209   [8]  00 00 00 00 00 00 00 00
 (3.7690)  can1  4100208   [8]  00 00 00 00 00 00 00 00
 (3.7710)  can1  8100302   [5]  00 25 0A 00 07
 (3.7760)  can1  89A0C02   [8]  00 00 00 00 00 00 00 00
 (3.7760)  can1  8030C02   [8]  00 00 2A 68 2A 68 92 17
 (3.7770)  can1  8041001   [8]  37 02 70 3C FD A2 1B 00
 (3.7780)  can1  8580C02   [8]  00 00 00 00 00 00 00 00
 (3.7780)  can1  4100209   [8]  00 00 00 00 00 00 00 00
 (3.7790)  can1  4100208   [8]  00 00 00 00 00 00 00 00
 (3.7800)  can1  18800401   [8]  0C 01 90 E6 8F E4 8F 00
 (3.7800)  can1  18840401   [8]  0C 01 90 E6 8F E4 8F 00
 (3.7810)  can1  18C00401   [8]  0C 51 30 7E 30 09 30 00
 (3.7880)  can1  4100209   [8]  00 00 00 00 00 00 00 00
 (3.7890)  can1  4100208   [8]  00 00 00 00 00 00 00 00
 (3.7960)  can1  8100302   [5]  00 24 0A 00 07
 (3.7970)  can1  8580C02   [8]  00 00 00 00 00 00 00 00
 (3.7970)  can1  89A0C02   [8]  00 00 00 00 00 00 00 00
 (3.7980)  can1  8030C02   [8]  00 00 2A 68 2A 68 92 17
 (3.7980)  can1  4100209   [8]  00 00 00 00 00 00 00 00
 (3.7990)  can1  4100208   [8]  00 00 00 00 00 00 00 00
 (3.8080)  can1  4100209   [8]  00 00 00 00 00 00 00 00
 (3.8080)  can1  4100208   [8]  00 00 00 00 00 00 00 00
 (3.8160)  can1  89A0C02   [8]  00 00 00 00 00 00 00 00
 (3.8170)  can1  8030C02   [8]  00 00 2A 68 2A 68 92 17
 (3.8170)  can1  8580C02   [8]  00 00 00 00 00 00 00 00
 (3.8190)  can1  4100209   [8]  00 00 00 00 00 00 00 00
 (3.8190)  can1  4100208   [8]  00 00 00 00 00 00 00 00
 (3.8210)  can1  8100302   [5]  00 24 0A 00 07
 (3.8390)  can1  8101201   [8]  00 00 6E 90 11 8D 03 00
 (3.8400)  can1  8010C01   [8]  00 00 00 00 00 00 00 00
 (3.8410)  can1  4100209   [8]  00 00 00 00 00 00 00 00
 (3.8410)  can1  4100208   [8]  00 00 00 00 00 00 00 00
 (3.8420)  can1  18800401   [8]  0D EF 8F 18 90 07 90 00
 (3.8420)  can1  18840401   [8]  0D EF 8F 17 90 07 90 00
 (3.8430)  can1  18C00401   [8]  0D 2A 30 46 2F 46 2F 00
 (3.8430)  can1  89A0C02   [8]  00 00 00 00 00 00 00 00
 (3.8440)  can1  8030C02   [8]  00 00 2A 68 2A 68 92 17
 (3.8450)  can1  8580C02   [8]  00 00 00 00 00 00 00 00
 (3.8450)  can1  4100209   [8]  00 00 00 00 00 00 00 00
 (3.8450)  can1  4100208   [8]  00 00 00 00 00 00 00 00
 (3.8460)  can1  8100302   [5]  00 25 0A 00 07
 (3.8490)  can1  4100209   [8]  00 00 00 00 00 00 00 00
 (3.8500)  can1  4100208   [8]  00 00 00 00 00 00 00 00
 (3.8560)  can1  89A0C02   [8]  00 00 00 00 00 00 00 00
 (3.8560)  can1  8030C02   [8]  00 00 2A 68 2A 68 92 17
 (3.8570)  can1  8580C02   [8]  00 00 00 00 00 00 00 00
 (3.8580)  can1  4100209   [8]  00 00 00 00 00 00 00 00
 (3.8580)  can1  4100208   [8]  00 00 00 00 00 00 00 00
 (3.8680)  can1  4100209   [8]  00 00 00 00 00 00 00 00
 (3.8690)  can1  4100208   [8]  00 00 00 00 00 00 00 00
 (3.8710)  can1  8100302   [5]  00 25 0A 00 07
 (3.8760)  can1  89A0C02   [8]  00 00 00 00 00 00 00 00
 (3.8760)  can1  8030C02   [8]  00 00 2A 68 2A 68 92 17
 (3.8770)  can1  8041001   [8]  37 02 70 3C FD A2 1B 00
 (3.8770)  can1  8580C02   [8]  00 00 00 00 00 00 00 00
 (3.8780)  can1  4100209   [8]  00 00 00 00 00 00 00 00
 (3.8790)  can1  4100208   [8]  00 00 00 00 00 00 00 00
 (3.8790)  can1  18800401   [8]  0E C9 8F C0 8F A6 8F 00
 (3.8800)  can1  18840401   [8]  0E C9 8F C0 8F A6 8F 00
 (3.8800)  can1  18C00401   [8]  0E 5A 2F F0 2F 17 30 00
 (3.8880)  can1  4100209   [8]  00 00 00 00 00 00 00 00
 (3.8880)  can1  4100208   [8]  00 00 00 00 00 00 00 00
 (3.8960)  can1  8100302   [5]  00 25 0A 00 07
 (3.8960)  can1  8580C02   [8]  00 00 00 00 00 00 00 00
 (3.8970)  can1  89A0C02   [8]  00 00 00 00 00 00 00 00
 (3.8980)  can1  8030C02   [8]  00 00 2A 68 2A 68 92 17
 (3.8990)  can1  4100209   [8]  00 00 00 00 00 00 00 00
 (3.8990)  can1  4100208   [8]  00 00 00 00 00 00 00 00
 (3.9080)  can1  4100209   [8]  00 00 00 00 00 00 00 00
 (3.9080)  can1  4100208   [8]  00 00 00 00 00 00 00 00
 (3.9160)  can1  89A0C02   [8]  00 00 00 00 00 00 00 00
 (3.9170)  can1  8030C02   [8]  00 00 2A 68 2A 68 92 17
 (3.9170)  can1  8580C02   [8]  00 00 00 00 00 00 00 00
 (3.9180)  can1  4100209   [8]  00 00 00 00 00 00 00 00
 (3.9180)  can1  4100208   [8]  00 00 00 00 00 00 00 00
 (3.9210)  can1  8100302   [5]  00 27 0A 00 07
 (3.9230)  can1  8101201   [8]  00 00 70 90 12 8D 02 00
 (3.9230)  can1  8010C01   [8]  00 00 00 00 00 00 00 00
 (3.9280)  can1  4100209   [8]  00 00 00 00 00 00 00 00
 (3.9280)  can1  4100208   [8]  00 00 00 00 00 00 00 00
 (3.9290)  can1  18800401   [8]  0F 62 8F C7 8F F9 8F 00
 (3.9300)  can1  18840401   [8]  0F 62 8F C7 8F F9 8F 00
 (3.9300)  can1  18C00401   [8]  0F 6E 30 5A 30 B4 30 00
 (3.9360)  can1  89A0C02   [8]  00 00 00 00 00 00 00 00
 (3.9370)  can1  8030C02   [8]  00 00 2A 68 2A 68 92 17
 (3.9380)  can1  8580C02   [8]  00 00 00 00 00 00 00 00
 (3.9380)  can1  4100209   [8]  00 00 00 00 00 00 00 00
 (3.9390)  can1  4100208   [8]  00 00 00 00 00 00 00 00
 (3.9460)  can1  8100302   [5]  00 25 0A 00 07
 (3.9480)  can1  4100209   [8]  00 00 00 00 00 00 00 00
 (3.9480)  can1  4100208   [8]  00 00 00 00 00 00 00 00
 (3.9560)  can1  89A0C02   [8]  00 00 00 00 00 00 00 00
 (3.9570)  can1  8030C02   [8]  00 00 2A 68 2A 68 92 17
 (3.9570)  can1  8580C02   [8]  00 00 00 00 00 00 00 00
 (3.9590)  can1  4100209   [8]  00 00 00 00 00 00 00 00
 (3.9590)  can1  4100208   [8]  00 00 00 00 00 00 00 00
 (3.9680)  can1  4100209   [8]  00 00 00 00 00 00 00 00
 (3.9680)  can1  4100208   [8]  00 00 00 00 00 00 00 00
 (3.9710)  can1  8100302   [5]  00 24 0A 00 07
 (3.9760)  can1  89A0C02   [8]  00 00 00 00 00 00 00 00
 (3.9770)  can1  8030C02   [8]  00 00 2A 68 2A 68 92 17
 (3.9770)  can1  8041001   [8]  37 02 70 3C FD A2 1B 00
 (3.9780)  can1  8580C02   [8]  00 00 00 00 00 00 00 00
 (3.9790)  can1  4100209   [8]  00 00 00 00 00 00 00 00
 (3.9790)  can1  4100208   [8]  00 00 00 00 00 00 00 00
 (3.9800)  can1  18800401   [8]  10 F0 8F EF 8F E8 8F 00
 (3.9800)  can1  18840401   [8]  10 EF 8F F0 8F E8 8F 00
 (3.9810)  can1  18C00401   [8]  10 69 30 BF 30 1E 30 00
 (3.9880)  can1  4100209   [8]  00 00 00 00 00 00 00 00
 (3.9880)  can1  4100208   [8]  00 00 00 00 00 00 00 00
 (3.9960)  can1  8100302   [5]  00 25 0A 00 07
 (3.9970)  can1  8580C02   [8]  00 00 00 00 00 00 00 00
 (3.9970)  can1  89A0C02   [8]  00 00 00 00 00 00 00 00
 (3.9970)  can1  8030C02   [8]  00 00 2A 68 2A 68 92 17
 (3.9980)  can1  4100209   [8]  00 00 00 00 00 00 00 00
 (3.9990)  can1  4100208   [8]  00 00 00 00 00 00 00 00
 (4.0080)  can1  4100209   [8]  00 00 00 00 00 00 00 00
 (4.0080)  can1  4100208   [8]  00 00 00 00 00 00 00 00
 (4.0160)  can1  89A0C02   [8]  00 00 00 00 00 00 00 00
 (4.0170)  can1  8030C02   [8]  00 00 2A 68 2A 68 92 17
 (4.0170)  can1  8580C02   [8]  00 00 00 00 00 00 00 00
 (4.0190)  can1  4100209   [8]  00 00 00 00 00 00 00 00
 (4.0190)  can1  4100208   [8]  00 00 00 00 00 00 00 00
 (4.0210)  can1  8100302   [5]  00 25 0A 00 07
 (4.0240)  can1  8101201   [8]  00 00 70 90 12 8D 00 00
 (4.0240)  can1  8010C01   [8]  00 00 00 00 00 00 00 00
 (4.0280)  can1  4100209   [8]  00 00 00 00 00 00 00 00
 (4.0290)  can1  4100208   [8]  00 00 00 00 00 00 00 00
 (4.0290)  can1  18800401   [8]  11 D2 8F C9 8F D9 8F 00
 (4.0300)  can1  18840401   [8]  11 D2 8F C9 8F D9 8F 00
 (4.0300)  can1  18C00401   [8]  11 97 30 D2 2F 52 30 00
 (4.0360)  can1  89A0C02   [8]  00 00 00 00 00 00 00 00
 (4.0360)  can1  8030C02   [8]  00 00 2A 68 2A 68 92 17
 (4.0370)  can1  8580C02   [8]  00 00 00 00 00 00 00 00
 (4.0380)  can1  4100209   [8]  00 00 00 00 00 00 00 00
 (4.0380)  can1  4100208   [8]  00 00 00 00 00 00 00 00
 (4.0460)  can1  8100302   [5]  00 25 0A 00 07
 (4.0480)  can1  4100209   [8]  00 00 00 00 00 00 00 00
 (4.0480)  can1  4100208   [8]  00 00 00 00 00 00 00 00
 (4.0560)  can1  89A0C02   [8]  00 00 00 00 00 00 00 00
 (4.0560)  can1  8030C02   [8]  00 00 2A 68 2A 68 92 17
 (4.0570)  can1  8580C02   [8]  00 00 00 00 00 00 00 00
 (4.0580)  can1  4100209   [8]  00 00 00 00 00 00 00 00
 (4.0580)  can1  4100208   [8]  00 00 00 00 00 00 00 00
 (4.0680)  can1  4100209   [8]  00 00 00 00 00 00 00 00
 (4.0680)  can1  4100208   [8]  00 00 00 00 00 00 00 00
 (4.0710)  can1  8100302   [5]  00 25 0A 00 07
 (4.0760)  can1  8041001   [8]  37 02 70 3C FD A2 1B 00
 (4.0770)  can1  8030C02   [8]  00 00 2A 68 2A 68 92 17
 (4.0770)  can1  8580C02   [8]  00 00 00 00 00 00 00 00
 (4.0770)  can1  89A0C02   [8]  00 00 00 00 00 00 00 00
 (4.0780)  can1  4100209   [8]  00 00 00 00 00 00 00 00
 (4.0780)  can1  4100208   [8]  00 00 00 00 00 00 00 00
 (4.0790)  can1  18800401   [8]  12 13 90 06 90 CD 8F 00
 (4.0790)  can1  18840401   [8]  12 12 90 05 90 CB 8F 00
 (4.0800)  can1  18C00401   [8]  12 B5 2F 38 2F 09 2F 00
 (4.0880)  can1  4100209   [8]  00 00 00 00 00 00 00 00
 (4.0880)  can1  4100208   [8]  00 00 00 00 00 00 00 00
 (4.0960)  can1  8100302   [5]  00 25 0A 00 07
 (4.0960)  can1  8580C02   [8]  00 00 00 00 00 00 00 00
 (4.0970)  can1  89A0C02   [8]  00 00 00 00 00 00 00 00
 (4.0980)  can1  8030C02   [8]  00 00 2A 68 2A 68 92 17
 (4.0990)  can1  4100209   [8]  00 00 00 00 00 00 00 00
 (4.0990)  can1  4100208   [8]  00 00 00 00 00 00 00 00
 (4.1080)  can1  4100209   [8]  00 00 00 00 00 00 00 00
 (4.1080)  can1  4100208   [8]  00 00 00 00 00 00 00 00
 (4.1160)  can1  89A0C02   [8]  00 00 00 00 00 00 00 00
 (4.1160)  can1  8030C02   [8]  00 00 2A 68 2A 68 92 17
 (4.1170)  can1  8580C02   [8]  00 00 00 00 00 00 00 00
 (4.1180)  can1  4100209   [8]  00 00 00 00 00 00 00 00
 (4.1190)  can1  4100208   [8]  00 00 00 00 00 00 00 00
 (4.1210)  can1  8100302   [5]  00 25 0A 00 07
 (4.1250)  can1  8101201   [8]  00 00 72 90 12 8D 00 00
 (4.1250)  can1  8010C01   [8]  00 00 00 00 00 00 00 00
 (4.1260)  can1  18101203   [4]  76 2C B7 01
 (4.1280)  can1  4100209   [8]  00 00 00 00 00 00 00 00
 (4.1280)  can1  4100208   [8]  00 00 00 00 00 00 00 00
 (4.1290)  can1  18800401   [8]  13 C6 8F AC 8F C3 8F 00
 (4.1300)  can1  18840401   [8]  13 C6 8F B3 8F C2 8F 00
 (4.1300)  can1  18C00401   [8]  13 77 2F BB 2F 09 30 00
 (4.1360)  can1  89A0C02   [8]  00 00 00 00 00 00 00 00
 (4.1370)  can1  8030C02   [8]  00 00 2A 68 2A 68 92 17
 (4.1370)  can1  8580C02   [8]  00 00 00 00 00 00 00 00
 (4.1380)  can1  4100209   [8]  00 00 00 00 00 00 00 00
 (4.1390)  can1  4100208   [8]  00 00 00 00 00 00 00 00
 (4.1460)  can1  8100302   [5]  00 24 0A 00 07
 (4.1480)  can1  4100209   [8]  00 00 00 00 00 00 00 00
 (4.1480)  can1  4100208   [8]  00 00 00 00 00 00 00 00
 (4.1560)  can1  89A0C02   [8]  00 00 00 00 00 00 00 00
 (4.1570)  can1  8030C02   [8]  00 00 2A 68 2A 68 92 17
 (4.1570)  can1  8580C02   [8]  00 00 00 00 00 00 00 00
 (4.1590)  can1  4100209   [8]  00 00 00 00 00 00 00 00
 (4.1590)  can1  4100208   [8]  00 00 00 00 00 00 00 00
 (4.1680)  can1  4100209   [8]  00 00 00 00 00 00 00 00
 (4.1680)  can1  4100208   [8]  00 00 00 00 00 00 00 00
 (4.1710)  can1  8100302   [5]  00 24 0A 00 07
 (4.1760)  can1  89A0C02   [8]  00 00 00 00 00 00 00 00
 (4.1770)  can1  8030C02   [8]  00 00 2A 68 2A 68 92 17
 (4.1770)  can1  8041001   [8]  37 02 70 3C FD A2 1B 00
 (4.1780)  can1  8580C02   [8]  00 00 00 00 00 00 00 00
 (4.1790)  can1  4100209   [8]  00 00 00 00 00 00 00 00
 (4.1800)  can1  4100208   [8]  00 00 00 00 00 00 00 00
 (4.1800)  can1  18800401   [8]  14 CE 8F F8 8F ED 8F 00
 (4.1810)  can1  18840401   [8]  14 CE 8F F7 8F EE 8F 00
 (4.1810)  can1  18C00401   [8]  14 E1 2F 1F 30 E1 2F 00
 (4.1880)  can1  4100209   [8]  00 00 00 00 00 00 00 00
 (4.1880)  can1  4100208   [8]  00 00 00 00 00 00 00 00
 (4.1960)  can1  8100302   [5]  00 24 0A 00 07
 (4.1960)  can1  8580C02   [8]  00 00 00 00 00 00 00 00
 (4.1970)  can1  89A0C02   [8]  00 00 00 00 00 00 00 00
 (4.1970)  can1  8030C02   [8]  00 00 2A 68 2A 68 92 17
 (4.1980)  can1  4100209   [8]  00 00 00 00 00 00 00 00
 (4.1990)  can1  4100208   [8]  00 00 00 00 00 00 00 00
 (4.2080)  can1  4100209   [8]  00 00 00 00 00 00 00 00
 (4.2080)  can1  4100208   [8]  00 00 00 00 00 00 00 00
 (4.2160)  can1  89A0C02   [8]  00 00 00 00 00 00 00 00
 (4.2170)  can1  8030C02   [8]  00 00 2A 68 2A 68 92 17
 (4.2170)  can1  8580C02   [8]  00 00 00 00 00 00 00 00
 (4.2190)  can1  4100209   [8]  00 00 00 00 00 00 00 00
 (4.2190)  can1  4100208   [8]  00 00 00 00 00 00 00 00
 (4.2210)  can1  8100302   [5]  00 24 0A 00 07
 (4.2260)  can1  8101201   [8]  00 00 6F 90 11 8D 02 00
 (4.2260)  can1  8010C01   [8]  00 00 00 00 00 00 00 00
 (4.2280)  can1  4100209   [8]  00 00 00 00 00 00 00 00
 (4.2280)  can1  4100208   [8]  00 00 00 00 00 00 00 00
 (4.2290)  can1  18800401   [8]  15 09 90 F7 8F E0 8F 00
 (4.2290)  can1  18840401   [8]  15 07 90 F7 8F DF 8F 00
 (4.2300)  can1  18C00401   [8]  15 2D 30 A5 2F 07 30 00
 (4.2360)  can1  89A0C02   [8]  00 00 00 00 00 00 00 00
 (4.2370)  can1  8030C02   [8]  00 00 2A 68 2A 68 92 17
 (4.2370)  can1  8580C02   [8]  00 00 00 00 00 00 00 00
 (4.2380)  can1  4100209   [8]  00 00 00 00 00 00 00 00
 (4.2380)  can1  4100208   [8]  00 00 00 00 00 00 00 00
 (4.2460)  can1  8100302   [5]  00 24 0A 00 07
 (4.2480)  can1  4100209   [8]  00 00 00 00 00 00 00 00
 (4.2490)  can1  4100208   [8]  00 00 00 00 00 00 00 00
 (4.2560)  can1  89A0C02   [8]  00 00 00 00 00 00 00 00
 (4.2560)  can1  8030C02   [8]  00 00 2A 68 2A 68 92 17
 (4.2560)  can1  8580C02   [8]  00 00 00 00 00 00 00 00
 (4.2580)  can1  4100209   [8]  00 00 00 00 00 00 00 00
 (4.2590)  can1  4100208   [8]  00 00 00 00 00 00 00 00
 (4.2680)  can1  4100209   [8]  00 00 00 00 00 00 00 00
 (4.2680)  can1  4100208   [8]  00 00 00 00 00 00 00 00
 (4.2710)  can1  8100302   [5]  00 25 0A 00 07
 (4.2760)  can1  89A0C02   [8]  00 00 00 00 00 00 00 00
 (4.2770)  can1  8030C02   [8]  00 00 2A 68 2A 68 92 17
 (4.2770)  can1  8041001   [8]  37 02 70 3C FD A2 1B 00
 (4.2770)  can1  8580C02   [8]  00 00 00 00 00 00 00 00
 (4.2780)  can1  4100209   [8]  00 00 00 00 00 00 00 00
 (4.2790)  can1  4100208   [8]  00 00 00 00 00 00 00 00
 (4.2790)  can1  18800401   [8]  16 D6 8F ED 8F 17 90 00
 (4.2800)  can1  18840401   [8]  16 D6 8F EC 8F 16 90 00
 (4.2810)  can1  18C00401   [8]  16 8E 2F BB 2F 0E 2F 00
 (4.2880)  can1  4100209   [8]  00 00 00 00 00 00 00 00
 (4.2880)  can1  4100208   [8]  00 00 00 00 00 00 00 00
 (4.2960)  can1  8100302   [5]  00 24 0A 00 07
 (4.2960)  can1  8580C02   [8]  00 00 00 00 00 00 00 00
 (4.2970)  can1  89A0C02   [8]  00 00 00 00 00 00 00 00
 (4.2980)  can1  8030C02   [8]  00 00 2A 68 2A 68 92 17
 (4.2990)  can1  4100209   [8]  00 00 00 00 00 00 00 00
 (4.2990)  can1  4100208   [8]  00 00 00 00 00 00 00 00
 (4.3080)  can1  4100209   [8]  00 00 00 00 00 00 00 00
 (4.3080)  can1  4100208   [8]  00 00 00 00 00 00 00 00
 (4.3160)  can1  89A0C02   [8]  00 00 00 00 00 00 00 00
 (4.3160)  can1  8030C02   [8]  00 00 2A 68 2A 68 92 17
 (4.3160)  can1  8580C02   [8]  00 00 00 00 00 00 00 00
 (4.3190)  can1  4100209   [8]  00 00 00 00 00 00 00 00
 (4.3200)  can1  4100208   [8]  00 00 00 00 00 00 00 00
 (4.3210)  can1  8100302   [5]  00 25 0A 00 07
 (4.3270)  can1  8101201   [8]  00 00 6F 90 12 8D 00 00
 (4.3270)  can1  8010C01   [8]  00 00 00 00 00 00 00 00
 (4.3280)  can1  4100209   [8]  00 00 00 00 00 00 00 00
 (4.3290)  can1  4100208   [8]  00 00 00 00 00 00 00 00
 (4.3300)  can1  18800401   [8]  17 0B 90 00 00 00 00 00
 (4.3300)  can1  18840401   [8]  17 0A 90 00 00 00 00 00
 (4.3310)  can1  18C00401   [8]  17 02 2F 10 27 10 27 00
 (4.3360)  can1  89A0C02   [8]  00 00 00 00 00 00 00 00
 (4.3360)  can1  8030C02   [8]  00 00 2A 68 2A 68 92 17
 (4.3370)  can1  8580C02   [8]  00 00 00 00 00 00 00 00
 (4.3390)  can1  4100209   [8]  00 00 00 00 00 00 00 00
 (4.3400)  can1  4100208   [8]  00 00 00 00 00 00 00 00
 (4.3460)  can1  8100302   [5]  00 25 0A 00 07
 (4.3480)  can1  4100209   [8]  00 00 00 00 00 00 00 00
 (4.3480)  can1  4100208   [8]  00 00 00 00 00 00 00 00
 (4.3560)  can1  89A0C02   [8]  00 00 00 00 00 00 00 00
 (4.3570)  can1  8030C02   [8]  00 00 2A 68 2A 68 92 17
 (4.3570)  can1  8580C02   [8]  00 00 00 00 00 00 00 00
 (4.3590)  can1  4100209   [8]  00 00 00 00 00 00 00 00
 (4.3590)  can1  4100208   [8]  00 00 00 00 00 00 00 00
 (4.3680)  can1  4100209   [8]  00 00 00 00 00 00 00 00
 (4.3680)  can1  4100208   [8]  00 00 00 00 00 00 00 00
 (4.3710)  can1  8100302   [5]  00 25 0A 00 07
 (4.3760)  can1  89A0C02   [8]  00 00 00 00 00 00 00 00
 (4.3760)  can1  8030C02   [8]  00 00 2A 68 2A 68 92 17
 (4.3760)  can1  8041001   [8]  37 02 70 3C FD A2 1B 00
 (4.3770)  can1  8580C02   [8]  00 00 00 00 00 00 00 00
 (4.3780)  can1  4100209   [8]  00 00 00 00 00 00 00 00
 (4.3790)  can1  4100208   [8]  00 00 00 00 00 00 00 00
 (4.3790)  can1  18800401   [8]  00 6F 90 82 8F 68 8F 00
 (4.3800)  can1  18840401   [8]  00 6F 90 82 8F 67 8F 00
 (4.3800)  can1  18C00401   [8]  00 AC 2F 25 2F 19 30 00
 (4.3880)  can1  4100209   [8]  00 00 00 00 00 00 00 00
 (4.3880)  can1  4100208   [8]  00 00 00 00 00 00 00 00
 (4.3960)  can1  8100302   [5]  00 25 0A 00 07
 (4.3970)  can1  8580C02   [8]  00 00 00 00 00 00 00 00
 (4.3970)  can1  89A0C02   [8]  00 00 00 00 00 00 00 00
 (4.3970)  can1  8030C02   [8]  00 00 2A 68 2A 68 92 17
 (4.3980)  can1  4100209   [8]  00 00 00 00 00 00 00 00
 (4.3990)  can1  4100208   [8]  00 00 00 00 00 00 00 00
 (4.4080)  can1  4100209   [8]  00 00 00 00 00 00 00 00
 (4.4090)  can1  4100208   [8]  00 00 00 00 00 00 00 00
 (4.4160)  can1  89A0C02   [8]  00 00 00 00 00 00 00 00
 (4.4180)  can1  8030C02   [8]  00 00 2A 68 2A 68 92 17
 (4.4190)  can1  8580C02   [8]  00 00 00 00 00 00 00 00
 (4.4190)  can1  4100209   [8]  00 00 00 00 00 00 00 00
 (4.4200)  can1  4100208   [8]  00 00 00 00 00 00 00 00
 (4.4220)  can1  8100302   [5]  00 25 0A 00 07
 (4.4280)  can1  8101201   [8]  00 00 6F 90 12 8D 06 00
 (4.4280)  can1  8010C01   [8]  00 00 00 00 00 00 00 00
 (4.4290)  can1  4100209   [8]  00 00 00 00 00 00 00 00
 (4.4290)  can1  4100208   [8]  00 00 00 00 00 00 00 00
 (4.4290)  can1  18800401   [8]  01 74 8F 88 8F 80 8F 00
 (4.4300)  can1  18840401   [8]  01 74 8F 88 8F 80 8F 00
 (4.4310)  can1  18C00401   [8]  01 C6 2F 43 30 E9 2F 00
 (4.4360)  can1  89A0C02   [8]  00 00 00 00 00 00 00 00
 (4.4360)  can1  8030C02   [8]  00 00 2A 68 2A 68 92 17
 (4.4370)  can1  8580C02   [8]  00 00 00 00 00 00 00 00
 (4.4380)  can1  4100209   [8]  00 00 00 00 00 00 00 00
 (4.4380)  can1  4100208   [8]  00 00 00 00 00 00 00 00
 (4.4460)  can1  8100302   [5]  00 25 0A 00 07
 (4.4480)  can1  4100209   [8]  00 00 00 00 00 00 00 00
 (4.4490)  can1  4100208   [8]  00 00 00 00 00 00 00 00
 (4.4560)  can1  89A0C02   [8]  00 00 00 00 00 00 00 00
 (4.4560)  can1  8030C02   [8]  00 00 2A 68 2A 68 92 17
 (4.4560)  can1  8580C02   [8]  00 00 00 00 00 00 00 00
 (4.4590)  can1  4100209   [8]  00 00 00 00 00 00 00 00
 (4.4590)  can1  4100208   [8]  00 00 00 00 00 00 00 00
 (4.4680)  can1  4100209   [8]  00 00 00 00 00 00 00 00
 (4.4680)  can1  4100208   [8]  00 00 00 00 00 00 00 00
 (4.4710)  can1  8100302   [5]  00 26 0A 00 07
 (4.4760)  can1  89A0C02   [8]  00 00 00 00 00 00 00 00
 (4.4770)  can1  8030C02   [8]  00 00 2A 68 2A 68 92 17
 (4.4770)  can1  8041001   [8]  37 02 70 3C FD A2 1B 00
 (4.4780)  can1  8580C02   [8]  00 00 00 00 00 00 00 00
 (4.4780)  can1  4100209   [8]  00 00 00 00 00 00 00 00
 (4.4790)  can1  4100208   [8]  00 00 00 00 00 00 00 00
 (4.4790)  can1  18800401   [8]  02 A4 8F 0A 90 F6 8F 00
 (4.4800)  can1  18840401   [8]  02 A4 8F 0B 90 F5 8F 00
 (4.4800)  can1  18C00401   [8]  02 1F 30 E0 2F 01 30 00
 (4.4880)  can1  4100209   [8]  00 00 00 00 00 00 00 00
 (4.4880)  can1  4100208   [8]  00 00 00 00 00 00 00 00
 (4.4960)  can1  8100302   [5]  00 24 0A 00 07
 (4.4970)  can1  8580C02   [8]  00 00 00 00 00 00 00 00
 (4.4970)  can1  89A0C02   [8]  00 00 00 00 00 00 00 00
 (4.4980)  can1  8030C02   [8]  00 00 2A 68 2A 68 92 17
 (4.4990)  can1  4100209   [8]  00 00 00 00 00 00 00 00
 (4.4990)  can1  4100208   [8]  00 00 00 00 00 00 00 00
 (4.5080)  can1  4100209   [8]  00 00 00 00 00 00 00 00
 (4.5090)  can1  4100208   [8]  00 00 00 00 00 00 00 00
 (4.5160)  can1  89A0C02   [8]  00 00 00 00 00 00 00 00
 (4.5160)  can1  8030C02   [8]  00 00 2A 68 2A 68 92 17
 (4.5160)  can1  8580C02   [8]  00 00 00 00 00 00 00 00
 (4.5190)  can1  4100209   [8]  00 00 00 00 00 00 00 00
 (4.5190)  can1  4100208   [8]  00 00 00 00 00 00 00 00
 (4.5210)  can1  8100302   [5]  00 24 0A 00 07
 (4.5260)  can1  404FF03   [1]  00
 (4.5280)  can1  4100209   [8]  00 00 00 00 00 00 00 00
 (4.5280)  can1  8250C03   [8]  00 00 00 00 00 00 00 00
 (4.5290)  can1  4100208   [8]  00 00 00 00 00 00 00 00
 (4.5300)  can1  8010C01   [8]  00 00 00 00 00 00 00 00
 (4.5310)  can1  8101201   [8]  00 00 71 90 13 8D 01 00
 (4.5310)  can1  8840C03   [8]  52 00 1C 00 1E 00 07 00
 (4.5320)  can1  88D0C03   [8]  2E 00 08 00 00 00 00 00
 (4.5320)  can1  8A00C03   [1]  07
 (4.5320)  can1  18800401   [8]  03 E5 8F DA 8F ED 8F 00
 (4.5330)  can1  18840401   [8]  03 E5 8F D9 8F ED 8F 00
 (4.5330)  can1  18C00401   [8]  03 D0 2F CC 2F 90 2F 00
 (4.5360)  can1  89A0C02   [8]  00 00 00 00 00 00 00 00
 (4.5370)  can1  8030C02   [8]  00 00 2A 68 2A 68 92 17
 (4.5380)  can1  8580C02   [8]  00 00 00 00 00 00 00 00
 (4.5380)  can1  404FF07   [1]  00
 (4.5390)  can1  4100209   [8]  00 00 00 00 00 00 00 00
 (4.5390)  can1  4100208   [8]  00 00 00 00 00 00 00 00
 (4.5460)  can1  8100302   [5]  00 25 0A 00 07
 (4.5480)  can1  4100209   [8]  00 00 00 00 00 00 00 00
 (4.5480)  can1  4100208   [8]  00 00 00 00 00 00 00 00
 (4.5560)  can1  89A0C02   [8]  00 00 00 00 00 00 00 00
 (4.5570)  can1  8030C02   [8]  00 00 2A 68 2A 68 92 17
 (4.5570)  can1  8580C02   [8]  00 00 00 00 00 00 00 00
 (4.5580)  can1  4100209   [8]  00 00 00 00 00 00 00 00
 (4.5580)  can1  4100208   [8]  00 00 00 00 00 00 00 00
 (4.5680)  can1  4100209   [8]  00 00 00 00 00 00 00 00
 (4.5680)  can1  4100208   [8]  00 00 00 00 00 00 00 00
 (4.5710)  can1  8100302   [5]  00 25 0A 00 07
 (4.5760)  can1  89A0C02   [8]  00 00 00 00 00 00 00 00
 (4.5760)  can1  404FF01   [1]  00
 (4.5770)  can1  8030C02   [8]  00 00 2A 68 2A 68 92 17
 (4.5780)  can1  8041001   [8]  37 02 70 3C FD A2 1B 00
 (4.5780)  can1  8580C02   [8]  00 00 00 00 00 00 00 00
 (4.5790)  can1  4100209   [8]  00 00 00 00 00 00 00 00
 (4.5800)  can1  4100208   [8]  00 00 00 00 00 00 00 00
 (4.5800)  can1  80F1201   [4]  D6 10 00 00
 (4.5810)  can1  8120C01   [8]  3F 00 00 00 00 00 00 00
 (4.5810)  can1  18800401   [8]  04 0D 90 FF 8F 13 8D 00
 (4.5820)  can1  18840401   [8]  04 0D 90 FF 8F 13 8D 00
 (4.5820)  can1  18C00401   [8]  04 F9 2E DD 2E 0B 30 00
 (4.5880)  can1  4100209   [8]  00 00 00 00 00 00 00 00
 (4.5890)  can1  4100208   [8]  00 00 00 00 00 00 00 00
 (4.5960)  can1  404FF02   [1]  00
 (4.5960)  can1  8100302   [5]  00 25 0A 00 07
 (4.5970)  can1  89A0C02   [8]  00 00 00 00 00 00 00 00
 (4.5980)  can1  8580C02   [8]  00 00 00 00 00 00 00 00
 (4.5980)  can1  8030C02   [8]  00 00 2A 68 2A 68 92 17
 (4.5990)  can1  4100209   [8]  00 00 00 00 00 00 00 00
 (4.5990)  can1  4100208   [8]  00 00 00 00 00 00 00 00
 (4.6080)  can1  4100209   [8]  00 00 00 00 00 00 00 00
 (4.6090)  can1  4100208   [8]  00 00 00 00 00 00 00 00
 (4.6160)  can1  89A0C02   [8]  00 00 00 00 00 00 00 00
 (4.6160)  can1  8030C02   [8]  00 00 2A 68 2A 68 92 17
 (4.6170)  can1  8580C02   [8]  00 00 00 00 00 00 00 00
 (4.6190)  can1  4100209   [8]  00 00 00 00 00 00 00 00
 (4.6200)  can1  4100208   [8]  00 00 00 00 00 00 00 00
 (4.6210)  can1  8100302   [5]  00 24 0A 00 07
 (4.6260)  can1  18101203   [4]  A4 2C 94 01
 (4.6280)  can1  4100209   [8]  00 00 00 00 00 00 00 00
 (4.6280)  can1  4100208   [8]  00 00 00 00 00 00 00 00
 (4.6290)  can1  18800401   [8]  05 DC 8F CB 8F D3 8F 00
 (4.6300)  can1  18840401   [8]  05 DC 8F CB 8F D3 8F 00
 (4.6300)  can1  18C00401   [8]  05 FC 2F 56 30 70 30 00
 (4.6310)  can1  8101201   [8]  00 00 6F 90 13 8D 01 00
 (4.6310)  can1  8010C01   [8]  00 00 00 00 00 00 00 00
 (4.6360)  can1  89A0C02   [8]  00 00 00 00 00 00 00 00
 (4.6370)  can1  8030C02   [8]  00 00 2A 68 2A 68 92 17
 (4.6370)  can1  8580C02   [8]  00 00 00 00 00 00 00 00
 (4.6390)  can1  4100209   [8]  00 00 00 00 00 00 00 00
 (4.6390)  can1  4100208   [8]  00 00 00 00 00 00 00 00
 (4.6460)  can1  8100302   [5]  00 25 0A 00 07
 (4.6480)  can1  4100209   [8]  00 00 00 00 00 00 00 00
 (4.6480)  can1  4100208   [8]  00 00 00 00 00 00 00 00
 (4.6560)  can1  89A0C02   [8]  00 00 00 00 00 00 00 00
 (4.6570)  can1  8030C02   [8]  00 00 2A 68 2A 68 92 17
 (4.6570)  can1  8580C02   [8]  00 00 00 00 00 00 00 00
 (4.6590)  can1  4100209   [8]  00 00 00 00 00 00 00 00
 (4.6590)  can1  4100208   [8]  00 00 00 00 00 00 00 00
 (4.6680)  can1  4100209   [8]  00 00 00 00 00 00 00 00
 (4.6680)  can1  4100208   [8]  00 00 00 00 00 00 00 00
 (4.6710)  can1  8100302   [5]  00 25 0A 00 07
 (4.6760)  can1  89A0C02   [8]  00 00 00 00 00 00 00 00
 (4.6760)  can1  8030C02   [8]  00 00 2A 68 2A 68 92 17
 (4.6770)  can1  8041001   [8]  37 02 70 3C FD A2 1B 00
 (4.6770)  can1  8580C02   [8]  00 00 00 00 00 00 00 00
 (4.6780)  can1  4100209   [8]  00 00 00 00 00 00 00 00
 (4.6790)  can1  4100208   [8]  00 00 00 00 00 00 00 00
 (4.6790)  can1  18800401   [8]  06 D4 8F 0F 90 1C 90 00
 (4.6800)  can1  18840401   [8]  06 D4 8F 0F 90 1B 90 00
 (4.6810)  can1  18C00401   [8]  06 4E 30 A8 30 5D 30 00
 (4.6880)  can1  4100209   [8]  00 00 00 00 00 00 00 00
 (4.6880)  can1  4100208   [8]  00 00 00 00 00 00 00 00
 (4.6960)  can1  8100302   [5]  00 25 0A 00 07
 (4.6970)  can1  8580C02   [8]  00 00 00 00 00 00 00 00
 (4.6970)  can1  89A0C02   [8]  00 00 00 00 00 00 00 00
 (4.6970)  can1  8030C02   [8]  00 00 2A 68 2A 68 92 17
 (4.6980)  can1  4100209   [8]  00 00 00 00 00 00 00 00
 (4.6990)  can1  4100208   [8]  00 00 00 00 00 00 00 00
 (4.7080)  can1  4100209   [8]  00 00 00 00 00 00 00 00
 (4.7080)  can1  4100208   [8]  00 00 00 00 00 00 00 00
 (4.7160)  can1  89A0C02   [8]  00 00 00 00 00 00 00 00
 (4.7170)  can1  8030C02   [8]  00 00 2A 68 2A 68 92 17
 (4.7170)  can1  8580C02   [8]  00 00 00 00 00 00 00 00
 (4.7190)  can1  4100209   [8]  00 00 00 00 00 00 00 00
 (4.7190)  can1  4100208   [8]  00 00 00 00 00 00 00 00
 (4.7210)  can1  8100302   [5]  00 24 0A 00 07
 (4.7280)  can1  4100209   [8]  00 00 00 00 00 00 00 00
 (4.7280)  can1  4100208   [8]  00 00 00 00 00 00 00 00
 (4.7290)  can1  18800401   [8]  07 11 90 04 90 E6 8F 00
 (4.7290)  can1  18840401   [8]  07 11 90 04 90 E6 8F 00
 (4.7300)  can1  18C00401   [8]  07 B1 30 34 30 A5 30 00
 (4.7310)  can1  8101201   [8]  00 00 72 90 14 8D 00 00
 (4.7310)  can1  8010C01   [8]  00 00 00 00 00 00 00 00
 (4.7360)  can1  89A0C02   [8]  00 00 00 00 00 00 00 00
 (4.7360)  can1  8030C02   [8]  00 00 2A 68 2A 68 92 17
 (4.7370)  can1  8580C02   [8]  00 00 00 00 00 00 00 00
 (4.7380)  can1  4100209   [8]  00 00 00 00 00 00 00 00
 (4.7380)  can1  4100208   [8]  00 00 00 00 00 00 00 00
 (4.7460)  can1  8100302   [5]  00 25 0A 00 07
 (4.7480)  can1  4100209   [8]  00 00 00 00 00 00 00 00
 (4.7490)  can1  4100208   [8]  00 00 00 00 00 00 00 00
 (4.7560)  can1  89A0C02   [8]  00 00 00 00 00 00 00 00
 (4.7560)  can1  8030C02   [8]  00 00 2A 68 2A 68 92 17
 (4.7560)  can1  8580C02   [8]  00 00 00 00 00 00 00 00
 (4.7590)  can1  4100209   [8]  00 00 00 00 00 00 00 00
 (4.7600)  can1  4100208   [8]  00 00 00 00 00 00 00 00
 (4.7680)  can1  4100209   [8]  00 00 00 00 00 00 00 00
 (4.7680)  can1  4100208   [8]  00 00 00 00 00 00 00 00
 (4.7720)  can1  8100302   [5]  00 24 0A 00 07
 (4.7760)  can1  89A0C02   [8]  00 00 00 00 00 00 00 00
 (4.7770)  can1  8030C02   [8]  00 00 2A 68 2A 68 92 17
 (4.7770)  can1  8041001   [8]  37 02 70 3C FD A2 1B 00
 (4.7780)  can1  8580C02   [8]  00 00 00 00 00 00 00 00
 (4.7780)  can1  4100209   [8]  00 00 00 00 00 00 00 00
 (4.7790)  can1  4100208   [8]  00 00 00 00 00 00 00 00
 (4.7790)  can1  18800401   [8]  08 DD 8F 42 8D 33 90 00
 (4.7800)  can1  18840401   [8]  08 DD 8F 41 8D 33 90 00
 (4.7800)  can1  18C00401   [8]  08 04 30 8A 30 A1 2F 00
 (4.7880)  can1  4100209   [8]  00 00 00 00 00 00 00 00
 (4.7890)  can1  4100208   [8]  00 00 00 00 00 00 00 00
 (4.7960)  can1  8100302   [5]  00 25 0A 00 07
 (4.7960)  can1  8580C02   [8]  00 00 00 00 00 00 00 00
 (4.7970)  can1  89A0C02   [8]  00 00 00 00 00 00 00 00
 (4.7980)  can1  8030C02   [8]  00 00 2A 68 2A 68 92 17
 (4.7980)  can1  4100209   [8]  00 00 00 00 00 00 00 00
 (4.7990)  can1  4100208   [8]  00 00 00 00 00 00 00 00
 (4.8080)  can1  4100209   [8]  00 00 00 00 00 00 00 00
 (4.8090)  can1  4100208   [8]  00 00 00 00 00 00 00 00
 (4.8160)  can1  89A0C02   [8]  00 00 00 00 00 00 00 00
 (4.8160)  can1  8030C02   [8]  00 00 2A 68 2A 68 92 17
 (4.8170)  can1  8580C02   [8]  00 00 00 00 00 00 00 00
 (4.8190)  can1  4100209   [8]  00 00 00 00 00 00 00 00
 (4.8200)  can1  4100208   [8]  00 00 00 00 00 00 00 00
 (4.8220)  can1  8100302   [5]  00 25 0A 00 07
 (4.8280)  can1  4100209   [8]  00 00 00 00 00 00 00 00
 (4.8280)  can1  4100208   [8]  00 00 00 00 00 00 00 00
 (4.8290)  can1  18800401   [8]  09 27 90 E2 8F D3 8F 00
 (4.8300)  can1  18840401   [8]  09 27 90 E4 8F D3 8F 00
 (4.8300)  can1  18C00401   [8]  09 07 30 A6 2F 19 30 00
 (4.8320)  can1  8101201   [8]  00 00 6D 90 12 8D 01 00
 (4.8320)  can1  8010C01   [8]  00 00 00 00 00 00 00 00
 (4.8360)  can1  89A0C02   [8]  00 00 00 00 00 00 00 00
 (4.8370)  can1  8030C02   [8]  00 00 2A 68 2A 68 92 17
 (4.8370)  can1  8580C02   [8]  00 00 00 00 00 00 00 00
 (4.8380)  can1  4100209   [8]  00 00 00 00 00 00 00 00
 (4.8380)  can1  4100208   [8]  00 00 00 00 00 00 00 00
 (4.8460)  can1  8100302   [5]  00 23 0A 00 07
 (4.8480)  can1  4100209   [8]  00 00 00 00 00 00 00 00
 (4.8480)  can1  4100208   [8]  00 00 00 00 00 00 00 00
 (4.8560)  can1  89A0C02   [8]  00 00 00 00 00 00 00 00
 (4.8560)  can1  8030C02   [8]  00 00 2A 68 2A 68 92 17
 (4.8570)  can1  8580C02   [8]  00 00 00 00 00 00 00 00
 (4.8580)  can1  4100209   [8]  00 00 00 00 00 00 00 00
 (4.8580)  can1  4100208   [8]  00 00 00 00 00 00 00 00
 (4.8680)  can1  4100209   [8]  00 00 00 00 00 00 00 00
 (4.8680)  can1  4100208   [8]  00 00 00 00 00 00 00 00
 (4.8710)  can1  8100302   [5]  00 24 0A 00 07
 (4.8760)  can1  89A0C02   [8]  00 00 00 00 00 00 00 00
 (4.8760)  can1  8030C02   [8]  00 00 2A 68 2A 68 92 17
 (4.8760)  can1  8041001   [8]  37 02 70 3C FD A2 1B 00
 (4.8770)  can1  8580C02   [8]  00 00 00 00 00 00 00 00
 (4.8780)  can1  4100209   [8]  00 00 00 00 00 00 00 00
 (4.8790)  can1  4100208   [8]  00 00 00 00 00 00 00 00
 (4.8790)  can1  18800401   [8]  0A B5 8F C8 8F D4 8F 00
 (4.8800)  can1  18840401   [8]  0A B6 8F C8 8F D4 8F 00
 (4.8800)  can1  18C00401   [8]  0A 50 30 A0 30 6D 30 00
 (4.8880)  can1  4100209   [8]  00 00 00 00 00 00 00 00
 (4.8880)  can1  4100208   [8]  00 00 00 00 00 00 00 00
 (4.8960)  can1  8100302   [5]  00 25 0A 00 07
 (4.8970)  can1  8580C02   [8]  00 00 00 00 00 00 00 00
 (4.8970)  can1  89A0C02   [8]  00 00 00 00 00 00 00 00
 (4.8970)  can1  8030C02   [8]  00 00 2A 68 2A 68 92 17
 (4.8980)  can1  4100209   [8]  00 00 00 00 00 00 00 00
 (4.8980)  can1  4100208   [8]  00 00 00 00 00 00 00 00
 (4.9080)  can1  4100209   [8]  00 00 00 00 00 00 00 00
 (4.9090)  can1  4100208   [8]  00 00 00 00 00 00 00 00
 (4.9160)  can1  89A0C02   [8]  00 00 00 00 00 00 00 00
 (4.9170)  can1  8030C02   [8]  00 00 2A 68 2A 68 92 17
 (4.9170)  can1  8580C02   [8]  00 00 00 00 00 00 00 00
 (4.9180)  can1  4100209   [8]  00 00 00 00 00 00 00 00
 (4.9190)  can1  4100208   [8]  00 00 00 00 00 00 00 00
 (4.9210)  can1  8100302   [5]  00 24 0A 00 07
 (4.9280)  can1  4100209   [8]  00 00 00 00 00 00 00 00
 (4.9290)  can1  4100208   [8]  00 00 00 00 00 00 00 00
 (4.9290)  can1  18800401   [8]  0B 02 90 01 90 09 90 00
 (4.9300)  can1  18840401   [8]  0B 02 90 01 90 08 90 00
 (4.9300)  can1  18C00401   [8]  0B D5 30 79 30 C4 30 00
 (4.9330)  can1  8101201   [8]  00 00 6F 90 11 8D 00 00
 (4.9340)  can1  8010C01   [8]  00 00 00 00 00 00 00 00
 (4.9360)  can1  89A0C02   [8]  00 00 00 00 00 00 00 00
 (4.9360)  can1  8030C02   [8]  00 00 2A 68 2A 68 92 17
 (4.9370)  can1  8580C02   [8]  00 00 00 00 00 00 00 00
 (4.9380)  can1  4100209   [8]  00 00 00 00 00 00 00 00
 (4.9380)  can1  4100208   [8]  00 00 00 00 00 00 00 00
 (4.9460)  can1  8100302   [5]  00 25 0A 00 07
 (4.9480)  can1  4100209   [8]  00 00 00 00 00 00 00 00
 (4.9480)  can1  4100208   [8]  00 00 00 00 00 00 00 00
 (4.9560)  can1  89A0C02   [8]  00 00 00 00 00 00 00 00
 (4.9570)  can1  8030C02   [8]  00 00 2A 68 2A 68 92 17
 (4.9570)  can1  8580C02   [8]  00 00 00 00 00 00 00 00
 (4.9590)  can1  4100209   [8]  00 00 00 00 00 00 00 00
 (4.9590)  can1  4100208   [8]  00 00 00 00 00 00 00 00
 (4.9680)  can1  4100209   [8]  00 00 00 00 00 00 00 00
 (4.9690)  can1  4100208   [8]  00 00 00 00 00 00 00 00
 (4.9710)  can1  8100302   [5]  00 25 0A 00 07
 (4.9760)  can1  89A0C02   [8]  00 00 00 00 00 00 00 00
 (4.9760)  can1  8030C02   [8]  00 00 2A 68 2A 68 92 17
 (4.9770)  can1  8041001   [8]  37 02 70 3C FD A2 1B 00
 (4.9780)  can1  8580C02   [8]  00 00 00 00 00 00 00 00
 (4.9780)  can1  4100209   [8]  00 00 00 00 00 00 00 00
 (4.9790)  can1  4100208   [8]  00 00 00 00 00 00 00 00
 (4.9800)  can1  18800401   [8]  0C 01 90 E7 8F E4 8F 00
 (4.9800)  can1  18840401   [8]  0C 01 90 E7 8F E4 8F 00
 (4.9810)  can1  18C00401   [8]  0C 50 30 7E 30 08 30 00
 (4.9880)  can1  4100209   [8]  00 00 00 00 00 00 00 00
 (4.9890)  can1  4100208   [8]  00 00 00 00 00 00 00 00
 (4.9960)  can1  8100302   [5]  00 25 0A 00 07
 (4.9970)  can1  8580C02   [8]  00 00 00 00 00 00 00 00
 (4.9970)  can1  89A0C02   [8]  00 00 00 00 00 00 00 00
 (4.9980)  can1  8030C02   [8]  00 00 2A 68 2A 68 92 17
 (4.9980)  can1  4100209   [8]  00 00 00 00 00 00 00 00
 (4.9990)  can1  4100208   [8]  00 00 00 00 00 00 00 00
 (5.0080)  can1  4100209   [8]  00 00 00 00 00 00 00 00
 (5.0080)  can1  4100208   [8]  00 00 00 00 00 00 00 00
 (5.0160)  can1  89A0C02   [8]  00 00 00 00 00 00 00 00
 (5.0170)  can1  8030C02   [8]  00 00 2A 68 2A 68 92 17
 (5.0170)  can1  8580C02   [8]  00 00 00 00 00 00 00 00
 (5.0190)  can1  4100209   [8]  00 00 00 00 00 00 00 00
 (5.0190)  can1  4100208   [8]  00 00 00 00 00 00 00 00
 (5.0210)  can1  8100302   [5]  00 25 0A 00 07
 (5.0280)  can1  4100209   [8]  00 00 00 00 00 00 00 00
 (5.0290)  can1  4100208   [8]  00 00 00 00 00 00 00 00
 (5.0290)  can1  18800401   [8]  0D EF 8F 17 90 08 90 00
 (5.0300)  can1  18840401   [8]  0D EF 8F 17 90 08 90 00
 (5.0300)  can1  18C00401   [8]  0D 2A 30 45 2F 46 2F 00
 (5.0340)  can1  8101201   [8]  00 00 6E 90 11 8D 01 00
 (5.0490)  can1  8010C01   [8]  00 00 00 00 00 00 00 00
 (5.0570)  can1  89A0C02   [8]  00 00 00 00 00 00 00 00
 (5.0580)  can1  8030C02   [8]  00 00 2A 68 2A 68 92 17
 (5.0590)  can1  8580C02   [8]  00 00 00 00 00 00 00 00
 (5.0600)  can1  4100209   [8]  00 00 00 00 00 00 00 00
 (5.0600)  can1  4100208   [8]  00 00 00 00 00 00 00 00
 (5.0610)  can1  8100302   [5]  00 24 0A 00 07
 (5.0610)  can1  4100209   [8]  00 00 00 00 00 00 00 00
 (5.0610)  can1  4100208   [8]  00 00 00 00 00 00 00 00
 (5.0620)  can1  89A0C02   [8]  00 00 00 00 00 00 00 00
 (5.0630)  can1  8030C02   [8]  00 00 2A 68 2A 68 92 17
 (5.0630)  can1  8580C02   [8]  00 00 00 00 00 00 00 00
 (5.0640)  can1  4100209   [8]  00 00 00 00 00 00 00 00
 (5.0640)  can1  4100208   [8]  00 00 00 00 00 00 00 00
 (5.0680)  can1  4100209   [8]  00 00 00 00 00 00 00 00
 (5.0680)  can1  4100208   [8]  00 00 00 00 00 00 00 00
 (5.0710)  can1  8100302   [5]  00 24 0A 00 07
 (5.0760)  can1  89A0C02   [8]  00 00 00 00 00 00 00 00
 (5.0770)  can1  8030C02   [8]  00 00 2A 68 2A 68 92 17
 (5.0770)  can1  8041001   [8]  37 02 70 3C FD A2 1B 00
 (5.0770)  can1  8580C02   [8]  00 00 00 00 00 00 00 00
 (5.0780)  can1  4100209   [8]  00 00 00 00 00 00 00 00
 (5.0790)  can1  4100208   [8]  00 00 00 00 00 00 00 00
 (5.0790)  can1  18800401   [8]  0E CA 8F C1 8F A6 8F 00
 (5.0800)  can1  18840401   [8]  0E C9 8F C0 8F A6 8F 00
 (5.0810)  can1  18C00401   [8]  0E 59 2F F0 2F 17 30 00
 (5.0880)  can1  4100209   [8]  00 00 00 00 00 00 00 00
 (5.0880)  can1  4100208   [8]  00 00 00 00 00 00 00 00
 (5.0960)  can1  8100302   [5]  00 24 0A 00 07
 (5.0960)  can1  8580C02   [8]  00 00 00 00 00 00 00 00
