 (1.3890)  can1  585FF72   [8]  09 80 60 09 60 09 FD DC
 (1.4800)  can1  4100209   [8]  25 66 09 00 00 00 00 00
 (1.4800)  can1  4100208   [8]  1F 17 09 00 00 00 00 00
 (1.4810)  can1  89A0C02   [8]  99 17 00 00 00 00 00 00
 (1.4810)  can1  8030C02   [8]  00 00 2A 68 2A 68 92 17
 (1.4810)  can1  4100209   [8]  33 66 09 00 00 00 00 00
 (1.4810)  can1  4100208   [8]  2E 17 09 00 03 00 00 00
 (1.4820)  can1  5807202   [8]  0E 80 00 00 E0 01 02 6A
 (1.4820)  can1  5817202   [8]  01 00 10 27 10 27 09 E3
 (1.4820)  can1  5907102   [8]  0E 80 00 00 E0 01 02 6A
 (1.4820)  can1  586FF72   [8]  02 80 FF FF FF FF F2 63
 (1.4830)  can1  5827202   [8]  FA 00 00 00 00 00 02 D4
 (1.4830)  can1  5917102   [8]  01 00 10 27 10 27 09 E3
 (1.4830)  can1  5927102   [8]  FA 00 00 00 00 00 02 D4
 (1.4830)  can1  5837202   [8]  2C 41 06 00 00 00 02 E0
 (1.4840)  can1  5937102   [8]  2C 41 06 00 00 00 02 E0
 (1.4840)  can1  5847270   [8]  00 00 00 00 00 00 02 9F
 (1.4840)  can1  5947102   [8]  00 00 00 00 00 00 02 9F
 (1.4850)  can1  89A0C02   [8]  FF 3A 00 00 00 00 00 00
 (1.4850)  can1  8580C02   [8]  03 00 FE FF 04 00 00 00
 (1.4860)  can1  8030C02   [8]  00 00 2A 68 2A 68 92 17
 (1.4860)  can1  8100302   [5]  03 00 0A 00 09
 (1.4870)  can1  4100209   [8]  34 66 09 00 03 00 00 00
 (1.4870)  can1  595FF71   [8]  0E 80 60 09 60 09 FB 5F
 (1.4880)  can1  596FF71   [8]  0C 80 FF FF FF FF FD 4A
 (1.4880)  can1  4100208   [8]  2E 17 09 00 03 00 00 00
 (1.4890)  can1  585FF72   [8]  09 80 60 09 60 09 F0 DC
 (1.4890)  can1  18800401   [8]  0F 9D 92 F5 92 2B 93 00
 (1.4890)  can1  18840401   [8]  0F C0 92 18 93 4E 93 00
 (1.4890)  can1  18C00401   [8]  0F 8C 2E B1 2E D2 2E 00
 (1.4900)  can1  404FF03   [1]  00
 (1.4900)  can1  4100209   [8]  34 66 09 00 03 00 00 00
 (1.4900)  can1  597FF71   [8]  02 08 89 10 FF FF FA 99
 (1.4900)  can1  599FF71   [8]  1A D0 02 81 02 00 FB 87
 (1.4910)  can1  4100208   [8]  2F 17 09 00 03 00 00 00
 (1.4910)  can1  8250C03   [8]  3B 00 35 01 00 00 2D 00
 (1.4910)  can1  8840C03   [8]  30 00 15 00 21 00 07 00
 (1.4910)  can1  88D0C03   [8]  19 00 00 00 63 00 70 00
 (1.4920)  can1  89A0C02   [8]  99 8D 00 00 99 17 00 00
 (1.4920)  can1  8030C02   [8]  00 00 37 01 1F FF 4C 0F
 (1.4920)  can1  586FF72   [8]  0A 80 FF FF FF FF F3 9D
 (1.4930)  can1  8580C02   [8]  08 00 01 00 04 00 04 00
 (1.4930)  can1  4100209   [8]  35 66 09 00 03 00 00 00
 (1.4930)  can1  595FF71   [8]  0E 80 60 09 60 09 FC 5F
 (1.4940)  can1  596FF71   [8]  16 80 FF FF FF FF FE CF
 (1.4940)  can1  4100208   [8]  2F 17 09 00 00 00 00 00
 (1.4940)  can1  8101201   [8]  D9 66 8D 93 AC 90 98 00
 (1.4950)  can1  8010C01   [8]  55 66 00 00 00 00 00 00
 (1.4950)  can1  8100302   [5]  03 00 0A 00 09
 (1.4950)  can1  585FF72   [8]  0E 80 60 09 60 09 F1 5F
 (1.4960)  can1  4100209   [8]  35 66 09 00 00 00 00 00
 (1.4970)  can1  4100208   [8]  30 17 09 00 03 00 00 00
 (1.4970)  can1  89A0C02   [8]  98 03 01 00 FF 75 00 00
 (1.4970)  can1  8030C02   [8]  00 00 2A 68 2A 68 92 17
 (1.4970)  can1  8580C02   [8]  0F 00 07 00 04 00 00 00
 (1.4980)  can1  586FF72   [8]  13 80 FF FF FF FF F4 E4
 (1.4980)  can1  4100209   [8]  35 66 09 00 03 00 00 00
 (1.4980)  can1  595FF71   [8]  0E 80 60 09 60 09 FD 5F
 (1.4990)  can1  596FF71   [8]  0A 80 FF FF FF FF FF 9D
 (1.4990)  can1  4100208   [8]  30 17 09 00 03 00 00 00
 (1.4990)  can1  585FF72   [8]  0E 80 60 09 60 09 F2 5F
 (1.5000)  can1  8100302   [5]  03 00 0A 00 09
 (1.5000)  can1  4100209   [8]  36 66 09 00 03 00 00 00
 (1.5000)  can1  404FF07   [1]  00
 (1.5000)  can1  4100208   [8]  31 17 09 00 03 00 00 00
 (1.5010)  can1  5807202   [8]  0E 80 00 00 E0 01 03 6A
 (1.5010)  can1  5817202   [8]  01 00 10 27 10 27 0A E3
 (1.5010)  can1  5907102   [8]  0E 80 00 00 E0 01 03 6A
 (1.5020)  can1  586FF72   [8]  06 80 FF FF FF FF F5 1C
 (1.5020)  can1  5827202   [8]  FA 00 00 00 00 00 03 D4
 (1.5020)  can1  587FF72   [8]  14 08 6B 10 FF FF FB 02
 (1.5030)  can1  588FF72   [8]  40 01 5A FF FF FF FB 63
 (1.5030)  can1  5837202   [8]  2C 41 06 00 00 00 03 E0
 (1.5030)  can1  589FF72   [8]  1A D0 02 81 02 00 FC 87
 (1.5040)  can1  5917102   [8]  01 00 10 27 10 27 0A E3
 (1.5040)  can1  5927102   [8]  FA 00 00 00 00 00 03 D4
 (1.5040)  can1  5847270   [8]  00 00 00 00 00 00 03 9F
 (1.5040)  can1  5937102   [8]  2C 41 06 00 00 00 03 E0
 (1.5050)  can1  404FF01   [1]  00
 (1.5050)  can1  5947102   [8]  00 00 00 00 00 00 03 9F
 (1.5050)  can1  8580C02   [8]  07 00 0D 00 04 00 04 00
 (1.5050)  can1  89A0C02   [8]  FF 75 00 00 32 E0 00 00
 (1.5060)  can1  8030C02   [8]  00 00 CB 00 AF 02 53 25
 (1.5060)  can1  4100209   [8]  37 66 09 00 03 00 00 00
 (1.5070)  can1  8041001   [8]  9D 02 E0 53 EA 66 3B 00
 (1.5070)  can1  80F1201   [4]  62 11 00 00
 (1.5070)  can1  595FF71   [8]  0E 80 60 09 60 09 FE 5F
 (1.5080)  can1  596FF71   [8]  FC 7F FF FF FF FF F0 E5
 (1.5080)  can1  8120C01   [8]  90 00 00 00 00 00 00 00
 (1.5080)  can1  4100208   [8]  32 17 09 00 03 00 00 00
 (1.5080)  can1  18800401   [8]  10 1E 93 19 93 0D 93 00
 (1.5090)  can1  18840401   [8]  10 47 93 43 93 37 93 00
 (1.5090)  can1  18C00401   [8]  10 B8 2E D8 2E 90 2E 00
 (1.5090)  can1  585FF72   [8]  0E 80 60 09 60 09 F3 5F
 (1.5100)  can1  528FF72   [8]  BF FF FA 00 00 00 F2 00
 (1.5100)  can1  529FF72   [8]  02 00 60 00 0E 00 0E 00
 (1.5100)  can1  52CFF72   [8]  00 00 EF FF EF FF 3A 00
 (1.5110)  can1  4100209   [8]  37 66 09 00 03 00 00 00
 (1.5110)  can1  528FF71   [8]  2F 00 F4 00 00 00 F2 00
 (1.5110)  can1  529FF71   [8]  F1 FF 57 00 0D 00 0E 00
 (1.5110)  can1  52CFF71   [8]  00 00 EF FF EF FF 3A 00
 (1.5120)  can1  4100208   [8]  32 17 09 00 03 00 00 00
 (1.5120)  can1  404FF02   [1]  00
 (1.5120)  can1  8100302   [5]  03 00 0A 00 09
 (1.5120)  can1  89A0C02   [8]  00 00 00 00 CC 46 00 00
 (1.5130)  can1  586FF72   [8]  04 80 FF FF FF FF F6 B4
 (1.5130)  can1  8580C02   [8]  FE FF 04 00 04 00 04 00
 (1.5140)  can1  8030C02   [8]  30 75 DC FD F5 FF 00 00
 (1.5150)  can1  4100209   [8]  38 66 09 00 03 00 00 00
 (1.5160)  can1  595FF71   [8]  0E 80 60 09 60 09 FF 5F
 (1.5160)  can1  596FF71   [8]  06 80 FF FF FF FF F1 1C
 (1.5160)  can1  598FF71   [8]  10 01 7B FF FF FF FB D4
 (1.5160)  can1  4100208   [8]  33 17 09 00 07 00 00 00
 (1.5170)  can1  585FF72   [8]  0E 80 60 09 60 09 F4 5F
 (1.5170)  can1  4100209   [8]  39 66 09 00 07 00 00 00
 (1.5170)  can1  4100208   [8]  34 17 09 00 03 00 00 00
 (1.5170)  can1  89A0C02   [8]  CC 46 00 00 33 2F 00 00
 (1.5170)  can1  8030C02   [8]  30 75 3D FF 0F FF 00 00
 (1.5180)  can1  8580C02   [8]  04 00 02 00 04 00 0A 00
 (1.5180)  can1  586FF72   [8]  08 80 FF FF FF FF F7 35
 (1.5180)  can1  8100302   [5]  03 00 0A 00 09
 (1.5190)  can1  4100209   [8]  3A 66 09 00 03 00 00 00
 (1.5190)  can1  595FF71   [8]  0E 80 60 09 60 09 F0 5F
 (1.5190)  can1  596FF71   [8]  0C 80 FF FF FF FF F2 4A
 (1.5200)  can1  4100208   [8]  35 17 09 00 03 00 00 00
 (1.5210)  can1  585FF72   [8]  0E 80 60 09 60 09 F5 5F
 (1.5210)  can1  18800401   [8]  11 FC 92 F7 92 02 93 00
 (1.5220)  can1  18840401   [8]  11 27 93 21 93 2B 93 00
 (1.5220)  can1  18C00401   [8]  11 AA 2E 3D 2E 65 2E 00
 (1.5220)  can1  18101203   [4]  54 2D E7 06
 (1.5230)  can1  4100209   [8]  3B 66 09 00 03 00 00 00
 (1.5230)  can1  597FF71   [8]  09 08 89 10 FF FF FB 9B
 (1.5230)  can1  599FF71   [8]  1A D0 02 81 02 00 FC 87
 (1.5230)  can1  4100208   [8]  35 17 09 00 03 00 00 00
 (1.5240)  can1  5807202   [8]  0E 80 00 00 E0 01 04 6A
 (1.5240)  can1  5817202   [8]  01 00 10 27 10 27 0B E3
 (1.5240)  can1  5907102   [8]  0E 80 00 00 E0 01 04 6A
 (1.5250)  can1  586FF72   [8]  0F 80 FF FF FF FF F8 B6
 (1.5250)  can1  5827202   [8]  FA 00 00 00 00 00 04 D4
 (1.5250)  can1  5917102   [8]  01 00 10 27 10 27 0B E3
 (1.5260)  can1  5927102   [8]  FA 00 00 00 00 00 04 D4
 (1.5260)  can1  5837202   [8]  2C 41 06 00 00 00 04 E0
 (1.5270)  can1  5937102   [8]  2C 41 06 00 00 00 04 E0
 (1.5270)  can1  5847270   [8]  00 00 00 00 00 00 04 9F
 (1.5270)  can1  5947102   [8]  00 00 00 00 00 00 04 9F
 (1.5280)  can1  89A0C02   [8]  99 8D 00 00 66 5E 00 00
 (1.5280)  can1  8580C02   [8]  08 00 05 00 04 00 04 00
 (1.5290)  can1  8030C02   [8]  00 00 37 01 60 00 4C 0F
 (1.5290)  can1  4100209   [8]  3B 66 09 00 03 00 00 00
 (1.5300)  can1  595FF71   [8]  0E 80 60 09 60 09 F1 5F
 (1.5300)  can1  596FF71   [8]  09 80 FF FF FF FF F3 61
 (1.5300)  can1  4100208   [8]  36 17 09 00 03 00 00 00
 (1.5310)  can1  8100302   [5]  03 00 0A 00 0A
 (1.5310)  can1  8101201   [8]  DA 66 83 93 AB 90 9B 00
 (1.5310)  can1  585FF72   [8]  0E 80 60 09 60 09 F6 5F
 (1.5310)  can1  8010C01   [8]  58 66 00 00 00 00 00 00
 (1.5350)  can1  4100209   [8]  3C 66 09 00 03 00 00 00
 (1.5360)  can1  4100208   [8]  37 17 09 00 07 00 00 00
 (1.5380)  can1  89A0C02   [8]  32 6A 00 00 FF B0 00 00
 (1.5380)  can1  8030C02   [8]  00 00 95 00 D8 01 BD 18
 (1.5390)  can1  586FF72   [8]  06 80 FF FF FF FF F9 1C
 (1.5390)  can1  8580C02   [8]  06 00 0A 00 0A 00 04 00
 (1.5450)  can1  4100209   [8]  3D 66 09 00 07 00 00 00
 (1.5450)  can1  595FF71   [8]  0E 80 60 09 60 09 F2 5F
 (1.5460)  can1  596FF71   [8]  0A 80 FF FF FF FF F4 9D
 (1.5460)  can1  4100208   [8]  38 17 09 00 03 00 00 00
 (1.5480)  can1  585FF72   [8]  0E 80 60 09 60 09 F7 5F
 (1.5530)  can1  8100302   [5]  03 00 0A 00 0A
 (1.5550)  can1  4100209   [8]  3E 66 09 00 03 00 00 00
 (1.5560)  can1  4100208   [8]  39 17 09 00 07 00 00 00
 (1.5580)  can1  89A0C02   [8]  FF 75 00 00 CC 46 00 00
 (1.5580)  can1  8030C02   [8]  22 1B CB 00 F5 FF 01 09
 (1.5590)  can1  586FF72   [8]  0C 80 FF FF FF FF FA 4A
 (1.5590)  can1  587FF72   [8]  10 08 6F 10 FF FF FC F7
 (1.5600)  can1  588FF72   [8]  40 01 5A FF FF FF FC 63
 (1.5600)  can1  589FF72   [8]  1A D0 02 81 02 00 FD 87
 (1.5600)  can1  8580C02   [8]  07 00 04 00 0A 00 04 00
 (1.5650)  can1  4100209   [8]  3E 66 09 00 03 00 00 00
 (1.5650)  can1  8041001   [8]  9D 02 E0 53 EA 66 3B 00
 (1.5660)  can1  18800401   [8]  12 3B 93 2E 93 E2 92 00
 (1.5670)  can1  595FF71   [8]  0E 80 60 09 60 09 F3 5F
 (1.5670)  can1  596FF71   [8]  09 80 FF FF FF FF F5 61
 (1.5680)  can1  18840401   [8]  12 64 93 57 93 0B 93 00
 (1.5680)  can1  4100208   [8]  3A 17 09 00 03 00 00 00
 (1.5680)  can1  18C00401   [8]  12 FA 2D D3 2D D6 2D 00
 (1.5690)  can1  585FF72   [8]  0E 80 60 09 60 09 F8 5F
 (1.5740)  can1  1948FF72   [8]  00 C0 00 55 FF FF 7E 91
 (1.5740)  can1  1949FF72   [8]  0D 80 00 0D 90 00 7F A9
 (1.5750)  can1  194AFF72   [8]  37 57 57 75 95 56 80 C5
 (1.5760)  can1  4100209   [8]  40 66 09 00 07 00 00 00
 (1.5760)  can1  194BFF72   [8]  72 F5 FF FF FF FF 81 E4
 (1.5760)  can1  194CFF72   [8]  FF FF FF FF FF FF 82 7C
 (1.5770)  can1  4100208   [8]  3B 17 09 00 07 00 00 00
 (1.5780)  can1  5807202   [8]  0E 80 00 00 E0 01 05 6A
 (1.5780)  can1  5817202   [8]  01 00 10 27 10 27 0C E3
 (1.5790)  can1  5907102   [8]  0E 80 00 00 E0 01 05 6A
 (1.5800)  can1  586FF72   [8]  10 80 FF FF FF FF FB 18
 (1.5800)  can1  5827202   [8]  FA 00 00 00 00 00 05 D4
 (1.5810)  can1  5917102   [8]  01 00 10 27 10 27 0C E3
 (1.5810)  can1  5927102   [8]  FA 00 00 00 00 00 05 D4
 (1.5820)  can1  5837202   [8]  2C 41 06 00 00 00 05 E0
 (1.5820)  can1  5937102   [8]  2C 41 06 00 00 00 05 E0
 (1.5820)  can1  5847270   [8]  00 00 00 00 00 00 05 9F
 (1.5830)  can1  5947102   [8]  00 00 00 00 00 00 05 9F
 (1.5830)  can1  8100302   [5]  03 00 0A 00 09
 (1.5830)  can1  8030C02   [8]  30 75 82 FF C7 FF 00 00
 (1.5830)  can1  8580C02   [8]  06 00 08 00 0A 00 0A 00
 (1.5840)  can1  89A0C02   [8]  32 6A 00 00 99 8D 00 00
 (1.5850)  can1  4100209   [8]  40 66 09 00 03 00 00 00
 (1.5850)  can1  595FF71   [8]  0E 80 60 09 60 09 F4 5F
 (1.5860)  can1  596FF71   [8]  08 80 FF FF FF FF F6 35
 (1.5870)  can1  598FF71   [8]  20 01 7A FF FF FF FC 3B
 (1.5870)  can1  4100208   [8]  3C 17 09 00 03 00 00 00
 (1.5880)  can1  585FF72   [8]  0E 80 60 09 60 09 F9 5F
 (1.5950)  can1  4100209   [8]  42 66 09 00 07 00 00 00
 (1.5960)  can1  4100208   [8]  3D 17 09 00 07 00 00 00
 (1.5980)  can1  89A0C02   [8]  66 5E 00 00 CC BC 00 00
 (1.5980)  can1  8030C02   [8]  30 75 6B FF 22 00 00 00
 (1.5990)  can1  8580C02   [8]  05 00 0B 00 0A 00 0A 00
 (1.5990)  can1  586FF72   [8]  0F 80 FF FF FF FF FC B6
 (1.6030)  can1  8100302   [5]  03 00 0A 00 0A
 (1.6050)  can1  4100209   [8]  42 66 09 00 03 00 00 00
 (1.6050)  can1  595FF71   [8]  0E 80 60 09 60 09 F5 5F
 (1.6060)  can1  596FF71   [8]  08 80 FF FF FF FF F7 35
 (1.6060)  can1  4100208   [8]  3E 17 09 00 03 00 00 00
 (1.6080)  can1  585FF72   [8]  0E 80 60 09 60 09 FA 5F
 (1.6130)  can1  18800401   [8]  13 D4 92 D4 92 DB 92 00
 (1.6140)  can1  18840401   [8]  13 FF 92 01 93 06 93 00
 (1.6150)  can1  18C00401   [8]  13 DC 2D 19 2E 25 2E 00
 (1.6150)  can1  4100209   [8]  44 66 09 00 07 00 00 00
 (1.6150)  can1  597FF71   [8]  08 08 89 10 FF FF FC CF
 (1.6160)  can1  599FF71   [8]  1A D0 02 81 02 00 FD 87
 (1.6160)  can1  4100208   [8]  3F 17 09 00 07 00 00 00
 (1.6180)  can1  89A0C02   [8]  66 5E 00 00 FF B0 00 00
 (1.6180)  can1  8030C02   [8]  30 75 6B FF 0B 00 00 00
 (1.6190)  can1  586FF72   [8]  04 80 FF FF FF FF FD B4
 (1.6190)  can1  8580C02   [8]  05 00 0A 00 0A 00 0A 00
 (1.6200)  can1  1948FF71   [8]  00 C0 00 55 FF FF 7E 91
 (1.6210)  can1  1949FF71   [8]  0D 80 00 0D A0 00 7F B9
 (1.6220)  can1  194AFF71   [8]  22 67 58 86 85 58 80 C4
 (1.6220)  can1  194BFF71   [8]  91 F5 FF FF FF FF 81 03
 (1.6230)  can1  194CFF71   [8]  FF FF FF FF FF FF 82 7C
 (1.6250)  can1  4100209   [8]  45 66 09 00 07 00 00 00
 (1.6260)  can1  595FF71   [8]  0E 80 60 09 60 09 F6 5F
 (1.6260)  can1  596FF71   [8]  0E 80 FF FF FF FF F8 E2
 (1.6270)  can1  4100208   [8]  40 17 09 00 03 00 00 00
 (1.6280)  can1  8100302   [5]  03 00 0A 00 0A
 (1.6280)  can1  585FF72   [8]  0E 80 60 09 60 09 FB 5F
 (1.6300)  can1  8101201   [8]  D8 66 85 93 AB 90 8F 00
 (1.6300)  can1  8010C01   [8]  58 66 00 00 00 00 00 00
 (1.6350)  can1  4100209   [8]  46 66 09 00 03 00 00 00
 (1.6360)  can1  4100208   [8]  41 17 09 00 07 00 00 00
 (1.6380)  can1  5807202   [8]  0E 80 00 00 E0 01 06 6A
 (1.6390)  can1  5817202   [8]  01 00 10 27 10 27 0D E3
 (1.6400)  can1  5907102   [8]  0E 80 00 00 E0 01 06 6A
 (1.6400)  can1  586FF72   [8]  0A 80 FF FF FF FF FE 9D
 (1.6410)  can1  5827202   [8]  FA 00 00 00 00 00 06 D4
 (1.6410)  can1  5917102   [8]  01 00 10 27 10 27 0D E3
 (1.6420)  can1  5927102   [8]  FA 00 00 00 00 00 06 D4
 (1.6420)  can1  5837202   [8]  2C 41 06 00 00 00 06 E0
 (1.6430)  can1  5937102   [8]  2C 41 06 00 00 00 06 E0
 (1.6430)  can1  5847270   [8]  00 00 00 00 00 00 06 9F
 (1.6430)  can1  5947102   [8]  00 00 00 00 00 00 06 9F
 (1.6440)  can1  89A0C02   [8]  32 A5 00 00 33 2F 00 00
 (1.6440)  can1  8580C02   [8]  09 00 02 00 0A 00 04 00
 (1.6440)  can1  8030C02   [8]  00 00 A2 01 8A FF 97 15
 (1.6450)  can1  4100209   [8]  47 66 09 00 07 00 00 00
 (1.6460)  can1  595FF71   [8]  0E 80 60 09 60 09 F7 5F
 (1.6460)  can1  596FF71   [8]  10 80 FF FF FF FF F9 18
 (1.6470)  can1  4100208   [8]  42 17 09 00 07 00 00 00
 (1.6480)  can1  585FF72   [8]  0E 80 60 09 60 09 FC 5F
 (1.6530)  can1  8100302   [5]  03 00 0A 00 0A
 (1.6550)  can1  4100209   [8]  47 66 09 00 03 00 00 00
 (1.6560)  can1  4100208   [8]  44 17 09 00 07 00 00 00
 (1.6580)  can1  89A0C02   [8]  CC BC 00 00 FF 75 00 00
 (1.6580)  can1  8030C02   [8]  00 00 0D 02 CB 00 E2 1B
 (1.6590)  can1  8580C02   [8]  0B 00 07 00 0A 00 04 00
 (1.6590)  can1  586FF72   [8]  14 80 FF FF FF FF FF 67
 (1.6600)  can1  587FF72   [8]  0E 08 6F 10 FF FF FD 0D
 (1.6610)  can1  588FF72   [8]  40 01 5A FF FF FF FD 63
 (1.6610)  can1  589FF72   [8]  1A D0 02 81 02 00 FE 87
 (1.6650)  can1  4100209   [8]  49 66 09 00 07 00 00 00
 (1.6650)  can1  8041001   [8]  9D 02 E0 53 EA 66 3B 00
 (1.6660)  can1  18800401   [8]  14 E1 92 15 93 0F 93 00
 (1.6670)  can1  595FF71   [8]  0E 80 60 09 60 09 F8 5F
 (1.6670)  can1  596FF71   [8]  08 80 FF FF FF FF FA 35
 (1.6670)  can1  18840401   [8]  14 0B 93 3D 93 39 93 00
 (1.6670)  can1  4100208   [8]  45 17 09 00 07 00 00 00
 (1.6680)  can1  18C00401   [8]  14 25 2E 38 2E 24 2E 00
 (1.6690)  can1  585FF72   [8]  0E 80 60 09 60 09 FD 5F
 (1.6750)  can1  4100209   [8]  4A 66 09 00 07 00 00 00
 (1.6760)  can1  4100208   [8]  45 17 09 00 03 00 00 00
 (1.6780)  can1  8100302   [5]  03 00 0A 00 0A
 (1.6780)  can1  8580C02   [8]  05 00 0E 00 04 00 0A 00
 (1.6790)  can1  89A0C02   [8]  66 5E 00 00 FF EB 00 00
 (1.6800)  can1  586FF72   [8]  12 80 FF FF FF FF F0 B0
 (1.6800)  can1  8030C02   [8]  16 48 6B FF 7E 00 82 04
 (1.6850)  can1  4100209   [8]  4B 66 09 00 03 00 00 00
 (1.6850)  can1  595FF71   [8]  0E 80 60 09 60 09 F9 5F
 (1.6860)  can1  596FF71   [8]  08 80 FF FF FF FF FB 35
 (1.6860)  can1  598FF71   [8]  10 01 7B FF FF FF FD D4
 (1.6870)  can1  4100208   [8]  47 17 09 00 07 00 00 00
 (1.6880)  can1  585FF72   [8]  0E 80 60 09 60 09 FE 5F
 (1.6950)  can1  4100209   [8]  4C 66 09 00 07 00 00 00
 (1.6960)  can1  4100208   [8]  48 17 09 00 07 00 00 00
 (1.6980)  can1  5807202   [8]  09 80 00 00 E0 01 07 E9
 (1.6980)  can1  5817202   [8]  01 00 10 27 10 27 0E E3
 (1.6990)  can1  5907102   [8]  09 80 00 00 E0 01 07 E9
 (1.7000)  can1  586FF72   [8]  03 80 FF FF FF FF F1 37
 (1.7000)  can1  5827202   [8]  FA 00 00 00 00 00 07 D4
 (1.7010)  can1  5917102   [8]  01 00 10 27 10 27 0E E3
 (1.7010)  can1  5927102   [8]  FA 00 00 00 00 00 07 D4
 (1.7020)  can1  5837202   [8]  2C 41 06 00 00 00 07 E0
 (1.7020)  can1  5937102   [8]  2C 41 06 00 00 00 07 E0
 (1.7030)  can1  5847270   [8]  00 00 00 00 00 00 07 9F
 (1.7040)  can1  5947102   [8]  00 00 00 00 00 00 07 9F
 (1.7040)  can1  89A0C02   [8]  66 5E 00 00 65 D4 00 00
 (1.7040)  can1  8580C02   [8]  05 00 0C 00 0A 00 0A 00
 (1.7040)  can1  8030C02   [8]  0E 63 6B FF 50 00 D0 01
 (1.7050)  can1  8100302   [5]  02 00 0A 00 0A
 (1.7050)  can1  4100209   [8]  4D 66 09 00 07 00 00 00
 (1.7050)  can1  595FF71   [8]  09 80 60 09 60 09 FA DC
 (1.7060)  can1  596FF71   [8]  13 80 FF FF FF FF FC E4
 (1.7070)  can1  4100208   [8]  49 17 09 00 07 00 00 00
 (1.7090)  can1  585FF72   [8]  0E 80 60 09 60 09 FF 5F
 (1.7130)  can1  18800401   [8]  15 1D 93 0A 93 FA 92 00
 (1.7140)  can1  18840401   [8]  15 43 93 34 93 25 93 00
 (1.7140)  can1  18C00401   [8]  15 43 2E FE 2D 1A 2E 00
 (1.7150)  can1  4100209   [8]  4F 66 09 00 07 00 00 00
 (1.7160)  can1  597FF71   [8]  07 08 89 10 FF FF FD B2
 (1.7160)  can1  599FF71   [8]  1A D0 02 81 02 00 FE 87
 (1.7160)  can1  4100208   [8]  4B 17 09 00 07 00 00 00
 (1.7180)  can1  89A0C02   [8]  32 E0 00 00 66 23 00 00
 (1.7180)  can1  8030C02   [8]  92 55 67 00 F8 FE 29 03
 (1.7190)  can1  8580C02   [8]  0D 00 02 00 0A 00 0A 00
 (1.7190)  can1  586FF72   [8]  0B 80 FF FF FF FF F2 C9
 (1.7250)  can1  4100209   [8]  50 66 09 00 07 00 00 00
 (1.7260)  can1  595FF71   [8]  09 80 60 09 60 09 FB DC
 (1.7270)  can1  596FF71   [8]  0C 80 FF FF FF FF FD 4A
 (1.7270)  can1  4100208   [8]  4C 17 09 00 07 00 00 00
 (1.7280)  can1  8100302   [5]  02 00 0A 00 0A
 (1.7280)  can1  585FF72   [8]  09 80 60 09 60 09 F0 DC
 (1.7300)  can1  8101201   [8]  E1 66 82 93 A8 90 71 00
 (1.7310)  can1  8010C01   [8]  5F 66 00 00 00 00 00 00
 (1.7350)  can1  4100209   [8]  51 66 09 00 07 00 00 00
 (1.7360)  can1  4100208   [8]  4D 17 09 00 03 00 00 00
 (1.7380)  can1  89A0C02   [8]  99 8D 00 00 CC 81 00 00
 (1.7380)  can1  8030C02   [8]  30 75 C7 FF B0 FF 00 00
 (1.7390)  can1  8580C02   [8]  08 00 07 00 04 00 0A 00
 (1.7390)  can1  586FF72   [8]  0A 80 FF FF FF FF F3 9D
 (1.7450)  can1  4100209   [8]  52 66 09 00 07 00 00 00
 (1.7460)  can1  595FF71   [8]  09 80 60 09 60 09 FC DC
 (1.7460)  can1  596FF71   [8]  07 80 FF FF FF FF FE 48
 (1.7470)  can1  4100208   [8]  4E 17 09 00 07 00 00 00
 (1.7480)  can1  585FF72   [8]  09 80 60 09 60 09 F1 DC
 (1.7530)  can1  8100302   [5]  02 00 0A 00 0A
 (1.7550)  can1  4100209   [8]  53 66 09 00 03 00 00 00
 (1.7560)  can1  4100208   [8]  4F 17 09 00 07 00 00 00
 (1.7580)  can1  5807202   [8]  09 80 00 00 E0 01 08 E9
 (1.7580)  can1  5817202   [8]  01 00 10 27 10 27 0F E3
 (1.7590)  can1  5907102   [8]  09 80 00 00 E0 01 08 E9
 (1.7590)  can1  586FF72   [8]  0E 80 FF FF FF FF F4 E2
 (1.7600)  can1  5827202   [8]  FA 00 00 00 00 00 08 D4
 (1.7610)  can1  587FF72   [8]  11 08 6D 10 FF FF FE E6
 (1.7610)  can1  588FF72   [8]  40 01 5A FF FF FF FE 63
 (1.7620)  can1  5837202   [8]  2C 41 06 00 00 00 08 E0
 (1.7630)  can1  589FF72   [8]  1A D0 02 81 02 00 FF 87
 (1.7630)  can1  5917102   [8]  01 00 10 27 10 27 0F E3
 (1.7630)  can1  5927102   [8]  FA 00 00 00 00 00 08 D4
 (1.7640)  can1  5847270   [8]  00 00 00 00 00 00 08 9F
 (1.7640)  can1  5937102   [8]  2C 41 06 00 00 00 08 E0
 (1.7640)  can1  5947102   [8]  00 00 00 00 00 00 08 9F
 (1.7650)  can1  8580C02   [8]  04 00 07 00 0A 00 04 00
 (1.7650)  can1  89A0C02   [8]  99 52 00 00 FF 75 00 00
 (1.7660)  can1  8030C02   [8]  22 1B 2A 00 CB 00 01 09
 (1.7670)  can1  4100209   [8]  54 66 09 00 07 00 00 00
 (1.7670)  can1  8041001   [8]  9D 02 E0 53 EA 66 3B 00
 (1.7680)  can1  18800401   [8]  16 03 93 14 93 3C 93 00
 (1.7680)  can1  595FF71   [8]  09 80 60 09 60 09 FD DC
 (1.7680)  can1  596FF71   [8]  0D 80 FF FF FF FF FF 1E
 (1.7690)  can1  18840401   [8]  16 1F 93 30 93 58 93 00
 (1.7690)  can1  4100208   [8]  50 17 09 00 07 00 00 00
 (1.7690)  can1  18C00401   [8]  16 D6 2D D6 2D 78 2D 00
 (1.7700)  can1  585FF72   [8]  09 80 60 09 60 09 F2 DC
 (1.7750)  can1  4100209   [8]  56 66 09 00 07 00 00 00
 (1.7760)  can1  4100208   [8]  52 17 09 00 07 00 00 00
 (1.7780)  can1  8100302   [5]  02 00 0A 00 0A
 (1.7790)  can1  8580C02   [8]  09 00 09 00 0A 00 0A 00
 (1.7790)  can1  89A0C02   [8]  65 99 00 00 32 A5 00 00
 (1.7790)  can1  586FF72   [8]  0C 80 FF FF FF FF F5 4A
 (1.7800)  can1  8030C02   [8]  30 75 DE FF F5 FF 00 00
 (1.7850)  can1  4100209   [8]  57 66 09 00 07 00 00 00
 (1.7850)  can1  595FF71   [8]  09 80 60 09 60 09 FE DC
 (1.7860)  can1  596FF71   [8]  19 80 FF FF FF FF F0 B2
 (1.7870)  can1  598FF71   [8]  20 01 7A FF FF FF FE 3B
 (1.7870)  can1  4100208   [8]  53 17 09 00 07 00 00 00
 (1.7890)  can1  585FF72   [8]  09 80 60 09 60 09 F3 DC
 (1.7950)  can1  4100209   [8]  58 66 09 00 07 00 00 00
 (1.7960)  can1  4100208   [8]  54 17 09 00 07 00 00 00
 (1.7980)  can1  89A0C02   [8]  FE 26 01 00 99 8D 00 00
 (1.7980)  can1  8030C02   [8]  A8 04 F2 00 C7 FF 40 0B
 (1.7990)  can1  8580C02   [8]  11 00 08 00 0A 00 0A 00
 (1.7990)  can1  586FF72   [8]  07 80 FF FF FF FF F6 48
 (1.8030)  can1  8100302   [5]  02 00 0A 00 0A
 (1.8050)  can1  4100209   [8]  59 66 09 00 03 00 00 00
 (1.8050)  can1  595FF71   [8]  09 80 60 09 60 09 FF DC
 (1.8060)  can1  596FF71   [8]  13 80 FF FF FF FF F1 E4
 (1.8070)  can1  4100208   [8]  56 17 09 00 07 00 00 00
 (1.8080)  can1  585FF72   [8]  09 80 60 09 60 09 F4 DC
 (1.8140)  can1  18800401   [8]  17 32 93 00 00 00 00 00
 (1.8150)  can1  18840401   [8]  17 4F 93 00 00 00 00 00
 (1.8150)  can1  18C00401   [8]  17 58 2D 10 27 10 27 00
 (1.8160)  can1  4100209   [8]  5A 66 09 00 07 00 00 00
 (1.8160)  can1  597FF71   [8]  01 08 8C 10 FF FF FE 5A
 (1.8170)  can1  599FF71   [8]  1A D0 02 81 02 00 FF 87
 (1.8170)  can1  4100208   [8]  57 17 09 00 07 00 00 00
 (1.8180)  can1  5807202   [8]  04 80 00 00 E0 01 09 3C
 (1.8180)  can1  5817202   [8]  01 00 10 27 10 27 00 E3
 (1.8190)  can1  586FF72   [8]  0B 80 FF FF FF FF F7 C9
 (1.8200)  can1  5907102   [8]  04 80 00 00 E0 01 09 3C
 (1.8210)  can1  5827202   [8]  FA 00 00 00 00 00 09 D4
 (1.8210)  can1  5917102   [8]  01 00 10 27 10 27 00 E3
 (1.8220)  can1  5927102   [8]  FA 00 00 00 00 00 09 D4
 (1.8220)  can1  5837202   [8]  2C 41 06 00 00 00 09 E0
 (1.8230)  can1  5937102   [8]  2C 41 06 00 00 00 09 E0
 (1.8230)  can1  5847270   [8]  00 00 00 00 00 00 09 9F
 (1.8230)  can1  5947102   [8]  00 00 00 00 00 00 09 9F
 (1.8230)  can1  89A0C02   [8]  32 E0 00 00 99 52 00 00
 (1.8240)  can1  8580C02   [8]  0D 00 04 00 0A 00 0A 00
 (1.8240)  can1  8030C02   [8]  92 55 67 00 54 FF 29 03
 (1.8250)  can1  4100209   [8]  5B 66 09 00 07 00 00 00
 (1.8250)  can1  596FF71   [8]  05 80 FF FF FF FF F2 E0
 (1.8260)  can1  4100208   [8]  58 17 09 00 07 00 00 00
 (1.8280)  can1  8100302   [5]  01 00 0A 00 0A
 (1.8290)  can1  585FF72   [8]  09 80 60 09 60 09 F5 DC
 (1.8290)  can1  1948FF72   [8]  00 C0 00 55 FF FF 83 96
 (1.8300)  can1  1949FF72   [8]  0D 80 00 0D A0 00 84 BE
 (1.8310)  can1  194AFF72   [8]  37 77 57 77 75 57 85 CD
 (1.8310)  can1  194BFF72   [8]  77 F5 FF FF FF FF 86 EE
 (1.8310)  can1  194CFF72   [8]  FF FF FF FF FF FF 87 81
 (1.8320)  can1  595FF71   [8]  04 80 60 09 60 09 F0 09
 (1.8320)  can1  8101201   [8]  E1 66 90 93 A9 90 60 00
 (1.8330)  can1  8010C01   [8]  61 66 00 00 00 00 00 00
 (1.8350)  can1  4100209   [8]  5D 66 09 00 07 00 00 00
 (1.8360)  can1  4100208   [8]  59 17 09 00 07 00 00 00
 (1.8380)  can1  89A0C02   [8]  FF 3A 00 00 CC 81 00 00
 (1.8380)  can1  8030C02   [8]  30 75 26 FF B0 FF 00 00
 (1.8390)  can1  8580C02   [8]  03 00 07 00 0A 00 0A 00
 (1.8400)  can1  586FF72   [8]  15 80 FF FF FF FF F8 33
 (1.8450)  can1  4100209   [8]  5E 66 09 00 07 00 00 00
 (1.8450)  can1  596FF71   [8]  FF 7F FF FF FF FF F3 19
 (1.8460)  can1  4100208   [8]  5B 17 09 00 07 00 00 00
 (1.8490)  can1  585FF72   [8]  04 80 60 09 60 09 F6 09
 (1.8500)  can1  595FF71   [8]  04 80 60 09 60 09 F1 09
 (1.8530)  can1  8100302   [5]  01 00 0A 00 0A
 (1.8550)  can1  4100209   [8]  5F 66 09 00 03 00 00 00
 (1.8560)  can1  4100208   [8]  5B 17 09 00 03 00 00 00
 (1.8580)  can1  89A0C02   [8]  00 00 00 00 CB F7 00 00
 (1.8580)  can1  8030C02   [8]  00 00 7D FE 1A 03 9E 2B
 (1.8590)  can1  8580C02   [8]  00 00 0E 00 04 00 04 00
 (1.8590)  can1  586FF72   [8]  03 80 FF FF FF FF F9 37
 (1.8600)  can1  587FF72   [8]  06 08 72 10 FF FF FF 81
 (1.8610)  can1  588FF72   [8]  40 01 5A FF FF FF FF 63
 (1.8610)  can1  589FF72   [8]  1A D0 02 81 02 00 F0 87
 (1.8650)  can1  4100209   [8]  60 66 09 00 07 00 00 00
 (1.8650)  can1  8041001   [8]  9D 02 E0 53 EA 66 3B 00
 (1.8660)  can1  18800401   [8]  00 93 93 A9 92 88 92 00
 (1.8670)  can1  18840401   [8]  00 AB 93 C0 92 A9 92 00
 (1.8670)  can1  18C00401   [8]  00 FD 2D ED 2D 37 2E 00
 (1.8670)  can1  4100208   [8]  5D 17 09 00 07 00 00 00
 (1.8690)  can1  585FF72   [8]  04 80 60 09 60 09 F7 09
 (1.8700)  can1  595FF71   [8]  04 80 60 09 60 09 F2 09
 (1.8710)  can1  596FF71   [8]  0E 80 FF FF FF FF F4 E2
 (1.8750)  can1  4100209   [8]  61 66 09 00 07 00 00 00
 (1.8750)  can1  1948FF71   [8]  00 C0 00 55 FF FF 83 96
 (1.8760)  can1  1949FF71   [8]  0D 80 00 0D C0 00 84 DE
 (1.8770)  can1  194AFF71   [8]  21 07 58 86 35 58 85 18
 (1.8770)  can1  194BFF71   [8]  86 F5 FF FF FF FF 86 FD
 (1.8780)  can1  4100208   [8]  5E 17 09 00 07 00 00 00
 (1.8780)  can1  194CFF71   [8]  FF FF FF FF FF FF 87 81
 (1.8790)  can1  5807202   [8]  04 80 00 00 E0 01 0A 3C
 (1.8790)  can1  5817202   [8]  01 00 10 27 10 27 01 E3
 (1.8800)  can1  586FF72   [8]  05 80 FF FF FF FF FA E0
 (1.8800)  can1  5907102   [8]  04 80 00 00 E0 01 0A 3C
 (1.8800)  can1  5827202   [8]  FA 00 00 00 00 00 0A D4
 (1.8810)  can1  5917102   [8]  01 00 10 27 10 27 01 E3
 (1.8820)  can1  5927102   [8]  FA 00 00 00 00 00 0A D4
 (1.8830)  can1  5837202   [8]  2C 41 06 00 00 00 0A E0
 (1.8830)  can1  5937102   [8]  2C 41 06 00 00 00 0A E0
 (1.8830)  can1  5847270   [8]  00 00 00 00 00 00 0A 9F
 (1.8840)  can1  5947102   [8]  00 00 00 00 00 00 0A 9F
 (1.8840)  can1  8100302   [5]  01 00 0A 00 0A
 (1.8840)  can1  89A0C02   [8]  32 A5 00 00 66 23 00 00
 (1.8840)  can1  8030C02   [8]  30 75 F5 FF F8 FE 00 00
 (1.8850)  can1  8580C02   [8]  09 00 02 00 0A 00 0A 00
 (1.8860)  can1  4100209   [8]  62 66 09 00 03 00 00 00
 (1.8860)  can1  4100208   [8]  5F 17 09 00 03 00 00 00
 (1.8880)  can1  585FF72   [8]  04 80 60 09 60 09 F8 09
 (1.8900)  can1  595FF71   [8]  04 80 60 09 60 09 F3 09
 (1.8910)  can1  596FF71   [8]  14 80 FF FF FF FF F5 67
 (1.8910)  can1  598FF71   [8]  10 01 7B FF FF FF FF D4
 (1.8950)  can1  4100209   [8]  63 66 09 00 07 00 00 00
 (1.8960)  can1  4100208   [8]  60 17 09 00 07 00 00 00
 (1.8980)  can1  89A0C02   [8]  FF EB 00 00 FF 3A 00 00
 (1.8980)  can1  8030C02   [8]  16 48 7E 00 26 FF 82 04
 (1.8990)  can1  8580C02   [8]  0E 00 03 00 0A 00 0A 00
 (1.8990)  can1  586FF72   [8]  0C 80 FF FF FF FF FB 4A
 (1.9030)  can1  8100302   [5]  01 00 0A 00 0A
 (1.9050)  can1  4100209   [8]  64 66 09 00 03 00 00 00
 (1.9060)  can1  4100208   [8]  61 17 09 00 03 00 00 00
 (1.9090)  can1  585FF72   [8]  04 80 60 09 60 09 F9 09
 (1.9110)  can1  595FF71   [8]  04 80 60 09 60 09 F4 09
 (1.9110)  can1  596FF71   [8]  0F 80 FF FF FF FF F6 B6
 (1.9130)  can1  18800401   [8]  01 A0 92 A3 92 AB 92 00
 (1.9140)  can1  18840401   [8]  01 B4 92 C0 92 C1 92 00
 (1.9140)  can1  18C00401   [8]  01 1B 2E 5E 2E 2E 2E 00
 (1.9150)  can1  4100209   [8]  65 66 09 00 07 00 00 00
 (1.9150)  can1  597FF71   [8]  08 08 8C 10 FF FF FF F0
 (1.9160)  can1  599FF71   [8]  1A D0 02 81 02 00 F0 87
 (1.9170)  can1  4100208   [8]  62 17 09 00 07 00 00 00
 (1.9180)  can1  89A0C02   [8]  FF B0 00 00 99 8D 00 00
 (1.9180)  can1  8030C02   [8]  30 75 0B 00 C7 FF 00 00
 (1.9190)  can1  8580C02   [8]  0A 00 08 00 0A 00 0A 00
 (1.9190)  can1  586FF72   [8]  12 80 FF FF FF FF FC B0
 (1.9250)  can1  4100209   [8]  66 66 09 00 03 00 00 00
 (1.9260)  can1  4100208   [8]  63 17 09 00 07 00 00 00
 (1.9280)  can1  8100302   [5]  01 00 0A 00 0A
 (1.9290)  can1  585FF72   [8]  04 80 60 09 60 09 FA 09
 (1.9300)  can1  595FF71   [8]  04 80 60 09 60 09 F5 09
 (1.9310)  can1  596FF71   [8]  0B 80 FF FF FF FF F7 C9
 (1.9320)  can1  8101201   [8]  E8 66 93 93 A8 90 5D 00
 (1.9330)  can1  8010C01   [8]  68 66 00 00 00 00 00 00
 (1.9350)  can1  4100209   [8]  67 66 09 00 07 00 00 00
 (1.9360)  can1  4100208   [8]  64 17 09 00 03 00 00 00
 (1.9380)  can1  5807202   [8]  04 80 00 00 E0 01 0B 3C
 (1.9380)  can1  5817202   [8]  01 00 10 27 10 27 02 E3
 (1.9390)  can1  586FF72   [8]  11 80 FF FF FF FF FD 4C
 (1.9400)  can1  5907102   [8]  04 80 00 00 E0 01 0B 3C
 (1.9400)  can1  5827202   [8]  FA 00 00 00 00 00 0B D4
 (1.9410)  can1  5917102   [8]  01 00 10 27 10 27 02 E3
 (1.9410)  can1  5927102   [8]  FA 00 00 00 00 00 0B D4
 (1.9410)  can1  5837202   [8]  2C 41 06 00 00 00 0B E0
 (1.9420)  can1  5937102   [8]  2C 41 06 00 00 00 0B E0
 (1.9430)  can1  5847270   [8]  00 00 00 00 00 00 0B 9F
 (1.9430)  can1  5947102   [8]  00 00 00 00 00 00 0B 9F
 (1.9440)  can1  89A0C02   [8]  CC 81 00 00 65 D4 00 00
 (1.9440)  can1  8580C02   [8]  07 00 0C 00 04 00 0A 00
 (1.9440)  can1  8030C02   [8]  0E 63 B0 FF 50 00 D0 01
 (1.9450)  can1  4100209   [8]  68 66 09 00 03 00 00 00
 (1.9460)  can1  4100208   [8]  64 17 09 00 03 00 00 00
 (1.9480)  can1  585FF72   [8]  04 80 60 09 60 09 FB 09
 (1.9530)  can1  8100302   [5]  01 00 0A 00 0A
 (1.9550)  can1  4100209   [8]  68 66 09 00 03 00 00 00
 (1.9550)  can1  595FF71   [8]  04 80 60 09 60 09 F6 09
 (1.9560)  can1  596FF71   [8]  0C 80 FF FF FF FF F8 4A
 (1.9560)  can1  4100208   [8]  66 17 09 00 07 00 00 00
 (1.9580)  can1  89A0C02   [8]  99 8D 00 00 98 C8 00 00
 (1.9580)  can1  8030C02   [8]  00 00 37 01 43 02 08 1F
 (1.9590)  can1  8580C02   [8]  08 00 0C 00 0A 00 04 00
 (1.9640)  can1  586FF72   [8]  0E 80 FF FF FF FF FE E2
 (1.9650)  can1  587FF72   [8]  0E 08 6F 10 FF FF F0 0D
 (1.9660)  can1  588FF72   [8]  40 01 5A FF FF FF F0 63
 (1.9660)  can1  589FF72   [8]  1A D0 02 81 02 00 F1 87
 (1.9670)  can1  4100209   [8]  6A 66 09 00 07 00 00 00
 (1.9670)  can1  8041001   [8]  9D 02 E0 53 EA 66 3B 00
 (1.9670)  can1  18800401   [8]  02 D5 92 31 93 1C 93 00
 (1.9670)  can1  18840401   [8]  02 EC 92 4B 93 34 93 00
 (1.9680)  can1  18C00401   [8]  02 3C 2E 26 2E 18 2E 00
 (1.9680)  can1  4100208   [8]  66 17 09 00 03 00 00 00
 (1.9680)  can1  585FF72   [8]  04 80 60 09 60 09 FC 09
 (1.9690)  can1  528FF72   [8]  E9 FF 47 00 00 00 45 00
 (1.9690)  can1  529FF72   [8]  ED FF 53 00 0C 00 04 00
 (1.9700)  can1  52AFF72   [8]  11 11 11 11 11 11 14 00
 (1.9710)  can1  52BFF72   [8]  0E 12 0E 11 00 FF 00 00
 (1.9710)  can1  52CFF72   [8]  00 00 EF FF EF FF 3A 00
 (1.9750)  can1  4100209   [8]  6A 66 09 00 03 00 00 00
 (1.9750)  can1  595FF71   [8]  04 80 60 09 60 09 F7 09
 (1.9760)  can1  596FF71   [8]  08 80 FF FF FF FF F9 35
 (1.9760)  can1  528FF71   [8]  04 00 44 00 00 00 45 00
 (1.9770)  can1  529FF71   [8]  F4 FF 50 00 0C 00 04 00
 (1.9770)  can1  4100208   [8]  68 17 09 00 07 00 00 00
 (1.9770)  can1  52AFF71   [8]  12 12 12 12 12 12 12 00
 (1.9780)  can1  52BFF71   [8]  0D 11 0D 12 00 FF 00 00
 (1.9780)  can1  52CFF71   [8]  00 00 EF FF EF FF 3A 00
 (1.9790)  can1  8100302   [5]  01 00 0A 00 0A
 (1.9790)  can1  8580C02   [8]  05 00 09 00 0A 00 04 00
 (1.9800)  can1  89A0C02   [8]  66 5E 00 00 32 A5 00 00
 (1.9800)  can1  8030C02   [8]  00 00 60 00 A2 01 97 15
 (1.9840)  can1  586FF72   [8]  0B 80 FF FF FF FF FF C9
 (1.9850)  can1  4100209   [8]  6C 66 09 00 07 00 00 00
 (1.9950)  can1  4100208   [8]  68 17 09 00 03 00 00 00
 (1.9960)  can1  585FF72   [8]  04 80 60 09 60 09 FD 09
 (1.9960)  can1  598FF71   [8]  20 01 7A FF FF FF F0 3B
 (1.9960)  can1  4100209   [8]  6C 66 09 00 03 00 00 00
 (1.9970)  can1  595FF71   [8]  04 80 60 09 60 09 F8 09
 (1.9980)  can1  596FF71   [8]  0B 80 FF FF FF FF FA C9
 (1.9980)  can1  4100208   [8]  69 17 09 00 03 00 00 00
 (1.9980)  can1  5807202   [8]  04 80 00 00 E0 01 0C 3C
 (1.9990)  can1  5817202   [8]  01 00 10 27 10 27 03 E3
 (1.9990)  can1  5907102   [8]  04 80 00 00 E0 01 0C 3C
 (1.9990)  can1  5917102   [8]  01 00 10 27 10 27 03 E3
 (2.0000)  can1  5827202   [8]  FA 00 00 00 00 00 0C D4
 (2.0010)  can1  5927102   [8]  FA 00 00 00 00 00 0C D4
 (2.0010)  can1  5837202   [8]  2C 41 06 00 00 00 0C E0
 (2.0020)  can1  5847270   [8]  00 00 00 00 00 00 0C 9F
 (2.0020)  can1  5937102   [8]  2C 41 06 00 00 00 0C E0
 (2.0030)  can1  5947102   [8]  00 00 00 00 00 00 0C 9F
 (2.0030)  can1  8580C02   [8]  07 00 07 00 04 00 04 00
 (2.0040)  can1  89A0C02   [8]  CC 81 00 00 CC 81 00 00
 (2.0040)  can1  8030C02   [8]  00 00 01 01 01 01 26 0C
 (2.0040)  can1  8100302   [5]  01 00 0A 00 0A
 (2.0040)  can1  586FF72   [8]  06 80 FF FF FF FF F0 1C
 (2.0050)  can1  4100209   [8]  6D 66 09 00 03 00 00 00
 (2.0060)  can1  4100208   [8]  6A 17 09 00 03 00 00 00
 (2.0130)  can1  585FF72   [8]  04 80 60 09 60 09 FE 09
 (2.0140)  can1  18800401   [8]  03 11 93 03 93 13 93 00
 (2.0150)  can1  18840401   [8]  03 2A 93 1B 93 2E 93 00
 (2.0160)  can1  18C00401   [8]  03 0E 2E E4 2D D2 2D 00
 (2.0160)  can1  18101203   [4]  31 2D BF 06
 (2.0170)  can1  4100209   [8]  6D 66 09 00 03 00 00 00
 (2.0170)  can1  595FF71   [8]  04 80 60 09 60 09 F9 09
 (2.0170)  can1  596FF71   [8]  0D 80 FF FF FF FF FB 1E
 (2.0170)  can1  597FF71   [8]  02 08 8C 10 FF FF F0 A6
 (2.0180)  can1  599FF71   [8]  1A D0 02 81 02 00 F1 87
 (2.0180)  can1  4100208   [8]  6B 17 09 00 07 00 00 00
 (2.0190)  can1  89A0C02   [8]  65 99 00 00 CC 46 00 00
 (2.0190)  can1  8030C02   [8]  00 00 6C 01 F5 FF 71 12
 (2.0190)  can1  8580C02   [8]  09 00 04 00 0A 00 04 00
 (2.0230)  can1  586FF72   [8]  09 80 FF FF FF FF F1 61
 (2.0250)  can1  4100209   [8]  6F 66 09 00 07 00 00 00
 (2.0260)  can1  4100208   [8]  6B 17 09 00 03 00 00 00
 (2.0280)  can1  8100302   [5]  01 00 0A 00 0A
 (2.0340)  can1  585FF72   [8]  04 80 60 09 60 09 FF 09
 (2.0350)  can1  4100209   [8]  6F 66 09 00 03 00 00 00
 (2.0350)  can1  595FF71   [8]  04 80 60 09 60 09 FA 09
 (2.0360)  can1  596FF71   [8]  0D 80 FF FF FF FF FC 1E
 (2.0360)  can1  8010C01   [8]  62 66 00 00 00 00 00 00
 (2.0370)  can1  8101201   [8]  E8 66 94 93 AA 90 58 00
 (2.0370)  can1  4100208   [8]  6C 17 09 00 03 00 00 00
 (2.0380)  can1  89A0C02   [8]  65 99 00 00 32 6A 00 00
 (2.0380)  can1  8030C02   [8]  00 00 6C 01 95 00 71 12
 (2.0390)  can1  8580C02   [8]  09 00 06 00 04 00 04 00
 (2.0440)  can1  586FF72   [8]  0A 80 FF FF FF FF F2 9D
 (2.0450)  can1  4100209   [8]  70 66 09 00 03 00 00 00
 (2.0460)  can1  4100208   [8]  6D 17 09 00 07 00 00 00
 (2.0530)  can1  8100302   [5]  01 00 0A 00 0A
 (2.0530)  can1  585FF72   [8]  04 80 60 09 60 09 F0 09
 (2.0550)  can1  4100209   [8]  71 66 09 00 03 00 00 00
 (2.0550)  can1  595FF71   [8]  04 80 60 09 60 09 FB 09
 (2.0560)  can1  596FF71   [8]  06 80 FF FF FF FF FD 1C
 (2.0560)  can1  4100208   [8]  6E 17 09 00 03 00 00 00
 (2.0580)  can1  5807202   [8]  04 80 00 00 E0 01 0D 3C
 (2.0580)  can1  5817202   [8]  01 00 10 27 10 27 04 E3
 (2.0590)  can1  5907102   [8]  04 80 00 00 E0 01 0D 3C
 (2.0590)  can1  5917102   [8]  01 00 10 27 10 27 04 E3
 (2.0600)  can1  5827202   [8]  FA 00 00 00 00 00 0D D4
 (2.0610)  can1  5927102   [8]  FA 00 00 00 00 00 0D D4
 (2.0620)  can1  5837202   [8]  2C 41 06 00 00 00 0D E0
 (2.0620)  can1  5847270   [8]  00 00 00 00 00 00 0D 9F
 (2.0620)  can1  5937102   [8]  2C 41 06 00 00 00 0D E0
 (2.0630)  can1  5947102   [8]  00 00 00 00 00 00 0D 9F
 (2.0630)  can1  8580C02   [8]  04 00 07 00 04 00 04 00
 (2.0630)  can1  89A0C02   [8]  CC 46 00 00 FF 75 00 00
 (2.0640)  can1  8030C02   [8]  22 1B F5 FF CB 00 01 09
 (2.0650)  can1  586FF72   [8]  0B 80 FF FF FF FF F3 C9
 (2.0650)  can1  587FF72   [8]  0E 08 6F 10 FF FF F1 0D
 (2.0660)  can1  588FF72   [8]  40 01 5A FF FF FF F1 63
 (2.0660)  can1  4100209   [8]  71 66 09 00 03 00 00 00
 (2.0670)  can1  589FF72   [8]  1A D0 02 81 02 00 F2 87
 (2.0670)  can1  8041001   [8]  9D 02 E0 53 EA 66 3B 00
 (2.0680)  can1  18800401   [8]  04 34 93 25 93 8E 90 00
 (2.0680)  can1  18840401   [8]  04 50 93 41 93 AB 90 00
 (2.0680)  can1  4100208   [8]  6F 17 09 00 03 00 00 00
 (2.0690)  can1  18C00401   [8]  04 65 2D 66 2D 94 2E 00
 (2.0750)  can1  4100209   [8]  72 66 09 00 03 00 00 00
 (2.0760)  can1  595FF71   [8]  04 80 60 09 60 09 FC 09
 (2.0760)  can1  596FF71   [8]  08 80 FF FF FF FF FE 35
 (2.0760)  can1  4100208   [8]  6F 17 09 00 03 00 00 00
 (2.0780)  can1  8100302   [5]  01 00 0A 00 0A
 (2.0780)  can1  8580C02   [8]  05 00 07 00 04 00 04 00
 (2.0790)  can1  585FF72   [8]  04 80 60 09 60 09 F1 09
 (2.0790)  can1  89A0C02   [8]  66 5E 00 00 CC 81 00 00
 (2.0790)  can1  8030C02   [8]  00 00 60 00 01 01 26 0C
 (2.0830)  can1  1948FF72   [8]  00 C0 00 55 FF FF 88 9B
 (2.0840)  can1  1949FF72   [8]  0D 80 00 0D B0 00 89 D3
 (2.0850)  can1  194AFF72   [8]  36 77 57 77 75 57 8A D1
 (2.0860)  can1  194BFF72   [8]  77 F5 FF FF FF FF 8B F3
 (2.0860)  can1  194CFF72   [8]  FF FF FF FF FF FF 8C 86
 (2.0860)  can1  4100209   [8]  73 66 09 00 03 00 00 00
 (2.0870)  can1  4100208   [8]  70 17 09 00 03 00 00 00
 (2.0880)  can1  586FF72   [8]  08 80 FF FF FF FF F4 35
 (2.0950)  can1  4100209   [8]  74 66 09 00 07 00 00 00
 (2.0960)  can1  595FF71   [8]  04 80 60 09 60 09 FD 09
 (2.0960)  can1  596FF71   [8]  05 80 FF FF FF FF FF E0
 (2.0970)  can1  598FF71   [8]  10 01 7B FF FF FF F1 D4
 (2.0970)  can1  4100208   [8]  71 17 09 00 03 00 00 00
 (2.0980)  can1  89A0C02   [8]  FF 3A 00 00 66 5E 00 00
 (2.0980)  can1  8030C02   [8]  30 75 26 FF 6B FF 00 00
 (2.0990)  can1  585FF72   [8]  04 80 60 09 60 09 F2 09
 (2.0990)  can1  8580C02   [8]  03 00 05 00 04 00 0A 00
 (2.1030)  can1  8100302   [5]  01 00 0A 00 0A
 (2.1050)  can1  4100209   [8]  75 66 09 00 03 00 00 00
 (2.1060)  can1  4100208   [8]  72 17 09 00 07 00 00 00
 (2.1080)  can1  586FF72   [8]  06 80 FF FF FF FF F5 1C
 (2.1130)  can1  18800401   [8]  05 05 93 D2 92 FE 92 00
 (2.1140)  can1  18840401   [8]  05 20 93 06 93 19 93 00
 (2.1140)  can1  18C00401   [8]  05 45 2E B9 2E 93 2E 00
 (2.1150)  can1  4100209   [8]  75 66 09 00 03 00 00 00
 (2.1150)  can1  595FF71   [8]  04 80 60 09 60 09 FE 09
 (2.1160)  can1  596FF71   [8]  07 80 FF FF FF FF F0 48
 (2.1160)  can1  597FF71   [8]  03 08 8C 10 FF FF F1 F2
 (2.1170)  can1  599FF71   [8]  1A D0 02 81 02 00 F2 87
 (2.1170)  can1  4100208   [8]  73 17 09 00 03 00 00 00
 (2.1180)  can1  5807202   [8]  04 80 00 00 E0 01 0E 3C
 (2.1180)  can1  5817202   [8]  01 00 10 27 10 27 05 E3
 (2.1190)  can1  585FF72   [8]  04 80 60 09 60 09 F3 09
 (2.1190)  can1  5907102   [8]  04 80 00 00 E0 01 0E 3C
 (2.1200)  can1  5827202   [8]  FA 00 00 00 00 00 0E D4
 (2.1200)  can1  5917102   [8]  01 00 10 27 10 27 05 E3
 (2.1200)  can1  5927102   [8]  FA 00 00 00 00 00 0E D4
 (2.1210)  can1  5837202   [8]  2C 41 06 00 00 00 0E E0
 (2.1210)  can1  5937102   [8]  2C 41 06 00 00 00 0E E0
 (2.1220)  can1  5847270   [8]  00 00 00 00 00 00 0E 9F
 (2.1220)  can1  5947102   [8]  00 00 00 00 00 00 0E 9F
 (2.1230)  can1  89A0C02   [8]  99 52 00 00 CC 46 00 00
 (2.1230)  can1  8580C02   [8]  04 00 04 00 04 00 04 00
 (2.1230)  can1  8030C02   [8]  30 75 2A 00 F5 FF 00 00
 (2.1250)  can1  4100209   [8]  76 66 09 00 03 00 00 00
 (2.1260)  can1  4100208   [8]  73 17 09 00 03 00 00 00
 (2.1280)  can1  8100302   [5]  01 00 0A 00 0A
 (2.1280)  can1  586FF72   [8]  09 80 FF FF FF FF F6 61
 (2.1300)  can1  1948FF71   [8]  00 C0 00 55 FF FF 88 9B
 (2.1310)  can1  1949FF71   [8]  0C 80 00 0E B0 00 89 D3
 (2.1320)  can1  194AFF71   [8]  23 67 58 86 65 58 8A AF
 (2.1320)  can1  194BFF71   [8]  8B F5 FF FF FF FF 8B 07
 (2.1320)  can1  194CFF71   [8]  FF FF FF FF FF FF 8C 86
 (2.1350)  can1  4100209   [8]  76 66 09 00 03 00 00 00
 (2.1350)  can1  595FF71   [8]  04 80 60 09 60 09 FF 09
 (2.1360)  can1  596FF71   [8]  06 80 FF FF FF FF F1 1C
 (2.1360)  can1  4100208   [8]  74 17 09 00 03 00 00 00
 (2.1370)  can1  8010C01   [8]  63 66 00 00 00 00 00 00
 (2.1370)  can1  8101201   [8]  E8 66 96 93 AB 90 57 00
 (2.1380)  can1  89A0C02   [8]  CC 46 00 00 32 6A 00 00
 (2.1390)  can1  8030C02   [8]  99 3A F5 FF 95 00 DB 05
 (2.1400)  can1  585FF72   [8]  04 80 60 09 60 09 F4 09
 (2.1400)  can1  8580C02   [8]  04 00 06 00 04 00 04 00
 (2.1450)  can1  4100209   [8]  77 66 09 00 03 00 00 00
 (2.1460)  can1  4100208   [8]  74 17 09 00 03 00 00 00
 (2.1480)  can1  586FF72   [8]  06 80 FF FF FF FF F7 1C
 (2.1530)  can1  8100302   [5]  01 00 0A 00 0A
 (2.1550)  can1  4100209   [8]  78 66 09 00 03 00 00 00
 (2.1550)  can1  595FF71   [8]  04 80 60 09 60 09 F0 09
 (2.1560)  can1  596FF71   [8]  0A 80 FF FF FF FF F2 9D
 (2.1560)  can1  4100208   [8]  75 17 09 00 03 00 00 00
 (2.1580)  can1  89A0C02   [8]  FF 75 00 00 CC 46 00 00
 (2.1580)  can1  8030C02   [8]  22 1B CB 00 F5 FF 01 09
 (2.1590)  can1  585FF72   [8]  04 80 60 09 60 09 F5 09
 (2.1600)  can1  8580C02   [8]  07 00 04 00 04 00 04 00
 (2.1650)  can1  4100209   [8]  78 66 09 00 03 00 00 00
 (2.1650)  can1  8041001   [8]  9D 02 E0 53 EA 66 3B 00
 (2.1660)  can1  18800401   [8]  06 04 93 43 93 4F 93 00
 (2.1670)  can1  18840401   [8]  06 1A 93 5C 93 66 93 00
 (2.1670)  can1  18C00401   [8]  06 A4 2E D0 2E B5 2E 00
 (2.1670)  can1  4100208   [8]  76 17 09 00 03 00 00 00
 (2.1680)  can1  586FF72   [8]  07 80 FF FF FF FF F8 48
 (2.1690)  can1  587FF72   [8]  10 08 6F 10 FF FF F2 F7
 (2.1690)  can1  588FF72   [8]  40 01 5A FF FF FF F2 63
 (2.1700)  can1  589FF72   [8]  1A D0 02 81 02 00 F3 87
 (2.1750)  can1  4100209   [8]  79 66 09 00 03 00 00 00
 (2.1750)  can1  595FF71   [8]  04 80 60 09 60 09 F1 09
 (2.1760)  can1  596FF71   [8]  08 80 FF FF FF FF F3 35
 (2.1770)  can1  4100208   [8]  76 17 09 00 03 00 00 00
 (2.1780)  can1  5807202   [8]  04 80 00 00 E0 01 0F 3C
 (2.1780)  can1  5817202   [8]  01 00 10 27 10 27 06 E3
 (2.1790)  can1  585FF72   [8]  04 80 60 09 60 09 F6 09
 (2.1790)  can1  5907102   [8]  04 80 00 00 E0 01 0F 3C
 (2.1800)  can1  5827202   [8]  FA 00 00 00 00 00 0F D4
 (2.1800)  can1  5917102   [8]  01 00 10 27 10 27 06 E3
 (2.1810)  can1  5927102   [8]  FA 00 00 00 00 00 0F D4
 (2.1810)  can1  5837202   [8]  2C 41 06 00 00 00 0F E0
 (2.1830)  can1  5937102   [8]  2C 41 06 00 00 00 0F E0
 (2.1830)  can1  5847270   [8]  00 00 00 00 00 00 0F 9F
 (2.1830)  can1  5947102   [8]  00 00 00 00 00 00 0F 9F
 (2.1830)  can1  8100302   [5]  01 00 0A 00 0A
 (2.1830)  can1  89A0C02   [8]  66 5E 00 00 99 52 00 00
 (2.1840)  can1  8030C02   [8]  11 5A 60 00 2A 00 B6 02
 (2.1840)  can1  8580C02   [8]  05 00 04 00 04 00 04 00
 (2.1850)  can1  4100209   [8]  79 66 09 00 00 00 00 00
 (2.1860)  can1  4100208   [8]  77 17 09 00 03 00 00 00
 (2.1880)  can1  586FF72   [8]  05 80 FF FF FF FF F9 E0
 (2.1950)  can1  4100209   [8]  7A 66 09 00 03 00 00 00
 (2.1950)  can1  595FF71   [8]  04 80 60 09 60 09 F2 09
 (2.1960)  can1  596FF71   [8]  08 80 FF FF FF FF F4 35
 (2.1960)  can1  598FF71   [8]  10 01 7B FF FF FF F2 D4
 (2.1970)  can1  4100208   [8]  78 17 09 00 03 00 00 00
 (2.1980)  can1  89A0C02   [8]  66 5E 00 00 FF 3A 00 00
 (2.1980)  can1  8030C02   [8]  11 5A 60 00 C0 FF B6 02
 (2.1990)  can1  585FF72   [8]  04 80 60 09 60 09 F7 09
 (2.2000)  can1  8580C02   [8]  05 00 03 00 04 00 04 00
 (2.2030)  can1  8100302   [5]  01 00 0A 00 0A
 (2.2050)  can1  4100209   [8]  7A 66 09 00 03 00 00 00
 (2.2060)  can1  4100208   [8]  78 17 09 00 03 00 00 00
 (2.2080)  can1  586FF72   [8]  07 80 FF FF FF FF FA 48
 (2.2130)  can1  18800401   [8]  07 3F 93 33 93 1A 93 00
 (2.2140)  can1  18840401   [8]  07 58 93 4C 93 33 93 00
 (2.2140)  can1  18C00401   [8]  07 D5 2E 91 2E C2 2E 00
 (2.2150)  can1  4100209   [8]  7B 66 09 00 03 00 00 00
 (2.2150)  can1  595FF71   [8]  04 80 60 09 60 09 F3 09
 (2.2160)  can1  596FF71   [8]  04 80 FF FF FF FF F5 B4
 (2.2160)  can1  597FF71   [8]  04 08 8C 10 FF FF F2 71
 (2.2170)  can1  599FF71   [8]  1A D0 02 81 02 00 F3 87
 (2.2170)  can1  4100208   [8]  78 17 09 00 00 00 00 00
 (2.2180)  can1  89A0C02   [8]  33 2F 00 00 99 52 00 00
 (2.2190)  can1  8030C02   [8]  30 75 8A FF 2A 00 00 00
 (2.2190)  can1  585FF72   [8]  04 80 60 09 60 09 F8 09
 (2.2200)  can1  8580C02   [8]  02 00 04 00 00 00 04 00
 (2.2250)  can1  4100209   [8]  7C 66 09 00 03 00 00 00
 (2.2260)  can1  4100208   [8]  79 17 09 00 03 00 00 00
 (2.2280)  can1  8100302   [5]  01 00 0A 00 0A
 (2.2280)  can1  586FF72   [8]  07 80 FF FF FF FF FB 48
 (2.2350)  can1  4100209   [8]  7C 66 09 00 03 00 00 00
 (2.2350)  can1  595FF71   [8]  04 80 60 09 60 09 F4 09
 (2.2360)  can1  596FF71   [8]  02 80 FF FF FF FF F6 63
 (2.2370)  can1  4100208   [8]  7A 17 09 00 03 00 00 00
 (2.2370)  can1  8101201   [8]  E8 66 95 93 AC 90 32 00
 (2.2380)  can1  8010C01   [8]  66 66 00 00 00 00 00 00
 (2.2380)  can1  5807202   [8]  04 80 00 00 E0 01 00 3C
 (2.2390)  can1  5817202   [8]  01 00 10 27 10 27 07 E3
 (2.2390)  can1  585FF72   [8]  04 80 60 09 60 09 F9 09
 (2.2400)  can1  5907102   [8]  04 80 00 00 E0 01 00 3C
 (2.2410)  can1  5827202   [8]  FA 00 00 00 00 00 00 D4
 (2.2410)  can1  5917102   [8]  01 00 10 27 10 27 07 E3
 (2.2420)  can1  5927102   [8]  FA 00 00 00 00 00 00 D4
 (2.2420)  can1  5837202   [8]  2C 41 06 00 00 00 00 E0
 (2.2430)  can1  5937102   [8]  2C 41 06 00 00 00 00 E0
 (2.2430)  can1  5847270   [8]  00 00 00 00 00 00 00 9F
 (2.2430)  can1  5947102   [8]  00 00 00 00 00 00 00 9F
 (2.2430)  can1  89A0C02   [8]  99 17 00 00 99 52 00 00
 (2.2440)  can1  8580C02   [8]  01 00 04 00 04 00 04 00
 (2.2440)  can1  8030C02   [8]  30 75 1F FF 2A 00 00 00
 (2.2450)  can1  4100209   [8]  7C 66 09 00 00 00 00 00
 (2.2460)  can1  4100208   [8]  7A 17 09 00 03 00 00 00
 (2.2480)  can1  586FF72   [8]  07 80 FF FF FF FF FC 48
 (2.2530)  can1  8100302   [5]  01 00 0A 00 0A
 (2.2550)  can1  4100209   [8]  7D 66 09 00 03 00 00 00
 (2.2550)  can1  595FF71   [8]  04 80 60 09 60 09 F5 09
 (2.2560)  can1  596FF71   [8]  05 80 FF FF FF FF F7 E0
 (2.2560)  can1  4100208   [8]  7A 17 09 00 00 00 00 00
 (2.2580)  can1  89A0C02   [8]  FF 3A 00 00 99 52 00 00
 (2.2580)  can1  8030C02   [8]  30 75 C0 FF 2A 00 00 00
 (2.2590)  can1  585FF72   [8]  04 80 60 09 60 09 FA 09
 (2.2590)  can1  8580C02   [8]  03 00 04 00 00 00 04 00
 (2.2650)  can1  4100209   [8]  7E 66 09 00 03 00 00 00
 (2.2650)  can1  8041001   [8]  9D 02 E0 53 EA 66 3B 00
 (2.2660)  can1  18800401   [8]  08 13 93 BD 90 62 93 00
 (2.2670)  can1  18840401   [8]  08 2B 93 D8 90 7C 93 00
 (2.2670)  can1  18C00401   [8]  08 5D 2E 8B 2E 07 2E 00
 (2.2680)  can1  4100208   [8]  7B 17 09 00 03 00 00 00
 (2.2680)  can1  586FF72   [8]  05 80 FF FF FF FF FD E0
 (2.2690)  can1  587FF72   [8]  0A 08 6F 10 FF FF F3 72
 (2.2690)  can1  588FF72   [8]  40 01 5A FF FF FF F3 63
 (2.2700)  can1  589FF72   [8]  1A D0 02 81 02 00 F4 87
 (2.2750)  can1  4100209   [8]  7E 66 09 00 00 00 00 00
 (2.2760)  can1  595FF71   [8]  04 80 60 09 60 09 F6 09
 (2.2760)  can1  596FF71   [8]  05 80 FF FF FF FF F8 E0
 (2.2770)  can1  4100208   [8]  7C 17 09 00 03 00 00 00
 (2.2780)  can1  8100302   [5]  01 00 0A 00 0A
 (2.2780)  can1  8580C02   [8]  03 00 03 00 04 00 00 00
 (2.2790)  can1  585FF72   [8]  04 80 60 09 60 09 FB 09
 (2.2800)  can1  89A0C02   [8]  FF 3A 00 00 FF 3A 00 00
 (2.2800)  can1  8030C02   [8]  00 00 2A 68 2A 68 92 17
 (2.2850)  can1  4100209   [8]  7E 66 09 00 03 00 00 00
 (2.2860)  can1  4100208   [8]  7C 17 09 00 00 00 00 00
 (2.2880)  can1  586FF72   [8]  05 80 FF FF FF FF FE E0
 (2.2950)  can1  4100209   [8]  7E 66 09 00 00 00 00 00
 (2.2960)  can1  595FF71   [8]  04 80 60 09 60 09 F7 09
 (2.2960)  can1  596FF71   [8]  01 80 FF FF FF FF F9 9F
 (2.2970)  can1  598FF71   [8]  10 01 7B FF FF FF F3 D4
 (2.2970)  can1  4100208   [8]  7C 17 09 00 03 00 00 00
 (2.2980)  can1  5807202   [8]  04 80 00 00 E0 01 01 3C
 (2.2980)  can1  5817202   [8]  01 00 10 27 10 27 08 E3
 (2.2990)  can1  585FF72   [8]  04 80 60 09 60 09 FC 09
 (2.3000)  can1  5907102   [8]  04 80 00 00 E0 01 01 3C
 (2.3000)  can1  5827202   [8]  FA 00 00 00 00 00 01 D4
 (2.3010)  can1  5917102   [8]  01 00 10 27 10 27 08 E3
 (2.3010)  can1  5927102   [8]  FA 00 00 00 00 00 01 D4
 (2.3020)  can1  5837202   [8]  2C 41 06 00 00 00 01 E0
 (2.3020)  can1  5937102   [8]  2C 41 06 00 00 00 01 E0
 (2.3030)  can1  5847270   [8]  00 00 00 00 00 00 01 9F
 (2.3030)  can1  5947102   [8]  00 00 00 00 00 00 01 9F
 (2.3040)  can1  89A0C02   [8]  CC 0B 00 00 FF 3A 00 00
 (2.3040)  can1  8580C02   [8]  00 00 03 00 04 00 00 00
 (2.3040)  can1  8030C02   [8]  00 00 2A 68 2A 68 92 17
 (2.3050)  can1  8100302   [5]  01 00 0A 00 0A
 (2.3050)  can1  4100209   [8]  7F 66 09 00 03 00 00 00
 (2.3060)  can1  4100208   [8]  7C 17 09 00 00 00 00 00
 (2.3080)  can1  586FF72   [8]  05 80 FF FF FF FF FF E0
 (2.3130)  can1  18800401   [8]  09 54 93 14 93 00 93 00
 (2.3140)  can1  18840401   [8]  09 6E 93 2D 93 1A 93 00
 (2.3150)  can1  18C00401   [8]  09 08 2E 7E 2E 7A 2E 00
 (2.3150)  can1  4100209   [8]  7F 66 09 00 00 00 00 00
 (2.3160)  can1  595FF71   [8]  04 80 60 09 60 09 F8 09
 (2.3160)  can1  596FF71   [8]  03 80 FF FF FF FF FA 37
 (2.3170)  can1  597FF71   [8]  00 08 8C 10 FF FF F3 0E
 (2.3170)  can1  599FF71   [8]  1A D0 02 81 02 00 F4 87
 (2.3170)  can1  4100208   [8]  7D 17 09 00 03 00 00 00
 (2.3180)  can1  89A0C02   [8]  66 23 00 00 FF 3A 00 00
 (2.3180)  can1  8030C02   [8]  00 00 2A 68 2A 68 92 17
 (2.3190)  can1  585FF72   [8]  04 80 60 09 60 09 FD 09
 (2.3190)  can1  8580C02   [8]  02 00 03 00 04 00 00 00
 (2.3250)  can1  4100209   [8]  7F 66 09 00 03 00 00 00
 (2.3260)  can1  4100208   [8]  7D 17 09 00 00 00 00 00
 (2.3280)  can1  8100302   [5]  01 00 0A 00 0A
 (2.3280)  can1  586FF72   [8]  05 80 FF FF FF FF F0 E0
 (2.3350)  can1  4100209   [8]  7F 66 09 00 00 00 00 00
 (2.3350)  can1  595FF71   [8]  04 80 60 09 60 09 F9 09
 (2.3360)  can1  596FF71   [8]  06 80 FF FF FF FF FB 1C
 (2.3360)  can1  4100208   [8]  7D 17 09 00 03 00 00 00
 (2.3380)  can1  89A0C02   [8]  CC 46 00 00 FF 3A 00 00
 (2.3380)  can1  8030C02   [8]  00 00 2A 68 2A 68 92 17
 (2.3390)  can1  585FF72   [8]  04 80 60 09 60 09 FE 09
 (2.3390)  can1  8010C01   [8]  67 66 00 00 00 00 00 00
 (2.3410)  can1  8101201   [8]  E8 66 98 93 AD 90 5C 00
 (2.3410)  can1  8580C02   [8]  04 00 03 00 04 00 00 00
 (2.3410)  can1  1948FF72   [8]  00 C0 00 55 FF FF 8D A0
 (2.3420)  can1  1949FF72   [8]  0D 80 00 0D 80 00 8E A8
 (2.3420)  can1  194AFF72   [8]  36 77 57 77 55 57 8F B6
 (2.3420)  can1  194BFF72   [8]  77 F5 FF FF FF FF 90 F8
 (2.3430)  can1  194CFF72   [8]  FF FF FF FF FF FF 91 8B
 (2.3450)  can1  4100209   [8]  80 66 09 00 03 00 00 00
 (2.3460)  can1  4100208   [8]  7D 17 09 00 00 00 00 00
 (2.3480)  can1  586FF72   [8]  02 80 FF FF FF FF F1 63
 (2.3530)  can1  8100302   [5]  01 00 0A 00 0A
 (2.3550)  can1  4100209   [8]  80 66 09 00 00 00 00 00
 (2.3550)  can1  595FF71   [8]  04 80 60 09 60 09 FA 09
 (2.3560)  can1  596FF71   [8]  04 80 FF FF FF FF FC B4
 (2.3560)  can1  4100208   [8]  7D 17 09 00 00 00 00 00
 (2.3580)  can1  5807202   [8]  04 80 00 00 E0 01 02 3C
 (2.3590)  can1  5817202   [8]  01 00 10 27 10 27 09 E3
 (2.3600)  can1  585FF72   [8]  04 80 60 09 60 09 FF 09
 (2.3600)  can1  5907102   [8]  04 80 00 00 E0 01 02 3C
 (2.3610)  can1  5827202   [8]  FA 00 00 00 00 00 02 D4
 (2.3610)  can1  5917102   [8]  01 00 10 27 10 27 09 E3
 (2.3620)  can1  5927102   [8]  FA 00 00 00 00 00 02 D4
 (2.3620)  can1  5837202   [8]  2C 41 06 00 00 00 02 E0
 (2.3630)  can1  5937102   [8]  2C 41 06 00 00 00 02 E0
 (2.3630)  can1  5847270   [8]  00 00 00 00 00 00 02 9F
 (2.3630)  can1  5947102   [8]  00 00 00 00 00 00 02 9F
 (2.3630)  can1  89A0C02   [8]  33 2F 00 00 99 17 00 00
 (2.3640)  can1  8580C02   [8]  02 00 01 00 00 00 00 00
 (2.3650)  can1  8030C02   [8]  00 00 2A 68 2A 68 92 17
 (2.3650)  can1  4100209   [8]  81 66 09 00 03 00 00 00
 (2.3660)  can1  8041001   [8]  9D 02 E0 53 EA 66 3B 00
 (2.3670)  can1  18800401   [8]  0A E3 92 F7 92 07 93 00
 (2.3670)  can1  18840401   [8]  0A 02 93 0E 93 1C 93 00
 (2.3670)  can1  18C00401   [8]  0A BD 2E D5 2E CB 2E 00
 (2.3680)  can1  4100208   [8]  7E 17 09 00 03 00 00 00
 (2.3680)  can1  586FF72   [8]  04 80 FF FF FF FF F2 B4
 (2.3690)  can1  587FF72   [8]  0B 08 72 10 FF FF F4 54
 (2.3690)  can1  588FF72   [8]  40 01 5A FF FF FF F4 63
 (2.3700)  can1  589FF72   [8]  1A D0 02 81 02 00 F5 87
 (2.3750)  can1  4100209   [8]  81 66 09 00 00 00 00 00
 (2.3750)  can1  595FF71   [8]  04 80 60 09 60 09 FB 09
 (2.3760)  can1  596FF71   [8]  01 80 FF FF FF FF FD 9F
 (2.3760)  can1  4100208   [8]  7E 17 09 00 00 00 00 00
 (2.3780)  can1  8100302   [5]  01 00 0A 00 0A
 (2.3790)  can1  8580C02   [8]  00 00 02 00 00 00 00 00
 (2.3790)  can1  585FF72   [8]  04 80 60 09 60 09 F0 09
 (2.3800)  can1  89A0C02   [8]  CC 0B 00 00 33 2F 00 00
 (2.3800)  can1  8030C02   [8]  00 00 2A 68 2A 68 92 17
 (2.3850)  can1  4100209   [8]  81 66 09 00 00 00 00 00
 (2.3850)  can1  1948FF71   [8]  00 C0 00 55 FF FF 8D A0
 (2.3860)  can1  1949FF71   [8]  0D 80 00 0D B0 00 8E D8
 (2.3870)  can1  194AFF71   [8]  21 77 57 86 65 58 8F C1
 (2.3870)  can1  194BFF71   [8]  88 F5 FF FF FF FF 90 09
 (2.3870)  can1  4100208   [8]  7F 17 09 00 03 00 00 00
 (2.3880)  can1  194CFF71   [8]  FF FF FF FF FF FF 91 8B
 (2.3880)  can1  586FF72   [8]  03 80 FF FF FF FF F3 37
 (2.3950)  can1  4100209   [8]  81 66 09 00 03 00 00 00
 (2.3960)  can1  595FF71   [8]  04 80 60 09 60 09 FC 09
 (2.3960)  can1  596FF71   [8]  00 80 FF FF FF FF FE CB
 (2.3970)  can1  598FF71   [8]  10 01 7B FF FF FF F4 D4
 (2.3980)  can1  4100208   [8]  7F 17 09 00 00 00 00 00
 (2.3990)  can1  89A0C02   [8]  00 00 00 00 66 23 00 00
 (2.4000)  can1  8030C02   [8]  30 75 B3 FE 54 FF 00 00
 (2.4000)  can1  585FF72   [8]  04 80 60 09 60 09 F1 09
 (2.4010)  can1  8580C02   [8]  00 00 02 00 00 00 04 00
 (2.4030)  can1  8100302   [5]  01 00 0A 00 0A
 (2.4050)  can1  4100209   [8]  81 66 09 00 00 00 00 00
 (2.4070)  can1  4100208   [8]  7F 17 09 00 00 00 00 00
 (2.4090)  can1  586FF72   [8]  02 80 FF FF FF FF F4 63
 (2.4140)  can1  18800401   [8]  0B 3A 93 37 93 37 93 00
 (2.4140)  can1  18840401   [8]  0B 53 93 4E 93 4F 93 00
 (2.4150)  can1  18C00401   [8]  0B 08 2F D1 2E F1 2E 00
 (2.4160)  can1  404FF03   [1]  00
 (2.4170)  can1  4100209   [8]  81 66 09 00 00 00 00 00
 (2.4180)  can1  595FF71   [8]  04 80 60 09 60 09 FD 09
 (2.4190)  can1  596FF71   [8]  01 80 FF FF FF FF FF 9F
 (2.4200)  can1  597FF71   [8]  00 08 8E 10 FF FF F4 4B
 (2.4210)  can1  599FF71   [8]  1A D0 02 81 02 00 F5 87
 (2.4220)  can1  4100208   [8]  7F 17 09 00 00 00 00 00
 (2.4220)  can1  8250C03   [8]  51 00 54 01 00 00 2C 00
 (2.4230)  can1  8840C03   [8]  2F 00 15 00 22 00 07 00
 (2.4230)  can1  88D0C03   [8]  4D 00 00 00 59 00 63 00
 (2.4240)  can1  8A00C03   [1]  0E
 (2.4240)  can1  5807202   [8]  04 80 00 00 E0 01 03 3C
 (2.4250)  can1  5817202   [8]  01 00 10 27 10 27 0A E3
 (2.4260)  can1  585FF72   [8]  04 80 60 09 60 09 F2 09
 (2.4270)  can1  5907102   [8]  04 80 00 00 E0 01 03 3C
 (2.4270)  can1  5827202   [8]  FA 00 00 00 00 00 03 D4
 (2.4280)  can1  5917102   [8]  01 00 10 27 10 27 0A E3
 (2.4280)  can1  5927102   [8]  FA 00 00 00 00 00 03 D4
 (2.4290)  can1  5837202   [8]  2C 41 06 00 00 00 03 E0
 (2.4300)  can1  5937102   [8]  2C 41 06 00 00 00 03 E0
 (2.4310)  can1  5847270   [8]  00 00 00 00 00 00 03 9F
 (2.4310)  can1  5947102   [8]  00 00 00 00 00 00 03 9F
 (2.4320)  can1  89A0C02   [8]  CC 0B 00 00 99 17 00 00
 (2.4320)  can1  8580C02   [8]  00 00 01 00 00 00 00 00
 (2.4330)  can1  8030C02   [8]  00 00 2A 68 2A 68 92 17
 (2.4330)  can1  4100209   [8]  81 66 09 00 00 00 00 00
 (2.4340)  can1  4100208   [8]  7F 17 09 00 00 00 00 00
 (2.4340)  can1  8100302   [5]  01 00 0A 00 0A
 (2.4350)  can1  586FF72   [8]  02 80 FF FF FF FF F5 63
 (2.4360)  can1  4100209   [8]  81 66 09 00 00 00 00 00
 (2.4360)  can1  595FF71   [8]  04 80 60 09 60 09 FE 09
 (2.4370)  can1  596FF71   [8]  00 80 FF FF FF FF F0 CB
 (2.4380)  can1  4100208   [8]  7F 17 09 00 03 00 00 00
 (2.4390)  can1  89A0C02   [8]  00 00 00 00 99 17 00 00
 (2.4390)  can1  8030C02   [8]  00 00 2A 68 2A 68 92 17
 (2.4400)  can1  585FF72   [8]  04 80 60 09 60 09 F3 09
 (2.4410)  can1  8580C02   [8]  00 00 01 00 04 00 00 00
 (2.4410)  can1  8101201   [8]  E9 66 9D 93 AE 90 54 00
 (2.4420)  can1  8010C01   [8]  67 66 00 00 00 00 00 00
 (2.4450)  can1  4100209   [8]  81 66 09 00 00 00 00 00
 (2.4470)  can1  4100208   [8]  7F 17 09 00 00 00 00 00
 (2.4490)  can1  586FF72   [8]  03 80 FF FF FF FF F6 37
 (2.4530)  can1  8100302   [5]  01 00 0A 00 0A
 (2.4550)  can1  4100209   [8]  82 66 09 00 03 00 00 00
 (2.4550)  can1  404FF07   [1]  00
 (2.4560)  can1  595FF71   [8]  04 80 60 09 60 09 FF 09
 (2.4560)  can1  596FF71   [8]  01 80 FF FF FF FF F1 9F
 (2.4570)  can1  4100208   [8]  7F 17 09 00 00 00 00 00
 (2.4580)  can1  89A0C02   [8]  CC 0B 00 00 66 23 00 00
 (2.4580)  can1  8030C02   [8]  30 75 E9 FE 54 FF 00 00
 (2.4590)  can1  585FF72   [8]  04 80 60 09 60 09 F4 09
 (2.4590)  can1  8580C02   [8]  00 00 02 00 00 00 04 00
 (2.4620)  can1  404FF01   [1]  00
 (2.4650)  can1  4100209   [8]  82 66 09 00 00 00 00 00
 (2.4650)  can1  8041001   [8]  9D 02 E0 53 EA 66 3B 00
 (2.4660)  can1  80F1201   [4]  C2 10 00 00
 (2.4670)  can1  8120C01   [8]  90 00 00 00 00 00 00 00
 (2.4680)  can1  18800401   [8]  0C 30 93 1E 93 17 93 00
 (2.4680)  can1  4100208   [8]  7F 17 09 00 00 00 00 00
 (2.4690)  can1  18840401   [8]  0C 47 93 36 93 2F 93 00
 (2.4700)  can1  18C00401   [8]  0C AE 2E A9 2E 49 2E 00
 (2.4700)  can1  586FF72   [8]  FE 7F FF FF FF FF F7 4D
 (2.4710)  can1  587FF72   [8]  0B 08 6D 10 FF FF F5 63
 (2.4710)  can1  528FF72   [8]  00 00 44 00 00 00 45 00
 (2.4720)  can1  529FF72   [8]  1F 00 41 00 0A 00 04 00
 (2.4720)  can1  52CFF72   [8]  00 00 EF FF EF FF 3A 00
 (2.4730)  can1  588FF72   [8]  40 01 5A FF FF FF F5 63
 (2.4730)  can1  589FF72   [8]  1A D0 02 81 02 00 F6 87
 (2.4750)  can1  4100209   [8]  82 66 09 00 00 00 00 00
 (2.4750)  can1  595FF71   [8]  04 80 60 09 60 09 F0 09
 (2.4760)  can1  528FF71   [8]  0C 00 48 00 00 00 45 00
 (2.4770)  can1  529FF71   [8]  0E 00 44 00 0A 00 04 00
 (2.4780)  can1  52CFF71   [8]  00 00 EF FF EF FF 3A 00
 (2.4780)  can1  4100208   [8]  7F 17 09 00 00 00 00 00
 (2.4790)  can1  596FF71   [8]  FF 7F FF FF FF FF F2 19
 (2.4800)  can1  5807202   [8]  04 80 00 00 E0 01 04 3C
 (2.4810)  can1  5817202   [8]  01 00 10 27 10 27 0B E3
 (2.4820)  can1  585FF72   [8]  04 80 60 09 60 09 F5 09
 (2.4830)  can1  5907102   [8]  04 80 00 00 E0 01 04 3C
 (2.4840)  can1  5827202   [8]  FA 00 00 00 00 00 04 D4
 (2.4840)  can1  5917102   [8]  01 00 10 27 10 27 0B E3
 (2.4850)  can1  5927102   [8]  FA 00 00 00 00 00 04 D4
 (2.4850)  can1  5837202   [8]  2C 41 06 00 00 00 04 E0
 (2.4860)  can1  5937102   [8]  2C 41 06 00 00 00 04 E0
 (2.4860)  can1  5847270   [8]  00 00 00 00 00 00 04 9F
 (2.4870)  can1  404FF02   [1]  00
 (2.4870)  can1  5947102   [8]  00 00 00 00 00 00 04 9F
 (2.4880)  can1  8100302   [5]  01 00 0A 00 0A
 (2.4880)  can1  8580C02   [8]  00 00 FF FF 00 00 00 00
 (2.4890)  can1  89A0C02   [8]  00 00 00 00 00 00 00 00
 (2.4900)  can1  8030C02   [8]  00 00 2A 68 2A 68 92 17
 (2.4900)  can1  4100209   [8]  82 66 09 00 00 00 00 00
 (2.4910)  can1  4100208   [8]  7F 17 09 00 00 00 00 00
 (2.4910)  can1  586FF72   [8]  FF 7F FF FF FF FF F8 19
 (2.4950)  can1  4100209   [8]  82 66 09 00 00 00 00 00
 (2.4950)  can1  595FF71   [8]  04 80 60 09 60 09 F1 09
 (2.4960)  can1  596FF71   [8]  FE 7F FF FF FF FF F3 4D
 (2.4980)  can1  598FF71   [8]  20 01 7A FF FF FF F5 3B
 (2.4990)  can1  4100208   [8]  7F 17 09 00 00 00 00 00
 (2.4990)  can1  89A0C02   [8]  00 00 00 00 00 00 00 00
 (2.5000)  can1  8030C02   [8]  00 00 2A 68 2A 68 92 17
 (2.5000)  can1  585FF72   [8]  04 80 60 09 60 09 F6 09
 (2.5010)  can1  8580C02   [8]  FF FF 00 00 00 00 00 00
 (2.5030)  can1  8100302   [5]  01 00 0A 00 0A
 (2.5050)  can1  4100209   [8]  82 66 09 00 00 00 00 00
 (2.5070)  can1  4100208   [8]  7F 17 09 00 00 00 00 00
 (2.5090)  can1  586FF72   [8]  FE 7F FF FF FF FF F9 4D
 (2.5140)  can1  18800401   [8]  0D 1E 93 45 93 37 93 00
 (2.5140)  can1  18840401   [8]  0D 33 93 5D 93 50 93 00
 (2.5150)  can1  18C00401   [8]  0D 44 2E C3 2D B1 2D 00
 (2.5160)  can1  18101203   [4]  FE 2C 8D 08
 (2.5170)  can1  4100209   [8]  82 66 09 00 00 00 00 00
 (2.5170)  can1  595FF71   [8]  04 80 60 09 60 09 F2 09
 (2.5180)  can1  596FF71   [8]  02 80 FF FF FF FF F4 63
 (2.5190)  can1  597FF71   [8]  00 08 8C 10 FF FF F5 0E
 (2.5190)  can1  599FF71   [8]  1A D0 02 81 02 00 F6 87
 (2.5200)  can1  4100208   [8]  7F 17 09 00 00 00 00 00
 (2.5210)  can1  89A0C02   [8]  99 17 00 00 00 00 00 00
 (2.5210)  can1  8030C02   [8]  00 00 2A 68 2A 68 92 17
 (2.5220)  can1  585FF72   [8]  04 80 60 09 60 09 F7 09
 (2.5220)  can1  8580C02   [8]  01 00 FF FF 00 00 00 00
 (2.5250)  can1  4100209   [8]  82 66 09 00 00 00 00 00
 (2.5270)  can1  4100208   [8]  7F 17 09 00 00 00 00 00
 (2.5280)  can1  8100302   [5]  01 00 0A 00 0A
 (2.5280)  can1  586FF72   [8]  FE 7F FF FF FF FF FA 4D
 (2.5350)  can1  4100209   [8]  82 66 09 00 00 00 00 00
 (2.5350)  can1  595FF71   [8]  04 80 60 09 60 09 F3 09
 (2.5360)  can1  596FF71   [8]  01 80 FF FF FF FF F5 9F
 (2.5370)  can1  4100208   [8]  7F 17 09 00 00 00 00 00
 (2.5390)  can1  5807202   [8]  04 80 00 00 E0 01 05 3C
 (2.5390)  can1  5817202   [8]  01 00 10 27 10 27 0C E3
 (2.5400)  can1  585FF72   [8]  04 80 60 09 60 09 F8 09
 (2.5410)  can1  5907102   [8]  04 80 00 00 E0 01 05 3C
 (2.5420)  can1  5827202   [8]  FA 00 00 00 00 00 05 D4
 (2.5420)  can1  5917102   [8]  01 00 10 27 10 27 0C E3
 (2.5430)  can1  5927102   [8]  FA 00 00 00 00 00 05 D4
 (2.5440)  can1  5837202   [8]  2C 41 06 00 00 00 05 E0
 (2.5450)  can1  5937102   [8]  2C 41 06 00 00 00 05 E0
 (2.5460)  can1  8010C01   [8]  68 66 00 00 00 00 00 00
 (2.5460)  can1  5847270   [8]  00 00 00 00 00 00 05 9F
 (2.5470)  can1  5947102   [8]  00 00 00 00 00 00 05 9F
 (2.5470)  can1  8101201   [8]  E9 66 98 93 AF 90 55 00
 (2.5480)  can1  89A0C02   [8]  CC 0B 00 00 00 00 00 00
 (2.5480)  can1  8030C02   [8]  00 00 2A 68 2A 68 92 17
 (2.5490)  can1  8580C02   [8]  00 00 FF FF 00 00 00 00
 (2.5500)  can1  4100209   [8]  82 66 09 00 00 00 00 00
 (2.5500)  can1  4100208   [8]  7F 17 09 00 00 00 00 00
 (2.5510)  can1  586FF72   [8]  FF 7F FF FF FF FF FB 19
 (2.5530)  can1  8100302   [5]  01 00 0A 00 0A
 (2.5550)  can1  4100209   [8]  82 66 09 00 00 00 00 00
 (2.5560)  can1  595FF71   [8]  04 80 60 09 60 09 F4 09
 (2.5560)  can1  596FF71   [8]  01 80 FF FF FF FF F6 9F
 (2.5570)  can1  4100208   [8]  7F 17 09 00 00 00 00 00
 (2.5590)  can1  89A0C02   [8]  CC 0B 00 00 00 00 00 00
 (2.5590)  can1  8030C02   [8]  00 00 2A 68 2A 68 92 17
 (2.5600)  can1  585FF72   [8]  04 80 60 09 60 09 F9 09
 (2.5600)  can1  8580C02   [8]  00 00 00 00 00 00 00 00
 (2.5650)  can1  4100209   [8]  82 66 09 00 00 00 00 00
 (2.5650)  can1  8041001   [8]  9D 02 E0 53 EA 66 3B 00
 (2.5660)  can1  18800401   [8]  0E 03 93 FA 92 E8 92 00
 (2.5670)  can1  18840401   [8]  0E 19 93 12 93 F9 92 00
 (2.5670)  can1  18C00401   [8]  0E 3A 2E 42 2E 84 2E 00
 (2.5680)  can1  4100208   [8]  7F 17 09 00 00 00 00 00
 (2.5690)  can1  586FF72   [8]  00 80 FF FF FF FF FC CB
 (2.5690)  can1  587FF72   [8]  0D 08 6F 10 FF FF F6 F1
 (2.5700)  can1  588FF72   [8]  40 01 5A FF FF FF F6 63
 (2.5700)  can1  589FF72   [8]  1A D0 02 81 02 00 F7 87
 (2.5750)  can1  4100209   [8]  82 66 09 00 00 00 00 00
 (2.5760)  can1  595FF71   [8]  04 80 60 09 60 09 F5 09
 (2.5760)  can1  596FF71   [8]  01 80 FF FF FF FF F7 9F
 (2.5770)  can1  4100208   [8]  7F 17 09 00 00 00 00 00
 (2.5780)  can1  8100302   [5]  01 00 0A 00 0A
 (2.5790)  can1  8580C02   [8]  00 00 00 00 00 00 00 00
 (2.5800)  can1  585FF72   [8]  04 80 60 09 60 09 FA 09
 (2.5800)  can1  89A0C02   [8]  CC 0B 00 00 00 00 00 00
 (2.5800)  can1  8030C02   [8]  00 00 2A 68 2A 68 92 17
 (2.5850)  can1  4100209   [8]  82 66 09 00 00 00 00 00
 (2.5870)  can1  4100208   [8]  7F 17 09 00 00 00 00 00
 (2.5890)  can1  586FF72   [8]  FE 7F FF FF FF FF FD 4D
 (2.5940)  can1  1948FF72   [8]  00 C0 00 55 FF FF 92 A5
 (2.5940)  can1  1949FF72   [8]  0D 80 00 0D 90 00 93 BD
 (2.5950)  can1  194AFF72   [8]  36 77 57 77 55 57 94 BB
 (2.5960)  can1  194BFF72   [8]  72 F5 FF FF FF FF 95 F8
 (2.5970)  can1  194CFF72   [8]  FF FF FF FF FF FF 96 90
 (2.5980)  can1  4100209   [8]  82 66 09 00 00 00 00 00
 (2.5990)  can1  595FF71   [8]  04 80 60 09 60 09 F6 09
 (2.5990)  can1  596FF71   [8]  FE 7F FF FF FF FF F8 4D
 (2.6370)  can1  598FF71   [8]  20 01 7A FF FF FF F6 3B
 (2.6380)  can1  4100208   [8]  7F 17 09 00 00 00 00 00
 (2.6390)  can1  5807202   [8]  04 80 00 00 E0 01 06 3C
 (2.6400)  can1  5817202   [8]  01 00 10 27 10 27 0D E3
 (2.6400)  can1  585FF72   [8]  04 80 60 09 60 09 FB 09
 (2.6400)  can1  5907102   [8]  04 80 00 00 E0 01 06 3C
 (2.6410)  can1  5827202   [8]  FA 00 00 00 00 00 06 D4
 (2.6410)  can1  5917102   [8]  01 00 10 27 10 27 0D E3
 (2.6420)  can1  5927102   [8]  FA 00 00 00 00 00 06 D4
 (2.6420)  can1  5837202   [8]  2C 41 06 00 00 00 06 E0
 (2.6430)  can1  5937102   [8]  2C 41 06 00 00 00 06 E0
 (2.6440)  can1  5847270   [8]  00 00 00 00 00 00 06 9F
 (2.6450)  can1  5947102   [8]  00 00 00 00 00 00 06 9F
 (2.6460)  can1  89A0C02   [8]  00 00 00 00 00 00 00 00
 (2.6460)  can1  8580C02   [8]  FF FF FF FF 00 00 00 00
 (2.6460)  can1  8030C02   [8]  00 00 2A 68 2A 68 92 17
 (2.6470)  can1  8100302   [5]  01 00 0A 00 0A
 (2.6480)  can1  4100209   [8]  82 66 09 00 00 00 00 00
 (2.6480)  can1  4100208   [8]  7F 17 09 00 00 00 00 00
 (2.6490)  can1  586FF72   [8]  FF 7F FF FF FF FF FE 19
 (2.6500)  can1  18800401   [8]  0F AC 92 02 93 3A 93 00
 (2.6500)  can1  18840401   [8]  0F C4 92 18 93 52 93 00
 (2.6510)  can1  18C00401   [8]  0F 8C 2E B1 2E D3 2E 00
 (2.6510)  can1  4100209   [8]  82 66 09 00 00 00 00 00
 (2.6520)  can1  595FF71   [8]  04 80 60 09 60 09 F7 09
 (2.6530)  can1  596FF71   [8]  03 80 FF FF FF FF F9 37
 (2.6530)  can1  597FF71   [8]  FE 07 8C 10 FF FF F6 F3
 (2.6540)  can1  599FF71   [8]  1A D0 02 81 02 00 F7 87
 (2.6540)  can1  4100208   [8]  7F 17 09 00 00 00 00 00
 (2.6550)  can1  89A0C02   [8]  66 23 00 00 00 00 00 00
 (2.6560)  can1  8030C02   [8]  00 00 2A 68 2A 68 92 17
 (2.6560)  can1  585FF72   [8]  04 80 60 09 60 09 FC 09
 (2.6570)  can1  8580C02   [8]  02 00 00 00 00 00 00 00
 (2.6570)  can1  4100209   [8]  82 66 09 00 00 00 00 00
 (2.6580)  can1  4100208   [8]  7F 17 09 00 00 00 00 00
 (2.6580)  can1  8100302   [5]  01 00 0A 00 0A
 (2.6590)  can1  586FF72   [8]  FF 7F FF FF FF FF FF 19
 (2.6600)  can1  4100209   [8]  82 66 09 00 00 00 00 00
 (2.6600)  can1  595FF71   [8]  04 80 60 09 60 09 F8 09
 (2.6610)  can1  596FF71   [8]  FE 7F FF FF FF FF FA 4D
 (2.6630)  can1  4100208   [8]  7F 17 09 00 00 00 00 00
 (2.6630)  can1  89A0C02   [8]  00 00 00 00 00 00 00 00
 (2.6640)  can1  8030C02   [8]  00 00 2A 68 2A 68 92 17
 (2.6640)  can1  585FF72   [8]  04 80 60 09 60 09 FD 09
 (2.6650)  can1  8580C02   [8]  FF FF 00 00 00 00 00 00
 (2.6660)  can1  1948FF71   [8]  00 C0 00 55 FF FF 92 A5
 (2.6660)  can1  8010C01   [8]  66 66 00 00 00 00 00 00
 (2.6670)  can1  8101201   [8]  E8 66 98 93 AE 90 35 00
 (2.6680)  can1  1949FF71   [8]  0D 80 00 0D A0 00 93 CD
 (2.6680)  can1  194AFF71   [8]  20 37 58 86 65 58 94 86
 (2.6690)  can1  194BFF71   [8]  88 F5 FF FF FF FF 95 0E
 (2.6700)  can1  194CFF71   [8]  FF FF FF FF FF FF 96 90
 (2.6700)  can1  4100209   [8]  82 66 09 00 00 00 00 00
 (2.6710)  can1  4100208   [8]  7F 17 09 00 00 00 00 00
 (2.6710)  can1  586FF72   [8]  01 80 FF FF FF FF F0 9F
 (2.6720)  can1  8100302   [5]  01 00 0A 00 0A
 (2.6720)  can1  4100209   [8]  82 66 09 00 00 00 00 00
 (2.6730)  can1  595FF71   [8]  04 80 60 09 60 09 F9 09
 (2.6730)  can1  596FF71   [8]  FE 7F FF FF FF FF FB 4D
 (2.6740)  can1  4100208   [8]  7F 17 09 00 00 00 00 00
 (2.6740)  can1  5807202   [8]  04 80 00 00 E0 01 07 3C
 (2.6750)  can1  5817202   [8]  01 00 10 27 10 27 0E E3
 (2.6760)  can1  585FF72   [8]  04 80 60 09 60 09 FE 09
 (2.6760)  can1  5907102   [8]  04 80 00 00 E0 01 07 3C
 (2.6770)  can1  5827202   [8]  FA 00 00 00 00 00 07 D4
 (2.6780)  can1  5917102   [8]  01 00 10 27 10 27 0E E3
 (2.6780)  can1  5927102   [8]  FA 00 00 00 00 00 07 D4
 (2.6790)  can1  5837202   [8]  2C 41 06 00 00 00 07 E0
 (2.6800)  can1  5937102   [8]  2C 41 06 00 00 00 07 E0
 (2.6800)  can1  5847270   [8]  00 00 00 00 00 00 07 9F
 (2.6810)  can1  5947102   [8]  00 00 00 00 00 00 07 9F
 (2.6810)  can1  89A0C02   [8]  00 00 00 00 CC 0B 00 00
 (2.6810)  can1  8580C02   [8]  FF FF 00 00 00 00 00 00
 (2.6820)  can1  8030C02   [8]  00 00 2A 68 2A 68 92 17
 (2.6820)  can1  4100209   [8]  82 66 09 00 00 00 00 00
 (2.6830)  can1  8041001   [8]  9D 02 E0 53 EA 66 3B 00
 (2.6830)  can1  18800401   [8]  10 33 93 2E 93 21 93 00
 (2.6840)  can1  18840401   [8]  10 47 93 44 93 38 93 00
 (2.6840)  can1  18C00401   [8]  10 B8 2E D9 2E 90 2E 00
 (2.6840)  can1  4100208   [8]  7F 17 09 00 00 00 00 00
 (2.6850)  can1  586FF72   [8]  FF 7F FF FF FF FF F1 19
 (2.6860)  can1  587FF72   [8]  0A 08 6F 10 FF FF F7 72
 (2.6870)  can1  588FF72   [8]  40 01 5A FF FF FF F7 63
 (2.6870)  can1  589FF72   [8]  1A D0 02 81 02 00 F8 87
 (2.6880)  can1  4100209   [8]  82 66 09 00 00 00 00 00
 (2.6880)  can1  595FF71   [8]  04 80 60 09 60 09 FA 09
 (2.6890)  can1  596FF71   [8]  FD 7F FF FF FF FF FC B1
 (2.6900)  can1  4100208   [8]  7F 17 09 00 00 00 00 00
 (2.6900)  can1  8100302   [5]  01 00 0A 00 0A
 (2.6910)  can1  8580C02   [8]  FE FF 00 00 00 00 00 00
 (2.6910)  can1  89A0C02   [8]  00 00 00 00 00 00 00 00
 (2.6920)  can1  585FF72   [8]  04 80 60 09 60 09 FF 09
 (2.6920)  can1  8030C02   [8]  00 00 2A 68 2A 68 92 17
 (2.6930)  can1  4100209   [8]  82 66 09 00 00 00 00 00
 (2.6940)  can1  4100208   [8]  7F 17 09 00 00 00 00 00
 (2.6940)  can1  586FF72   [8]  FE 7F FF FF FF FF F2 4D
 (2.6950)  can1  4100209   [8]  82 66 09 00 00 00 00 00
 (2.6950)  can1  595FF71   [8]  04 80 60 09 60 09 FB 09
 (2.6960)  can1  596FF71   [8]  00 80 FF FF FF FF FD CB
 (2.6970)  can1  598FF71   [8]  20 01 7A FF FF FF F7 3B
 (2.6970)  can1  4100208   [8]  7F 17 09 00 00 00 00 00
 (2.6990)  can1  89A0C02   [8]  00 00 00 00 00 00 00 00
 (2.6990)  can1  8030C02   [8]  00 00 2A 68 2A 68 92 17
 (2.7000)  can1  585FF72   [8]  04 80 60 09 60 09 F0 09
 (2.7000)  can1  8580C02   [8]  00 00 FF FF 00 00 00 00
 (2.7030)  can1  8100302   [5]  01 00 0A 00 0A
 (2.7050)  can1  4100209   [8]  82 66 09 00 00 00 00 00
 (2.7070)  can1  4100208   [8]  7F 17 09 00 00 00 00 00
 (2.7100)  can1  586FF72   [8]  00 80 FF FF FF FF F3 CB
 (2.7140)  can1  18800401   [8]  11 11 93 0E 93 1C 93 00
 (2.7150)  can1  18840401   [8]  11 28 93 24 93 30 93 00
 (2.7150)  can1  18C00401   [8]  11 AB 2E 3D 2E 64 2E 00
 (2.7160)  can1  4100209   [8]  82 66 09 00 00 00 00 00
 (2.7170)  can1  595FF71   [8]  04 80 60 09 60 09 FC 09
 (2.7170)  can1  596FF71   [8]  FE 7F FF FF FF FF FE 4D
 (2.7180)  can1  597FF71   [8]  03 08 8C 10 FF FF F7 F2
 (2.7190)  can1  599FF71   [8]  1A D0 02 81 02 00 F8 87
 (2.7190)  can1  4100208   [8]  7F 17 09 00 00 00 00 00
 (2.7200)  can1  5807202   [8]  04 80 00 00 E0 01 08 3C
 (2.7210)  can1  5817202   [8]  01 00 10 27 10 27 0F E3
 (2.7220)  can1  585FF72   [8]  04 80 60 09 60 09 F1 09
 (2.7230)  can1  5907102   [8]  04 80 00 00 E0 01 08 3C
 (2.7230)  can1  5827202   [8]  FA 00 00 00 00 00 08 D4
 (2.7240)  can1  5917102   [8]  01 00 10 27 10 27 0F E3
 (2.7240)  can1  5927102   [8]  FA 00 00 00 00 00 08 D4
 (2.7250)  can1  5837202   [8]  2C 41 06 00 00 00 08 E0
 (2.7250)  can1  5937102   [8]  2C 41 06 00 00 00 08 E0
 (2.7260)  can1  5847270   [8]  00 00 00 00 00 00 08 9F
 (2.7270)  can1  5947102   [8]  00 00 00 00 00 00 08 9F
 (2.7270)  can1  89A0C02   [8]  00 00 00 00 00 00 00 00
 (2.7280)  can1  8580C02   [8]  FF FF 00 00 00 00 00 00
 (2.7280)  can1  8030C02   [8]  00 00 2A 68 2A 68 92 17
 (2.7290)  can1  4100209   [8]  82 66 09 00 00 00 00 00
 (2.7290)  can1  4100208   [8]  7F 17 09 00 00 00 00 00
 (2.7300)  can1  8100302   [5]  01 00 0A 00 0A
 (2.7310)  can1  586FF72   [8]  FE 7F FF FF FF FF F4 4D
 (2.7350)  can1  4100209   [8]  82 66 09 00 00 00 00 00
 (2.7360)  can1  595FF71   [8]  04 80 60 09 60 09 FD 09
 (2.7360)  can1  596FF71   [8]  00 80 FF FF FF FF FF CB
 (2.7370)  can1  4100208   [8]  7F 17 09 00 00 00 00 00
 (2.7380)  can1  89A0C02   [8]  00 00 00 00 00 00 00 00
 (2.7380)  can1  8030C02   [8]  00 00 2A 68 2A 68 92 17
 (2.7390)  can1  585FF72   [8]  04 80 60 09 60 09 F2 09
 (2.7390)  can1  8580C02   [8]  00 00 FF FF 00 00 00 00
 (2.7420)  can1  8101201   [8]  EC 66 99 93 AE 90 5E 00
 (2.7420)  can1  8010C01   [8]  69 66 00 00 00 00 00 00
 (2.7450)  can1  4100209   [8]  82 66 09 00 00 00 00 00
 (2.7470)  can1  4100208   [8]  7F 17 09 00 00 00 00 00
 (2.7490)  can1  586FF72   [8]  00 80 FF FF FF FF F5 CB
 (2.7530)  can1  8100302   [5]  01 00 0A 00 0A
 (2.7550)  can1  4100209   [8]  82 66 09 00 00 00 00 00
 (2.7550)  can1  595FF71   [8]  04 80 60 09 60 09 FE 09
 (2.7560)  can1  596FF71   [8]  FD 7F FF FF FF FF F0 B1
 (2.7570)  can1  4100208   [8]  7F 17 09 00 00 00 00 00
 (2.7580)  can1  89A0C02   [8]  00 00 00 00 00 00 00 00
 (2.7580)  can1  8030C02   [8]  00 00 2A 68 2A 68 92 17
 (2.7590)  can1  585FF72   [8]  04 80 60 09 60 09 F3 09
 (2.7600)  can1  8580C02   [8]  FE FF 00 00 00 00 00 00
 (2.7650)  can1  4100209   [8]  82 66 09 00 00 00 00 00
 (2.7650)  can1  8041001   [8]  9D 02 E0 53 EA 66 3B 00
 (2.7660)  can1  18800401   [8]  12 4E 93 41 93 F9 92 00
 (2.7670)  can1  18840401   [8]  12 65 93 58 93 0F 93 00
 (2.7680)  can1  18C00401   [8]  12 FB 2D D3 2D D6 2D 00
 (2.7680)  can1  4100208   [8]  7F 17 09 00 00 00 00 00
 (2.7690)  can1  586FF72   [8]  FD 7F FF FF FF FF F6 B1
 (2.7700)  can1  587FF72   [8]  0D 08 72 10 FF FF F8 83
 (2.7700)  can1  588FF72   [8]  40 01 5A FF FF FF F8 63
 (2.7710)  can1  589FF72   [8]  1A D0 02 81 02 00 F9 87
 (2.7750)  can1  4100209   [8]  82 66 09 00 00 00 00 00
 (2.7750)  can1  595FF71   [8]  04 80 60 09 60 09 FF 09
 (2.7760)  can1  596FF71   [8]  FF 7F FF FF FF FF F1 19
 (2.7780)  can1  4100208   [8]  7F 17 09 00 00 00 00 00
 (2.7780)  can1  5807202   [8]  09 80 00 00 E0 01 09 E9
 (2.7790)  can1  5817202   [8]  01 00 10 27 10 27 00 E3
 (2.7800)  can1  585FF72   [8]  04 80 60 09 60 09 F4 09
 (2.7810)  can1  5907102   [8]  09 80 00 00 E0 01 09 E9
 (2.7820)  can1  5827202   [8]  FA 00 00 00 00 00 09 D4
 (2.7830)  can1  5917102   [8]  01 00 10 27 10 27 00 E3
 (2.7830)  can1  5927102   [8]  FA 00 00 00 00 00 09 D4
 (2.7840)  can1  5837202   [8]  2C 41 06 00 00 00 09 E0
 (2.7840)  can1  5937102   [8]  2C 41 06 00 00 00 09 E0
 (2.7850)  can1  5847270   [8]  00 00 00 00 00 00 09 9F
 (2.7860)  can1  5947102   [8]  00 00 00 00 00 00 09 9F
 (2.7860)  can1  8100302   [5]  02 00 0A 00 0A
 (2.7870)  can1  89A0C02   [8]  00 00 00 00 00 00 00 00
 (2.7870)  can1  8030C02   [8]  00 00 2A 68 2A 68 92 17
 (2.7880)  can1  8580C02   [8]  00 00 FE FF 00 00 00 00
 (2.7890)  can1  4100209   [8]  82 66 09 00 00 00 00 00
 (2.7890)  can1  4100208   [8]  7F 17 09 00 00 00 00 00
 (2.7900)  can1  586FF72   [8]  02 80 FF FF FF FF F7 63
 (2.7950)  can1  4100209   [8]  82 66 09 00 00 00 00 00
 (2.7950)  can1  595FF71   [8]  09 80 60 09 60 09 F0 DC
 (2.7960)  can1  596FF71   [8]  04 80 FF FF FF FF F2 B4
 (2.7970)  can1  598FF71   [8]  20 01 7A FF FF FF F8 3B
 (2.7980)  can1  4100208   [8]  7F 17 09 00 00 00 00 00
 (2.7990)  can1  89A0C02   [8]  33 2F 00 00 99 17 00 00
 (2.7990)  can1  8030C02   [8]  00 00 2A 68 2A 68 92 17
 (2.7990)  can1  585FF72   [8]  09 80 60 09 60 09 F5 DC
 (2.8000)  can1  8580C02   [8]  02 00 01 00 00 00 00 00
 (2.8030)  can1  8100302   [5]  02 00 0A 00 0A
 (2.8050)  can1  4100209   [8]  82 66 09 00 00 00 00 00
 (2.8070)  can1  4100208   [8]  7F 17 09 00 00 00 00 00
 (2.8090)  can1  586FF72   [8]  01 80 FF FF FF FF F8 9F
 (2.8140)  can1  18800401   [8]  13 ED 92 D9 92 EE 92 00
 (2.8150)  can1  18840401   [8]  13 02 93 EE 92 06 93 00
 (2.8160)  can1  18C00401   [8]  13 DB 2D 17 2E 25 2E 00
 (2.8170)  can1  4100209   [8]  82 66 09 00 00 00 00 00
 (2.8170)  can1  595FF71   [8]  09 80 60 09 60 09 F1 DC
 (2.8180)  can1  596FF71   [8]  07 80 FF FF FF FF F3 48
 (2.8180)  can1  597FF71   [8]  04 08 89 10 FF FF F8 4E
 (2.8190)  can1  599FF71   [8]  1A D0 02 81 02 00 F9 87
 (2.8200)  can1  4100208   [8]  7F 17 09 00 00 00 00 00
 (2.8200)  can1  89A0C02   [8]  99 52 00 00 CC 0B 00 00
 (2.8210)  can1  8030C02   [8]  00 00 2A 68 2A 68 92 17
 (2.8210)  can1  585FF72   [8]  09 80 60 09 60 09 F6 DC
 (2.8220)  can1  8580C02   [8]  04 00 00 00 00 00 00 00
 (2.8250)  can1  4100209   [8]  82 66 09 00 00 00 00 00
 (2.8270)  can1  4100208   [8]  7F 17 09 00 00 00 00 00
 (2.8280)  can1  8100302   [5]  02 00 0A 00 0A
 (2.8280)  can1  586FF72   [8]  04 80 FF FF FF FF F9 B4
 (2.8350)  can1  4100209   [8]  82 66 09 00 00 00 00 00
 (2.8360)  can1  595FF71   [8]  09 80 60 09 60 09 F2 DC
 (2.8370)  can1  596FF71   [8]  00 80 FF FF FF FF F4 CB
 (2.8370)  can1  4100208   [8]  7F 17 09 00 00 00 00 00
 (2.8390)  can1  5807202   [8]  04 80 00 00 E0 01 0A 3C
 (2.8390)  can1  5817202   [8]  01 00 10 27 10 27 01 E3
 (2.8400)  can1  585FF72   [8]  09 80 60 09 60 09 F7 DC
 (2.8400)  can1  5907102   [8]  04 80 00 00 E0 01 0A 3C
 (2.8410)  can1  5827202   [8]  FA 00 00 00 00 00 0A D4
 (2.8420)  can1  5917102   [8]  01 00 10 27 10 27 01 E3
 (2.8430)  can1  5927102   [8]  FA 00 00 00 00 00 0A D4
 (2.8440)  can1  5837202   [8]  2C 41 06 00 00 00 0A E0
 (2.8440)  can1  5937102   [8]  2C 41 06 00 00 00 0A E0
 (2.8450)  can1  5847270   [8]  00 00 00 00 00 00 0A 9F
 (2.8460)  can1  5947102   [8]  00 00 00 00 00 00 0A 9F
 (2.8460)  can1  89A0C02   [8]  00 00 00 00 33 2F 00 00
 (2.8470)  can1  8580C02   [8]  00 00 02 00 00 00 00 00
 (2.8480)  can1  8030C02   [8]  00 00 2A 68 2A 68 92 17
 (2.8480)  can1  8101201   [8]  E5 66 9C 93 AF 90 59 00
 (2.8490)  can1  8010C01   [8]  62 66 00 00 00 00 00 00
 (2.8500)  can1  4100209   [8]  82 66 09 00 00 00 00 00
 (2.8510)  can1  4100208   [8]  7F 17 09 00 00 00 00 00
 (2.8520)  can1  586FF72   [8]  01 80 FF FF FF FF FA 9F
 (2.8520)  can1  1948FF72   [8]  00 C0 00 55 FF FF 97 AA
 (2.8530)  can1  1949FF72   [8]  0D 90 00 0C B0 00 98 F1
 (2.8540)  can1  194AFF72   [8]  36 77 57 77 55 57 99 C0
 (2.8540)  can1  194BFF72   [8]  77 F5 FF FF FF FF 9A 02
 (2.8550)  can1  194CFF72   [8]  FF FF FF FF FF FF 9B 95
 (2.8560)  can1  8100302   [5]  01 00 0A 00 0A
 (2.8560)  can1  4100209   [8]  82 66 09 00 00 00 00 00
 (2.8570)  can1  595FF71   [8]  04 80 60 09 60 09 F3 09
 (2.8570)  can1  596FF71   [8]  FB 7F FF FF FF FF F5 66
 (2.8580)  can1  4100208   [8]  7F 17 09 00 00 00 00 00
 (2.8590)  can1  89A0C02   [8]  00 00 00 00 CC 0B 00 00
 (2.8600)  can1  8030C02   [8]  00 00 2A 68 2A 68 92 17
 (2.8600)  can1  585FF72   [8]  04 80 60 09 60 09 F8 09
 (2.8610)  can1  8580C02   [8]  FD FF 00 00 00 00 00 00
 (2.8650)  can1  4100209   [8]  82 66 09 00 00 00 00 00
 (2.8650)  can1  8041001   [8]  9D 02 E0 53 EA 66 3B 00
 (2.8660)  can1  18800401   [8]  14 E6 92 27 93 21 93 00
 (2.8670)  can1  18840401   [8]  14 0B 93 3F 93 37 93 00
 (2.8680)  can1  18C00401   [8]  14 27 2E 37 2E 25 2E 00
 (2.8680)  can1  4100208   [8]  7F 17 09 00 00 00 00 00
 (2.8690)  can1  586FF72   [8]  FB 7F FF FF FF FF FB 66
 (2.8700)  can1  587FF72   [8]  0E 08 6D 10 FF FF F9 48
 (2.8700)  can1  588FF72   [8]  40 01 5A FF FF FF F9 63
 (2.8710)  can1  589FF72   [8]  1A D0 02 81 02 00 FA 87
 (2.8750)  can1  4100209   [8]  82 66 09 00 00 00 00 00
 (2.8750)  can1  595FF71   [8]  04 80 60 09 60 09 F4 09
 (2.8760)  can1  596FF71   [8]  FC 7F FF FF FF FF F6 E5
 (2.8780)  can1  4100208   [8]  7F 17 09 00 00 00 00 00
 (2.8780)  can1  8100302   [5]  01 00 0A 00 0A
 (2.8790)  can1  8580C02   [8]  FE FF FD FF 00 00 00 00
 (2.8800)  can1  585FF72   [8]  04 80 60 09 60 09 F9 09
 (2.8810)  can1  89A0C02   [8]  00 00 00 00 00 00 00 00
 (2.8810)  can1  8030C02   [8]  00 00 2A 68 2A 68 92 17
 (2.8850)  can1  4100209   [8]  82 66 09 00 00 00 00 00
 (2.8870)  can1  4100208   [8]  7F 17 09 00 00 00 00 00
 (2.8890)  can1  586FF72   [8]  F9 7F FF FF FF FF FC CE
 (2.8950)  can1  4100209   [8]  82 66 09 00 00 00 00 00
 (2.8950)  can1  595FF71   [8]  04 80 60 09 60 09 F5 09
 (2.8960)  can1  596FF71   [8]  00 80 FF FF FF FF F7 CB
 (2.8970)  can1  598FF71   [8]  20 01 7A FF FF FF F9 3B
 (2.8970)  can1  1948FF71   [8]  00 C0 00 55 FF FF 97 AA
 (2.8980)  can1  1949FF71   [8]  0D 80 00 0D A0 00 98 D2
 (2.8990)  can1  4100208   [8]  7F 17 09 00 00 00 00 00
 (2.9000)  can1  194AFF71   [8]  20 67 58 86 65 58 99 BB
 (2.9000)  can1  194BFF71   [8]  8E F5 FF FF FF FF 9A 19
 (2.9010)  can1  194CFF71   [8]  FF FF FF FF FF FF 9B 95
 (2.9020)  can1  5807202   [8]  09 80 00 00 E0 01 0B E9
 (2.9020)  can1  5817202   [8]  01 00 10 27 10 27 02 E3
 (2.9030)  can1  585FF72   [8]  04 80 60 09 60 09 FA 09
 (2.9040)  can1  5907102   [8]  09 80 00 00 E0 01 0B E9
 (2.9040)  can1  5827202   [8]  FA 00 00 00 00 00 0B D4
 (2.9050)  can1  5917102   [8]  01 00 10 27 10 27 02 E3
 (2.9050)  can1  5927102   [8]  FA 00 00 00 00 00 0B D4
 (2.9060)  can1  5837202   [8]  2C 41 06 00 00 00 0B E0
 (2.9060)  can1  5937102   [8]  2C 41 06 00 00 00 0B E0
 (2.9070)  can1  5847270   [8]  00 00 00 00 00 00 0B 9F
 (2.9080)  can1  5947102   [8]  00 00 00 00 00 00 0B 9F
 (2.9080)  can1  89A0C02   [8]  00 00 00 00 00 00 00 00
 (2.9090)  can1  8580C02   [8]  00 00 FC FF 00 00 00 00
 (2.9100)  can1  8030C02   [8]  00 00 2A 68 2A 68 92 17
 (2.9100)  can1  8100302   [5]  02 00 0A 00 0A
 (2.9100)  can1  4100209   [8]  82 66 09 00 00 00 00 00
 (2.9110)  can1  4100208   [8]  7F 17 09 00 00 00 00 00
 (2.9110)  can1  586FF72   [8]  01 80 FF FF FF FF FD 9F
 (2.9140)  can1  18800401   [8]  15 2B 93 1B 93 0D 93 00
 (2.9140)  can1  18840401   [8]  15 44 93 36 93 27 93 00
 (2.9150)  can1  18C00401   [8]  15 44 2E FE 2D 1A 2E 00
 (2.9160)  can1  4100209   [8]  82 66 09 00 00 00 00 00
 (2.9160)  can1  595FF71   [8]  09 80 60 09 60 09 F6 DC
 (2.9170)  can1  596FF71   [8]  01 80 FF FF FF FF F8 9F
 (2.9170)  can1  597FF71   [8]  00 08 8C 10 FF FF F9 0E
 (2.9180)  can1  599FF71   [8]  1A D0 02 81 02 00 FA 87
 (2.9180)  can1  4100208   [8]  7F 17 09 00 00 00 00 00
 (2.9190)  can1  89A0C02   [8]  CC 0B 00 00 CC 0B 00 00
 (2.9200)  can1  8030C02   [8]  00 00 2A 68 2A 68 92 17
 (2.9210)  can1  585FF72   [8]  09 80 60 09 60 09 FB DC
 (2.9210)  can1  8580C02   [8]  00 00 00 00 00 00 00 00
 (2.9250)  can1  4100209   [8]  82 66 09 00 00 00 00 00
 (2.9270)  can1  4100208   [8]  7F 17 09 00 00 00 00 00
 (2.9300)  can1  8100302   [5]  02 00 0A 00 0A
 (2.9310)  can1  586FF72   [8]  04 80 FF FF FF FF FE B4
 (2.9350)  can1  4100209   [8]  82 66 09 00 00 00 00 00
 (2.9350)  can1  595FF71   [8]  09 80 60 09 60 09 F7 DC
 (2.9360)  can1  596FF71   [8]  05 80 FF FF FF FF F9 E0
 (2.9380)  can1  4100208   [8]  7F 17 09 00 00 00 00 00
 (2.9380)  can1  89A0C02   [8]  FF 3A 00 00 33 2F 00 00
 (2.9390)  can1  8030C02   [8]  00 00 2A 68 2A 68 92 17
 (2.9400)  can1  585FF72   [8]  09 80 60 09 60 09 FC DC
 (2.9410)  can1  8580C02   [8]  03 00 02 00 00 00 00 00
 (2.9450)  can1  8010C01   [8]  62 66 00 00 00 00 00 00
 (2.9450)  can1  8101201   [8]  E5 66 93 93 AF 90 76 00
 (2.9460)  can1  4100209   [8]  82 66 09 00 00 00 00 00
 (2.9480)  can1  4100208   [8]  7F 17 09 00 00 00 00 00
 (2.9490)  can1  586FF72   [8]  04 80 FF FF FF FF FF B4
 (2.9530)  can1  8100302   [5]  02 00 0A 00 0A
 (2.9550)  can1  4100209   [8]  82 66 09 00 00 00 00 00
 (2.9550)  can1  595FF71   [8]  09 80 60 09 60 09 F8 DC
 (2.9560)  can1  596FF71   [8]  01 80 FF FF FF FF FA 9F
 (2.9570)  can1  4100208   [8]  7F 17 09 00 00 00 00 00
 (2.9580)  can1  5807202   [8]  04 80 00 00 E0 01 0C 3C
 (2.9580)  can1  5817202   [8]  01 00 10 27 10 27 03 E3
 (2.9590)  can1  585FF72   [8]  09 80 60 09 60 09 FD DC
 (2.9600)  can1  5907102   [8]  04 80 00 00 E0 01 0C 3C
 (2.9610)  can1  5827202   [8]  FA 00 00 00 00 00 0C D4
 (2.9620)  can1  5917102   [8]  01 00 10 27 10 27 03 E3
 (2.9630)  can1  5927102   [8]  FA 00 00 00 00 00 0C D4
 (2.9630)  can1  5837202   [8]  2C 41 06 00 00 00 0C E0
 (2.9640)  can1  5937102   [8]  2C 41 06 00 00 00 0C E0
 (2.9640)  can1  5847270   [8]  00 00 00 00 00 00 0C 9F
 (2.9650)  can1  5947102   [8]  00 00 00 00 00 00 0C 9F
 (2.9660)  can1  89A0C02   [8]  CC 0B 00 00 33 2F 00 00
 (2.9670)  can1  8580C02   [8]  00 00 02 00 00 00 00 00
 (2.9680)  can1  8030C02   [8]  00 00 2A 68 2A 68 92 17
 (2.9690)  can1  4100209   [8]  82 66 09 00 00 00 00 00
 (2.9700)  can1  8041001   [8]  9D 02 E0 53 EA 66 3B 00
 (2.9700)  can1  18800401   [8]  16 04 93 0D 93 3D 93 00
 (2.9710)  can1  18840401   [8]  16 22 93 36 93 5B 93 00
 (2.9710)  can1  18C00401   [8]  16 D7 2D D6 2D 77 2D 00
 (2.9720)  can1  4100208   [8]  7F 17 09 00 00 00 00 00
 (2.9720)  can1  586FF72   [8]  FF 7F FF FF FF FF F0 19
 (2.9730)  can1  587FF72   [8]  10 08 72 10 FF FF FA 85
 (2.9740)  can1  528FF72   [8]  F2 FF 9E 00 00 00 9C 00
 (2.9740)  can1  529FF72   [8]  10 00 59 00 0D 00 09 00
 (2.9750)  can1  52AFF72   [8]  11 11 11 11 11 11 14 00
 (2.9750)  can1  52BFF72   [8]  0E 12 0E 11 00 FF 00 00
 (2.9760)  can1  52CFF72   [8]  00 00 EF FF EF FF 3A 00
 (2.9770)  can1  588FF72   [8]  40 01 5A FF FF FF FA 63
 (2.9780)  can1  589FF72   [8]  1A D0 02 81 02 00 FB 87
 (2.9780)  can1  4100209   [8]  82 66 09 00 00 00 00 00
 (2.9790)  can1  595FF71   [8]  04 80 60 09 60 09 F9 09
 (2.9800)  can1  596FF71   [8]  FB 7F FF FF FF FF FB 66
 (2.9800)  can1  528FF71   [8]  03 00 98 00 00 00 9C 00
 (2.9810)  can1  529FF71   [8]  F7 FF 5A 00 0D 00 04 00
 (2.9810)  can1  52AFF71   [8]  11 11 11 11 11 11 12 00
 (2.9820)  can1  4100208   [8]  7F 17 09 00 00 00 00 00
 (2.9820)  can1  52BFF71   [8]  0D 11 0D 11 00 FF 00 00
 (2.9830)  can1  52CFF71   [8]  00 00 EF FF EF FF 3A 00
 (2.9830)  can1  8100302   [5]  01 00 0A 00 0A
 (2.9840)  can1  8580C02   [8]  FD FF 00 00 00 00 00 00
 (2.9840)  can1  585FF72   [8]  04 80 60 09 60 09 FE 09
 (2.9850)  can1  89A0C02   [8]  00 00 00 00 00 00 00 00
 (2.9860)  can1  8030C02   [8]  00 00 2A 68 2A 68 92 17
 (2.9870)  can1  4100209   [8]  82 66 09 00 00 00 00 00
 (2.9870)  can1  4100208   [8]  7F 17 09 00 00 00 00 00
 (2.9900)  can1  586FF72   [8]  FA 7F FF FF FF FF F1 32
 (2.9950)  can1  4100209   [8]  82 66 09 00 00 00 00 00
 (2.9950)  can1  595FF71   [8]  04 80 60 09 60 09 FA 09
 (2.9960)  can1  596FF71   [8]  02 80 FF FF FF FF FC 63
 (2.9960)  can1  598FF71   [8]  20 01 7A FF FF FF FA 3B
 (2.9970)  can1  4100208   [8]  80 17 09 00 03 00 00 00
 (2.9980)  can1  89A0C02   [8]  99 17 00 00 00 00 00 00
 (2.9980)  can1  8030C02   [8]  00 00 2A 68 2A 68 92 17
 (2.9990)  can1  585FF72   [8]  04 80 60 09 60 09 FF 09
 (2.9990)  can1  8580C02   [8]  01 00 FC FF 04 00 00 00
 (3.0030)  can1  8100302   [5]  01 00 0A 00 0A
 (3.0050)  can1  4100209   [8]  82 66 09 00 00 00 00 00
 (3.0070)  can1  4100208   [8]  80 17 09 00 00 00 00 00
 (3.0090)  can1  586FF72   [8]  FE 7F FF FF FF FF F2 4D
 (3.0140)  can1  18800401   [8]  17 34 93 00 00 00 00 00
 (3.0150)  can1  18840401   [8]  17 52 93 00 00 00 00 00
 (3.0160)  can1  18C00401   [8]  17 59 2D 10 27 10 27 00
 (3.0160)  can1  18101203   [4]  C2 2C FA 07
 (3.0170)  can1  4100209   [8]  82 66 09 00 00 00 00 00
 (3.0170)  can1  595FF71   [8]  04 80 60 09 60 09 FB 09
 (3.0180)  can1  596FF71   [8]  05 80 FF FF FF FF FD E0
 (3.0190)  can1  597FF71   [8]  03 08 8C 10 FF FF FA F2
 (3.0190)  can1  599FF71   [8]  1A D0 02 81 02 00 FB 87
 (3.0200)  can1  4100208   [8]  80 17 09 00 00 00 00 00
 (3.0210)  can1  5807202   [8]  09 80 00 00 E0 01 0D E9
 (3.0220)  can1  5817202   [8]  01 00 10 27 10 27 04 E3
 (3.0230)  can1  585FF72   [8]  04 80 60 09 60 09 F0 09
 (3.0230)  can1  5907102   [8]  09 80 00 00 E0 01 0D E9
 (3.0240)  can1  5827202   [8]  FA 00 00 00 00 00 0D D4
 (3.0250)  can1  5917102   [8]  01 00 10 27 10 27 04 E3
 (3.0250)  can1  5927102   [8]  FA 00 00 00 00 00 0D D4
 (3.0260)  can1  5837202   [8]  2C 41 06 00 00 00 0D E0
 (3.0270)  can1  5937102   [8]  2C 41 06 00 00 00 0D E0
 (3.0270)  can1  5847270   [8]  00 00 00 00 00 00 0D 9F
 (3.0280)  can1  5947102   [8]  00 00 00 00 00 00 0D 9F
 (3.0290)  can1  89A0C02   [8]  FF 3A 00 00 00 00 00 00
 (3.0290)  can1  8580C02   [8]  03 00 FF FF 00 00 00 00
 (3.0300)  can1  8030C02   [8]  00 00 2A 68 2A 68 92 17
 (3.0310)  can1  4100209   [8]  82 66 09 00 00 00 00 00
 (3.0310)  can1  4100208   [8]  80 17 09 00 00 00 00 00
 (3.0320)  can1  8100302   [5]  02 00 0A 00 0A
 (3.0320)  can1  586FF72   [8]  01 80 FF FF FF FF F3 9F
 (3.0350)  can1  4100209   [8]  82 66 09 00 00 00 00 00
 (3.0360)  can1  595FF71   [8]  09 80 60 09 60 09 FC DC
 (3.0370)  can1  596FF71   [8]  02 80 FF FF FF FF FE 63
 (3.0380)  can1  4100208   [8]  80 17 09 00 00 00 00 00
 (3.0380)  can1  89A0C02   [8]  99 17 00 00 CC 0B 00 00
 (3.0390)  can1  8030C02   [8]  00 00 2A 68 2A 68 92 17
 (3.0400)  can1  585FF72   [8]  09 80 60 09 60 09 F1 DC
 (3.0410)  can1  8580C02   [8]  01 00 00 00 00 00 00 00
 (3.0450)  can1  4100209   [8]  82 66 09 00 00 00 00 00
 (3.0470)  can1  4100208   [8]  80 17 09 00 00 00 00 00
 (3.0470)  can1  8010C01   [8]  65 66 00 00 00 00 00 00
 (3.0480)  can1  8101201   [8]  E9 66 95 93 B0 90 6B 00
 (3.0500)  can1  586FF72   [8]  01 80 FF FF FF FF F4 9F
 (3.0530)  can1  8100302   [5]  02 00 0A 00 0A
 (3.0550)  can1  4100209   [8]  82 66 09 00 00 00 00 00
 (3.0560)  can1  595FF71   [8]  09 80 60 09 60 09 FD DC
 (3.0570)  can1  596FF71   [8]  03 80 FF FF FF FF FF 37
 (3.0580)  can1  4100208   [8]  80 17 09 00 00 00 00 00
 (3.0590)  can1  89A0C02   [8]  66 23 00 00 CC 0B 00 00
 (3.0590)  can1  8030C02   [8]  00 00 2A 68 2A 68 92 17
 (3.0600)  can1  585FF72   [8]  09 80 60 09 60 09 F2 DC
 (3.0600)  can1  8580C02   [8]  02 00 00 00 00 00 00 00
 (3.0650)  can1  4100209   [8]  82 66 09 00 00 00 00 00
 (3.0650)  can1  8041001   [8]  9D 02 E0 53 EA 66 3B 00
 (3.0660)  can1  18800401   [8]  00 91 93 A9 92 A0 92 00
 (3.0670)  can1  18840401   [8]  00 AF 93 C4 92 B9 92 00
 (3.0670)  can1  18C00401   [8]  00 FD 2D EE 2D 37 2E 00
 (3.0680)  can1  4100208   [8]  80 17 09 00 00 00 00 00
 (3.0700)  can1  586FF72   [8]  05 80 FF FF FF FF F5 E0
 (3.0710)  can1  587FF72   [8]  0F 08 6F 10 FF FF FB 59
 (3.0710)  can1  588FF72   [8]  40 01 5A FF FF FF FB 63
 (3.0720)  can1  589FF72   [8]  1A D0 02 81 02 00 FC 87
 (3.0750)  can1  4100209   [8]  83 66 09 00 03 00 00 00
 (3.0750)  can1  595FF71   [8]  09 80 60 09 60 09 FE DC
 (3.0760)  can1  596FF71   [8]  00 80 FF FF FF FF F0 CB
 (3.0770)  can1  4100208   [8]  80 17 09 00 00 00 00 00
 (3.0790)  can1  5807202   [8]  09 80 00 00 E0 01 0E E9
 (3.0790)  can1  5817202   [8]  01 00 10 27 10 27 05 E3
 (3.0800)  can1  585FF72   [8]  09 80 60 09 60 09 F3 DC
 (3.0810)  can1  5907102   [8]  09 80 00 00 E0 01 0E E9
 (3.0820)  can1  5827202   [8]  FA 00 00 00 00 00 0E D4
 (3.0830)  can1  5917102   [8]  01 00 10 27 10 27 05 E3
 (3.0840)  can1  5927102   [8]  FA 00 00 00 00 00 0E D4
 (3.0840)  can1  5837202   [8]  2C 41 06 00 00 00 0E E0
 (3.0840)  can1  5937102   [8]  2C 41 06 00 00 00 0E E0
 (3.0850)  can1  5847270   [8]  00 00 00 00 00 00 0E 9F
 (3.0860)  can1  5947102   [8]  00 00 00 00 00 00 0E 9F
 (3.0860)  can1  8100302   [5]  02 00 0A 00 0A
 (3.0870)  can1  89A0C02   [8]  00 00 00 00 FF 3A 00 00
 (3.0870)  can1  8030C02   [8]  30 75 B3 FE C0 FF 00 00
 (3.0880)  can1  8580C02   [8]  00 00 03 00 00 00 04 00
 (3.0880)  can1  4100209   [8]  83 66 09 00 00 00 00 00
 (3.0890)  can1  4100208   [8]  80 17 09 00 00 00 00 00
 (3.0900)  can1  586FF72   [8]  00 80 FF FF FF FF F6 CB
 (3.0950)  can1  4100209   [8]  83 66 09 00 00 00 00 00
 (3.0960)  can1  595FF71   [8]  09 80 60 09 60 09 FF DC
 (3.0970)  can1  596FF71   [8]  FD 7F FF FF FF FF F1 B1
 (3.0980)  can1  598FF71   [8]  20 01 7A FF FF FF FB 3B
 (3.0990)  can1  4100208   [8]  80 17 09 00 00 00 00 00
 (3.0990)  can1  89A0C02   [8]  00 00 00 00 00 00 00 00
 (3.1000)  can1  8030C02   [8]  00 00 2A 68 2A 68 92 17
 (3.1000)  can1  585FF72   [8]  09 80 60 09 60 09 F4 DC
 (3.1010)  can1  8580C02   [8]  FE FF 00 00 00 00 00 00
 (3.1030)  can1  8100302   [5]  02 00 0A 00 0A
 (3.1040)  can1  1948FF72   [8]  00 C0 00 55 FF FF 9C AF
 (3.1040)  can1  1949FF72   [8]  0D 80 00 0D 80 00 9D B7
 (3.1050)  can1  194AFF72   [8]  36 C7 56 72 95 56 9E 4E
 (3.1060)  can1  194BFF72   [8]  6F F5 FF FF FF FF 9F FF
 (3.1070)  can1  194CFF72   [8]  FF FF FF FF FF FF A0 9A
 (3.1070)  can1  4100209   [8]  83 66 09 00 00 00 00 00
 (3.1070)  can1  4100208   [8]  80 17 09 00 00 00 00 00
 (3.1080)  can1  586FF72   [8]  FF 7F FF FF FF FF F7 19
 (3.1140)  can1  18800401   [8]  01 9C 92 A9 92 AB 92 00
 (3.1150)  can1  18840401   [8]  01 B7 92 C1 92 C6 92 00
 (3.1150)  can1  18C00401   [8]  01 1B 2E 5F 2E 2C 2E 00
 (3.1160)  can1  4100209   [8]  83 66 09 00 00 00 00 00
 (3.1160)  can1  595FF71   [8]  09 80 60 09 60 09 F0 DC
 (3.1170)  can1  596FF71   [8]  FF 7F FF FF FF FF F2 19
 (3.1170)  can1  597FF71   [8]  07 08 89 10 FF FF FB B2
 (3.1180)  can1  599FF71   [8]  1A D0 02 81 02 00 FC 87
 (3.1190)  can1  4100208   [8]  80 17 09 00 00 00 00 00
 (3.1200)  can1  89A0C02   [8]  00 00 00 00 00 00 00 00
 (3.1210)  can1  8030C02   [8]  00 00 2A 68 2A 68 92 17
 (3.1210)  can1  585FF72   [8]  09 80 60 09 60 09 F5 DC
 (3.1210)  can1  8580C02   [8]  00 00 00 00 00 00 00 00
 (3.1250)  can1  4100209   [8]  83 66 09 00 00 00 00 00
 (3.1270)  can1  4100208   [8]  80 17 09 00 00 00 00 00
 (3.1280)  can1  8100302   [5]  02 00 0A 00 0A
 (3.1280)  can1  586FF72   [8]  01 80 FF FF FF FF F8 9F
 (3.1350)  can1  4100209   [8]  83 66 09 00 00 00 00 00
 (3.1360)  can1  595FF71   [8]  09 80 60 09 60 09 F1 DC
 (3.1360)  can1  596FF71   [8]  03 80 FF FF FF FF F3 37
 (3.1370)  can1  4100208   [8]  81 17 09 00 03 00 00 00
 (3.1380)  can1  5807202   [8]  04 80 00 00 E0 01 0F 3C
 (3.1380)  can1  5817202   [8]  01 00 10 27 10 27 06 E3
 (3.1390)  can1  585FF72   [8]  09 80 60 09 60 09 F6 DC
 (3.1400)  can1  5907102   [8]  04 80 00 00 E0 01 0F 3C
 (3.1410)  can1  5827202   [8]  FA 00 00 00 00 00 0F D4
 (3.1420)  can1  5917102   [8]  01 00 10 27 10 27 06 E3
 (3.1420)  can1  5927102   [8]  FA 00 00 00 00 00 0F D4
 (3.1430)  can1  5837202   [8]  2C 41 06 00 00 00 0F E0
 (3.1440)  can1  5937102   [8]  2C 41 06 00 00 00 0F E0
 (3.1440)  can1  5847270   [8]  00 00 00 00 00 00 0F 9F
 (3.1440)  can1  5947102   [8]  00 00 00 00 00 00 0F 9F
 (3.1450)  can1  89A0C02   [8]  66 23 00 00 CC 0B 00 00
 (3.1460)  can1  8580C02   [8]  02 00 00 00 04 00 00 00
 (3.1460)  can1  8030C02   [8]  00 00 2A 68 2A 68 92 17
 (3.1470)  can1  4100209   [8]  83 66 09 00 00 00 00 00
 (3.1480)  can1  4100208   [8]  81 17 09 00 00 00 00 00
 (3.1480)  can1  8101201   [8]  E5 66 91 93 AE 90 6B 00
 (3.1490)  can1  8010C01   [8]  62 66 00 00 00 00 00 00
 (3.1490)  can1  586FF72   [8]  01 80 FF FF FF FF F9 9F
 (3.1520)  can1  1948FF71   [8]  00 C0 00 55 FF FF 9C AF
 (3.1520)  can1  1949FF71   [8]  0D 90 00 0D A0 00 9D E7
 (3.1530)  can1  194AFF71   [8]  22 67 58 86 65 58 9E C2
 (3.1540)  can1  194BFF71   [8]  91 F5 FF FF FF FF 9F 21
 (3.1550)  can1  194CFF71   [8]  FF FF FF FF FF FF A0 9A
 (3.1550)  can1  8100302   [5]  01 00 0A 00 0A
 (3.1560)  can1  4100209   [8]  83 66 09 00 03 00 00 00
 (3.1570)  can1  595FF71   [8]  04 80 60 09 60 09 F2 09
 (3.1570)  can1  596FF71   [8]  FC 7F FF FF FF FF F4 E5
 (3.1580)  can1  4100208   [8]  81 17 09 00 00 00 00 00
 (3.1580)  can1  89A0C02   [8]  00 00 00 00 CC 0B 00 00
 (3.1590)  can1  8030C02   [8]  30 75 DC FD E9 FE 00 00
 (3.1600)  can1  585FF72   [8]  04 80 60 09 60 09 F7 09
 (3.1600)  can1  8580C02   [8]  FE FF 00 00 00 00 04 00
 (3.1650)  can1  4100209   [8]  83 66 09 00 00 00 00 00
 (3.1650)  can1  8041001   [8]  9D 02 E0 53 EA 66 3B 00
 (3.1660)  can1  18800401   [8]  02 D2 92 34 93 1D 93 00
 (3.1670)  can1  18840401   [8]  02 EC 92 4D 93 36 93 00
 (3.1680)  can1  18C00401   [8]  02 3C 2E 25 2E 19 2E 00
 (3.1680)  can1  4100208   [8]  81 17 09 00 00 00 00 00
 (3.1690)  can1  586FF72   [8]  FB 7F FF FF FF FF FA 66
 (3.1690)  can1  587FF72   [8]  0B 08 6F 10 FF FF FC 26
 (3.1700)  can1  588FF72   [8]  40 01 5A FF FF FF FC 63
 (3.1700)  can1  589FF72   [8]  1A D0 02 81 02 00 FD 87
 (3.1750)  can1  4100209   [8]  83 66 09 00 00 00 00 00
 (3.1760)  can1  595FF71   [8]  04 80 60 09 60 09 F3 09
 (3.1760)  can1  596FF71   [8]  FC 7F FF FF FF FF F5 E5
 (3.1770)  can1  4100208   [8]  81 17 09 00 00 00 00 00
 (3.1780)  can1  8100302   [5]  01 00 0A 00 0A
 (3.1790)  can1  8580C02   [8]  FE FF FD FF 00 00 00 00
 (3.1800)  can1  585FF72   [8]  04 80 60 09 60 09 F8 09
 (3.1800)  can1  89A0C02   [8]  00 00 00 00 00 00 00 00
 (3.1810)  can1  8030C02   [8]  00 00 2A 68 2A 68 92 17
 (3.1850)  can1  4100209   [8]  83 66 09 00 00 00 00 00
 (3.1870)  can1  4100208   [8]  81 17 09 00 00 00 00 00
 (3.1890)  can1  586FF72   [8]  00 80 FF FF FF FF FB CB
 (3.1950)  can1  4100209   [8]  83 66 09 00 00 00 00 00
 (3.1950)  can1  595FF71   [8]  04 80 60 09 60 09 F4 09
 (3.1960)  can1  596FF71   [8]  01 80 FF FF FF FF F6 9F
 (3.1970)  can1  598FF71   [8]  20 01 7A FF FF FF FC 3B
 (3.1970)  can1  4100208   [8]  81 17 09 00 03 00 00 00
 (3.1980)  can1  5807202   [8]  09 80 00 00 E0 01 00 E9
 (3.1980)  can1  5817202   [8]  01 00 10 27 10 27 07 E3
 (3.1990)  can1  585FF72   [8]  04 80 60 09 60 09 F9 09
 (3.1990)  can1  5907102   [8]  09 80 00 00 E0 01 00 E9
 (3.2010)  can1  5827202   [8]  FA 00 00 00 00 00 00 D4
 (3.2020)  can1  5917102   [8]  01 00 10 27 10 27 07 E3
 (3.2220)  can1  5927102   [8]  FA 00 00 00 00 00 00 D4
 (3.2230)  can1  5837202   [8]  2C 41 06 00 00 00 00 E0
 (3.2240)  can1  5937102   [8]  2C 41 06 00 00 00 00 E0
 (3.2250)  can1  5847270   [8]  00 00 00 00 00 00 00 9F
 (3.2250)  can1  5947102   [8]  00 00 00 00 00 00 00 9F
 (3.2260)  can1  89A0C02   [8]  CC 0B 00 00 00 00 00 00
 (3.2270)  can1  8580C02   [8]  00 00 00 00 04 00 00 00
 (3.2270)  can1  8030C02   [8]  00 00 2A 68 2A 68 92 17
 (3.2280)  can1  8100302   [5]  02 00 0A 00 0A
 (3.2280)  can1  4100209   [8]  83 66 09 00 00 00 00 00
 (3.2290)  can1  4100208   [8]  81 17 09 00 00 00 00 00
 (3.2290)  can1  586FF72   [8]  02 80 FF FF FF FF FC 63
 (3.2300)  can1  18800401   [8]  03 13 93 03 93 0C 93 00
 (3.2300)  can1  18840401   [8]  03 2C 93 1D 93 2C 93 00
 (3.2310)  can1  18C00401   [8]  03 0E 2E E4 2D D1 2D 00
 (3.2310)  can1  4100209   [8]  83 66 09 00 00 00 00 00
 (3.2320)  can1  595FF71   [8]  09 80 60 09 60 09 F5 DC
 (3.2330)  can1  596FF71   [8]  03 80 FF FF FF FF F7 37
 (3.2330)  can1  597FF71   [8]  02 08 89 10 FF FF FC 99
 (3.2330)  can1  599FF71   [8]  1A D0 02 81 02 00 FD 87
 (3.2340)  can1  4100208   [8]  81 17 09 00 00 00 00 00
 (3.2340)  can1  89A0C02   [8]  66 23 00 00 99 17 00 00
 (3.2350)  can1  8030C02   [8]  00 00 2A 68 2A 68 92 17
 (3.2360)  can1  585FF72   [8]  09 80 60 09 60 09 FA DC
 (3.2370)  can1  8580C02   [8]  02 00 01 00 00 00 00 00
 (3.2370)  can1  4100209   [8]  84 66 09 00 03 00 00 00
 (3.2370)  can1  4100208   [8]  81 17 09 00 00 00 00 00
 (3.2380)  can1  8100302   [5]  02 00 0A 00 0A
 (3.2390)  can1  586FF72   [8]  04 80 FF FF FF FF FD B4
