 (1.2100)  can1  8100302   [5]  00 24 0A 00 07
 (1.2180)  can1  8580C02   [8]  00 00 00 00 00 00 00 00
 (1.2190)  can1  89A0C02   [8]  00 00 00 00 00 00 00 00
 (1.2190)  can1  8030C02   [8]  00 00 2A 68 2A 68 92 17
 (1.2200)  can1  4100209   [8]  00 00 00 00 00 00 00 00
 (1.2200)  can1  8100302   [5]  00 22 0A 00 07
 (1.2200)  can1  8580C02   [8]  00 00 00 00 00 00 00 00
 (1.2210)  can1  89A0C02   [8]  00 00 00 00 00 00 00 00
 (1.2210)  can1  8030C02   [8]  00 00 2A 68 2A 68 92 17
 (1.2210)  can1  4100209   [8]  00 00 00 00 00 00 00 00
 (1.2210)  can1  4100208   [8]  00 00 00 00 00 00 00 00
 (1.2290)  can1  4100209   [8]  00 00 00 00 00 00 00 00
 (1.2300)  can1  4100208   [8]  00 00 00 00 00 00 00 00
 (1.2350)  can1  89A0C02   [8]  00 00 00 00 00 00 00 00
 (1.2360)  can1  8030C02   [8]  00 00 2A 68 2A 68 92 17
 (1.2370)  can1  8580C02   [8]  00 00 00 00 00 00 00 00
 (1.2390)  can1  4100209   [8]  00 00 00 00 00 00 00 00
 (1.2400)  can1  4100208   [8]  00 00 00 00 00 00 00 00
 (1.2400)  can1  8100302   [5]  00 22 0A 00 07
 (1.2480)  can1  8101201   [8]  D6 64 75 90 1E 8D 08 00
 (1.2480)  can1  8010C01   [8]  59 64 00 00 00 00 00 00
 (1.2490)  can1  18800401   [8]  0F 65 8F CC 8F FA 8F 00
 (1.2490)  can1  18840401   [8]  0F 6B 8F CD 8F 01 90 00
 (1.2500)  can1  18C00401   [8]  0F 69 30 52 30 B0 30 00
 (1.2500)  can1  4100209   [8]  00 00 00 00 00 00 00 00
 (1.2500)  can1  4100208   [8]  00 00 00 00 00 00 00 00
 (1.2550)  can1  89A0C02   [8]  00 00 00 00 00 00 00 00
 (1.2560)  can1  8030C02   [8]  00 00 2A 68 2A 68 92 17
 (1.2570)  can1  8580C02   [8]  00 00 00 00 00 00 00 00
 (1.2590)  can1  4100209   [8]  00 00 00 00 00 00 00 00
 (1.2600)  can1  4100208   [8]  00 00 00 00 00 00 00 00
 (1.2650)  can1  8100302   [5]  00 23 0A 00 07
 (1.2690)  can1  4100209   [8]  00 00 00 00 00 00 00 00
 (1.2700)  can1  4100208   [8]  00 00 00 00 00 00 00 00
 (1.2750)  can1  89A0C02   [8]  00 00 00 00 00 00 00 00
 (1.2760)  can1  8030C02   [8]  00 00 2A 68 2A 68 92 17
 (1.2760)  can1  8580C02   [8]  00 00 00 00 00 00 00 00
 (1.2790)  can1  4100209   [8]  00 00 00 00 00 00 00 00
 (1.2800)  can1  4100208   [8]  00 00 00 00 00 00 00 00
 (1.2890)  can1  4100209   [8]  00 00 00 00 00 00 00 00
 (1.2900)  can1  4100208   [8]  00 00 00 00 00 00 00 00
 (1.2900)  can1  8100302   [5]  00 22 0A 00 07
 (1.2950)  can1  89A0C02   [8]  00 00 00 00 00 00 00 00
 (1.2960)  can1  8030C02   [8]  00 00 2A 68 2A 68 92 17
 (1.2960)  can1  8041001   [8]  37 02 A0 3C FC A2 3B 00
 (1.2970)  can1  8580C02   [8]  00 00 00 00 00 00 00 00
 (1.2980)  can1  18800401   [8]  10 F0 8F F1 8F EA 8F 00
 (1.2980)  can1  18840401   [8]  10 F5 8F F6 8F EE 8F 00
 (1.2990)  can1  18C00401   [8]  10 61 30 BB 30 14 30 00
 (1.2990)  can1  4100209   [8]  00 00 00 00 00 00 00 00
 (1.3000)  can1  4100208   [8]  00 00 00 00 00 00 00 00
 (1.3090)  can1  4100209   [8]  00 00 00 00 00 00 00 00
 (1.3100)  can1  4100208   [8]  00 00 00 00 00 00 00 00
 (1.3150)  can1  8100302   [5]  00 22 0A 00 07
 (1.3160)  can1  8580C02   [8]  00 00 00 00 00 00 00 00
 (1.3160)  can1  89A0C02   [8]  00 00 00 00 00 00 00 00
 (1.3170)  can1  8030C02   [8]  00 00 2A 68 2A 68 92 17
 (1.3190)  can1  4100209   [8]  00 00 00 00 00 00 00 00
 (1.3200)  can1  4100208   [8]  00 00 00 00 00 00 00 00
 (1.3290)  can1  4100209   [8]  00 00 00 00 00 00 00 00
 (1.3300)  can1  4100208   [8]  00 00 00 00 00 00 00 00
 (1.3350)  can1  89A0C02   [8]  00 00 00 00 00 00 00 00
 (1.3360)  can1  8030C02   [8]  00 00 2A 68 2A 68 92 17
 (1.3360)  can1  8580C02   [8]  00 00 00 00 00 00 00 00
 (1.3390)  can1  4100209   [8]  00 00 00 00 00 00 00 00
 (1.3400)  can1  4100208   [8]  00 00 00 00 00 00 00 00
 (1.3400)  can1  8100302   [5]  00 22 0A 00 07
 (1.3480)  can1  18800401   [8]  11 D4 8F CC 8F DB 8F 00
 (1.3480)  can1  18840401   [8]  11 D9 8F D0 8F E0 8F 00
 (1.3480)  can1  18C00401   [8]  11 93 30 C8 2F 4D 30 00
 (1.3490)  can1  8101201   [8]  D7 64 71 90 1E 8D 10 00
 (1.3500)  can1  8010C01   [8]  5B 64 00 00 00 00 00 00
 (1.3500)  can1  4100209   [8]  00 00 00 00 00 00 00 00
 (1.3500)  can1  4100208   [8]  00 00 00 00 00 00 00 00
 (1.3550)  can1  89A0C02   [8]  00 00 00 00 00 00 00 00
 (1.3560)  can1  8030C02   [8]  00 00 2A 68 2A 68 92 17
 (1.3560)  can1  8580C02   [8]  00 00 00 00 00 00 00 00
 (1.3590)  can1  4100209   [8]  00 00 00 00 00 00 00 00
 (1.3600)  can1  4100208   [8]  00 00 00 00 00 00 00 00
 (1.3650)  can1  8100302   [5]  00 23 0A 00 07
 (1.3690)  can1  4100209   [8]  00 00 00 00 00 00 00 00
 (1.3700)  can1  4100208   [8]  00 00 00 00 00 00 00 00
 (1.3750)  can1  89A0C02   [8]  00 00 00 00 00 00 00 00
 (1.3760)  can1  8030C02   [8]  00 00 2A 68 2A 68 92 17
 (1.3760)  can1  8580C02   [8]  00 00 00 00 00 00 00 00
 (1.3790)  can1  4100209   [8]  00 00 00 00 00 00 00 00
 (1.3800)  can1  4100208   [8]  00 00 00 00 00 00 00 00
 (1.3890)  can1  4100209   [8]  00 00 00 00 00 00 00 00
 (1.3900)  can1  4100208   [8]  00 00 00 00 00 00 00 00
 (1.3900)  can1  8100302   [5]  00 23 0A 00 07
 (1.3950)  can1  89A0C02   [8]  00 00 00 00 00 00 00 00
 (1.3960)  can1  8030C02   [8]  00 00 2A 68 2A 68 92 17
 (1.3960)  can1  8041001   [8]  37 02 A0 3C FC A2 3B 00
 (1.3960)  can1  8580C02   [8]  00 00 00 00 00 00 00 00
 (1.3980)  can1  18800401   [8]  12 14 90 06 90 CD 8F 00
 (1.3980)  can1  18840401   [8]  12 18 90 0A 90 D1 8F 00
 (1.3980)  can1  18C00401   [8]  12 AF 2F 2E 2F FC 2E 00
 (1.3990)  can1  4100209   [8]  00 00 00 00 00 00 00 00
 (1.4000)  can1  4100208   [8]  00 00 00 00 00 00 00 00
 (1.4090)  can1  4100209   [8]  00 00 00 00 00 00 00 00
 (1.4100)  can1  4100208   [8]  00 00 00 00 00 00 00 00
 (1.4150)  can1  8100302   [5]  00 23 0A 00 07
 (1.4160)  can1  8580C02   [8]  00 00 00 00 00 00 00 00
 (1.4160)  can1  89A0C02   [8]  00 00 00 00 00 00 00 00
 (1.4170)  can1  8030C02   [8]  00 00 2A 68 2A 68 92 17
 (1.4190)  can1  4100209   [8]  00 00 00 00 00 00 00 00
 (1.4200)  can1  4100208   [8]  00 00 00 00 00 00 00 00
 (1.4290)  can1  4100209   [8]  00 00 00 00 00 00 00 00
 (1.4300)  can1  4100208   [8]  00 00 00 00 00 00 00 00
 (1.4350)  can1  89A0C02   [8]  00 00 00 00 00 00 00 00
 (1.4360)  can1  8030C02   [8]  00 00 2A 68 2A 68 92 17
 (1.4360)  can1  8580C02   [8]  00 00 00 00 00 00 00 00
 (1.4390)  can1  4100209   [8]  00 00 00 00 00 00 00 00
 (1.4400)  can1  4100208   [8]  00 00 00 00 00 00 00 00
 (1.4400)  can1  8100302   [5]  00 22 0A 00 07
 (1.4450)  can1  18101203   [4]  D8 2E 8F 01
 (1.4480)  can1  18800401   [8]  13 C7 8F CC 8F C7 8F 00
 (1.4480)  can1  18840401   [8]  13 CB 8F BB 8F C7 8F 00
 (1.4490)  can1  18C00401   [8]  13 6F 2F AE 2F 03 30 00
 (1.4490)  can1  4100209   [8]  00 00 00 00 00 00 00 00
 (1.4500)  can1  4100208   [8]  00 00 00 00 00 00 00 00
 (1.4500)  can1  8010C01   [8]  5B 64 00 00 00 00 00 00
 (1.4510)  can1  8101201   [8]  D6 64 6E 90 1D 8D 10 00
 (1.4550)  can1  89A0C02   [8]  00 00 00 00 00 00 00 00
 (1.4560)  can1  8030C02   [8]  00 00 2A 68 2A 68 92 17
 (1.4560)  can1  8580C02   [8]  00 00 00 00 00 00 00 00
 (1.4590)  can1  4100209   [8]  00 00 00 00 00 00 00 00
 (1.4600)  can1  4100208   [8]  00 00 00 00 00 00 00 00
 (1.4650)  can1  8100302   [5]  00 23 0A 00 07
 (1.4690)  can1  4100209   [8]  00 00 00 00 00 00 00 00
 (1.4700)  can1  4100208   [8]  00 00 00 00 00 00 00 00
 (1.4750)  can1  89A0C02   [8]  00 00 00 00 00 00 00 00
 (1.4760)  can1  8030C02   [8]  00 00 2A 68 2A 68 92 17
 (1.4760)  can1  8580C02   [8]  00 00 00 00 00 00 00 00
 (1.4790)  can1  4100209   [8]  00 00 00 00 00 00 00 00
 (1.4800)  can1  4100208   [8]  00 00 00 00 00 00 00 00
 (1.4890)  can1  4100209   [8]  00 00 00 00 00 00 00 00
 (1.4900)  can1  4100208   [8]  00 00 00 00 00 00 00 00
 (1.4900)  can1  8100302   [5]  00 23 0A 00 07
 (1.4950)  can1  89A0C02   [8]  00 00 00 00 00 00 00 00
 (1.4960)  can1  8030C02   [8]  00 00 2A 68 2A 68 92 17
 (1.4960)  can1  8041001   [8]  37 02 A0 3C FC A2 3B 00
 (1.4970)  can1  8580C02   [8]  00 00 00 00 00 00 00 00
 (1.4980)  can1  18800401   [8]  14 D5 8F FB 8F EA 8F 00
 (1.4980)  can1  18840401   [8]  14 DA 8F FE 8F F4 8F 00
 (1.4990)  can1  18C00401   [8]  14 D6 2F 19 30 D9 2F 00
 (1.4990)  can1  4100209   [8]  00 00 00 00 00 00 00 00
 (1.5000)  can1  4100208   [8]  00 00 00 00 00 00 00 00
 (1.5090)  can1  4100209   [8]  00 00 00 00 00 00 00 00
 (1.5100)  can1  4100208   [8]  00 00 00 00 00 00 00 00
 (1.5150)  can1  8100302   [5]  00 22 0A 00 07
 (1.5160)  can1  8580C02   [8]  00 00 00 00 00 00 00 00
 (1.5160)  can1  89A0C02   [8]  00 00 00 00 00 00 00 00
 (1.5160)  can1  8030C02   [8]  00 00 2A 68 2A 68 92 17
 (1.5190)  can1  4100209   [8]  00 00 00 00 00 00 00 00
 (1.5200)  can1  4100208   [8]  00 00 00 00 00 00 00 00
 (1.5290)  can1  4100209   [8]  00 00 00 00 00 00 00 00
 (1.5300)  can1  4100208   [8]  00 00 00 00 00 00 00 00
 (1.5350)  can1  89A0C02   [8]  00 00 00 00 00 00 00 00
 (1.5360)  can1  8030C02   [8]  00 00 2A 68 2A 68 92 17
 (1.5360)  can1  8580C02   [8]  00 00 00 00 00 00 00 00
 (1.5390)  can1  4100209   [8]  00 00 00 00 00 00 00 00
 (1.5400)  can1  4100208   [8]  00 00 00 00 00 00 00 00
 (1.5400)  can1  8100302   [5]  00 24 0A 00 07
 (1.5480)  can1  18800401   [8]  15 0B 90 F7 8F E1 8F 00
 (1.5480)  can1  18840401   [8]  15 0C 90 FB 8F E4 8F 00
 (1.5480)  can1  18C00401   [8]  15 28 30 9E 2F 02 30 00
 (1.5490)  can1  4100209   [8]  00 00 00 00 00 00 00 00
 (1.5500)  can1  4100208   [8]  00 00 00 00 00 00 00 00
 (1.5510)  can1  8101201   [8]  D9 64 6D 90 1C 8D 18 00
 (1.5510)  can1  8010C01   [8]  5B 64 00 00 00 00 00 00
 (1.5550)  can1  89A0C02   [8]  00 00 00 00 00 00 00 00
 (1.5560)  can1  8030C02   [8]  00 00 2A 68 2A 68 92 17
 (1.5560)  can1  8580C02   [8]  00 00 00 00 00 00 00 00
 (1.5590)  can1  4100209   [8]  00 00 00 00 00 00 00 00
 (1.5600)  can1  4100208   [8]  00 00 00 00 00 00 00 00
 (1.5650)  can1  8100302   [5]  00 23 0A 00 07
 (1.5690)  can1  4100209   [8]  00 00 00 00 00 00 00 00
 (1.5700)  can1  4100208   [8]  00 00 00 00 00 00 00 00
 (1.5750)  can1  89A0C02   [8]  00 00 00 00 00 00 00 00
 (1.5750)  can1  8030C02   [8]  00 00 2A 68 2A 68 92 17
 (1.5760)  can1  8580C02   [8]  00 00 00 00 00 00 00 00
 (1.5790)  can1  4100209   [8]  00 00 00 00 00 00 00 00
 (1.5800)  can1  4100208   [8]  00 00 00 00 00 00 00 00
 (1.5890)  can1  4100209   [8]  00 00 00 00 00 00 00 00
 (1.5900)  can1  4100208   [8]  00 00 00 00 00 00 00 00
 (1.5900)  can1  8100302   [5]  00 22 0A 00 07
 (1.5950)  can1  89A0C02   [8]  00 00 00 00 00 00 00 00
 (1.5960)  can1  8030C02   [8]  00 00 2A 68 2A 68 92 17
 (1.5960)  can1  8041001   [8]  37 02 A0 3C FC A2 3B 00
 (1.5970)  can1  8580C02   [8]  00 00 00 00 00 00 00 00
 (1.5980)  can1  18800401   [8]  16 D6 8F EB 8F 18 90 00
 (1.5980)  can1  18840401   [8]  16 DC 8F F0 8F 1C 90 00
 (1.5990)  can1  18C00401   [8]  16 84 2F B6 2F 03 2F 00
 (1.5990)  can1  4100209   [8]  00 00 00 00 00 00 00 00
 (1.6000)  can1  4100208   [8]  00 00 00 00 00 00 00 00
 (1.6090)  can1  4100209   [8]  00 00 00 00 00 00 00 00
 (1.6100)  can1  4100208   [8]  00 00 00 00 00 00 00 00
 (1.6150)  can1  8100302   [5]  00 24 0A 00 07
 (1.6160)  can1  8580C02   [8]  00 00 00 00 00 00 00 00
 (1.6160)  can1  89A0C02   [8]  00 00 00 00 00 00 00 00
 (1.6170)  can1  8030C02   [8]  00 00 2A 68 2A 68 92 17
 (1.6190)  can1  4100209   [8]  00 00 00 00 00 00 00 00
 (1.6200)  can1  4100208   [8]  00 00 00 00 00 00 00 00
 (1.6290)  can1  4100209   [8]  00 00 00 00 00 00 00 00
 (1.6300)  can1  4100208   [8]  00 00 00 00 00 00 00 00
 (1.6350)  can1  89A0C02   [8]  00 00 00 00 00 00 00 00
 (1.6350)  can1  8030C02   [8]  00 00 2A 68 2A 68 92 17
 (1.6360)  can1  8580C02   [8]  00 00 00 00 00 00 00 00
 (1.6390)  can1  4100209   [8]  00 00 00 00 00 00 00 00
 (1.6400)  can1  4100208   [8]  00 00 00 00 00 00 00 00
 (1.6400)  can1  8100302   [5]  00 23 0A 00 07
 (1.6480)  can1  18800401   [8]  17 0A 90 00 00 00 00 00
 (1.6480)  can1  18840401   [8]  17 11 90 00 00 00 00 00
 (1.6490)  can1  18C00401   [8]  17 FA 2E 10 27 10 27 00
 (1.6490)  can1  4100209   [8]  00 00 00 00 00 00 00 00
 (1.6500)  can1  4100208   [8]  00 00 00 00 00 00 00 00
 (1.6520)  can1  8101201   [8]  D6 64 6D 90 1D 8D 08 00
 (1.6520)  can1  8010C01   [8]  5A 64 00 00 00 00 00 00
 (1.6550)  can1  89A0C02   [8]  00 00 00 00 00 00 00 00
 (1.6560)  can1  8030C02   [8]  00 00 2A 68 2A 68 92 17
 (1.6560)  can1  8580C02   [8]  00 00 00 00 00 00 00 00
 (1.6590)  can1  4100209   [8]  00 00 00 00 00 00 00 00
 (1.6600)  can1  4100208   [8]  00 00 00 00 00 00 00 00
 (1.6650)  can1  8100302   [5]  00 23 0A 00 07
 (1.6690)  can1  4100209   [8]  00 00 00 00 00 00 00 00
 (1.6700)  can1  4100208   [8]  00 00 00 00 00 00 00 00
 (1.6750)  can1  89A0C02   [8]  00 00 00 00 00 00 00 00
 (1.6760)  can1  8030C02   [8]  00 00 2A 68 2A 68 92 17
 (1.6760)  can1  8580C02   [8]  00 00 00 00 00 00 00 00
 (1.6790)  can1  4100209   [8]  00 00 00 00 00 00 00 00
 (1.6800)  can1  4100208   [8]  00 00 00 00 00 00 00 00
 (1.6890)  can1  4100209   [8]  00 00 00 00 00 00 00 00
 (1.6900)  can1  4100208   [8]  00 00 00 00 00 00 00 00
 (1.6900)  can1  8100302   [5]  00 23 0A 00 07
 (1.6950)  can1  89A0C02   [8]  00 00 00 00 00 00 00 00
 (1.6950)  can1  8030C02   [8]  00 00 2A 68 2A 68 92 17
 (1.6960)  can1  8041001   [8]  37 02 A0 3C FC A2 3B 00
 (1.6960)  can1  8580C02   [8]  00 00 00 00 00 00 00 00
 (1.6980)  can1  18800401   [8]  00 6E 90 84 8F 73 8F 00
 (1.6980)  can1  18840401   [8]  00 73 90 88 8F 6F 8F 00
 (1.6990)  can1  18C00401   [8]  00 A4 2F 16 2F 14 30 00
 (1.6990)  can1  4100209   [8]  00 00 00 00 00 00 00 00
 (1.7000)  can1  4100208   [8]  00 00 00 00 00 00 00 00
 (1.7090)  can1  4100209   [8]  00 00 00 00 00 00 00 00
 (1.7100)  can1  4100208   [8]  00 00 00 00 00 00 00 00
 (1.7150)  can1  8100302   [5]  00 23 0A 00 07
 (1.7160)  can1  8580C02   [8]  00 00 00 00 00 00 00 00
 (1.7160)  can1  89A0C02   [8]  00 00 00 00 00 00 00 00
 (1.7160)  can1  8030C02   [8]  00 00 2A 68 2A 68 92 17
 (1.7190)  can1  4100209   [8]  00 00 00 00 00 00 00 00
 (1.7200)  can1  4100208   [8]  00 00 00 00 00 00 00 00
 (1.7290)  can1  4100209   [8]  00 00 00 00 00 00 00 00
 (1.7300)  can1  4100208   [8]  00 00 00 00 00 00 00 00
 (1.7350)  can1  89A0C02   [8]  00 00 00 00 00 00 00 00
 (1.7360)  can1  8030C02   [8]  00 00 2A 68 2A 68 92 17
 (1.7360)  can1  8580C02   [8]  00 00 00 00 00 00 00 00
 (1.7390)  can1  4100209   [8]  00 00 00 00 00 00 00 00
 (1.7400)  can1  4100208   [8]  00 00 00 00 00 00 00 00
 (1.7400)  can1  8100302   [5]  00 24 0A 00 07
 (1.7480)  can1  18800401   [8]  01 76 8F 89 8F 80 8F 00
 (1.7480)  can1  18840401   [8]  01 7A 8F 8D 8F 87 8F 00
 (1.7490)  can1  18C00401   [8]  01 BB 2F 3D 30 DF 2F 00
 (1.7490)  can1  4100209   [8]  00 00 00 00 00 00 00 00
 (1.7500)  can1  4100208   [8]  00 00 00 00 00 00 00 00
 (1.7530)  can1  8101201   [8]  D6 64 6E 90 1D 8D 14 00
 (1.7530)  can1  8010C01   [8]  5A 64 00 00 00 00 00 00
 (1.7550)  can1  89A0C02   [8]  00 00 00 00 00 00 00 00
 (1.7560)  can1  8030C02   [8]  00 00 2A 68 2A 68 92 17
 (1.7560)  can1  8580C02   [8]  00 00 00 00 00 00 00 00
 (1.7590)  can1  4100209   [8]  00 00 00 00 00 00 00 00
 (1.7600)  can1  4100208   [8]  00 00 00 00 00 00 00 00
 (1.7650)  can1  8100302   [5]  00 22 0A 00 07
 (1.7690)  can1  4100209   [8]  00 00 00 00 00 00 00 00
 (1.7700)  can1  4100208   [8]  00 00 00 00 00 00 00 00
 (1.7750)  can1  89A0C02   [8]  00 00 00 00 00 00 00 00
 (1.7760)  can1  8030C02   [8]  00 00 2A 68 2A 68 92 17
 (1.7760)  can1  8580C02   [8]  00 00 00 00 00 00 00 00
 (1.7790)  can1  4100209   [8]  00 00 00 00 00 00 00 00
 (1.7800)  can1  4100208   [8]  00 00 00 00 00 00 00 00
 (1.7890)  can1  4100209   [8]  00 00 00 00 00 00 00 00
 (1.7900)  can1  4100208   [8]  00 00 00 00 00 00 00 00
 (1.7910)  can1  8100302   [5]  00 23 0A 00 07
 (1.7950)  can1  89A0C02   [8]  00 00 00 00 00 00 00 00
 (1.7960)  can1  8030C02   [8]  00 00 2A 68 2A 68 92 17
 (1.7960)  can1  8041001   [8]  37 02 A0 3C FC A2 3B 00
 (1.7970)  can1  8580C02   [8]  00 00 00 00 00 00 00 00
 (1.7980)  can1  18800401   [8]  02 A5 8F 0C 90 F5 8F 00
 (1.7980)  can1  18840401   [8]  02 AA 8F 13 90 FC 8F 00
 (1.7990)  can1  18C00401   [8]  02 1A 30 D9 2F FC 2F 00
 (1.7990)  can1  4100209   [8]  00 00 00 00 00 00 00 00
 (1.8000)  can1  4100208   [8]  00 00 00 00 00 00 00 00
 (1.8090)  can1  4100209   [8]  00 00 00 00 00 00 00 00
 (1.8100)  can1  4100208   [8]  00 00 00 00 00 00 00 00
 (1.8150)  can1  8100302   [5]  00 21 0A 00 07
 (1.8160)  can1  8580C02   [8]  00 00 00 00 00 00 00 00
 (1.8160)  can1  89A0C02   [8]  00 00 00 00 00 00 00 00
 (1.8170)  can1  8030C02   [8]  00 00 2A 68 2A 68 92 17
 (1.8190)  can1  4100209   [8]  00 00 00 00 00 00 00 00
 (1.8200)  can1  4100208   [8]  00 00 00 00 00 00 00 00
 (1.8290)  can1  4100209   [8]  00 00 00 00 00 00 00 00
 (1.8300)  can1  4100208   [8]  00 00 00 00 00 00 00 00
 (1.8350)  can1  89A0C02   [8]  00 00 00 00 00 00 00 00
 (1.8360)  can1  8030C02   [8]  00 00 2A 68 2A 68 92 17
 (1.8360)  can1  8580C02   [8]  00 00 00 00 00 00 00 00
 (1.8390)  can1  4100209   [8]  00 00 00 00 00 00 00 00
 (1.8400)  can1  4100208   [8]  00 00 00 00 00 00 00 00
 (1.8400)  can1  8100302   [5]  00 23 0A 00 07
 (1.8450)  can1  404FF03   [1]  00
 (1.8480)  can1  8250C03   [8]  00 00 00 00 00 00 00 00
 (1.8480)  can1  8840C03   [8]  32 00 13 00 1C 00 08 00
 (1.8490)  can1  88D0C03   [8]  11 00 09 00 00 00 00 00
 (1.8500)  can1  18800401   [8]  03 E5 8F D9 8F F8 8F 00
 (1.8500)  can1  8A00C03   [1]  0E
 (1.8500)  can1  18840401   [8]  03 EC 8F E0 8F F8 8F 00
 (1.8500)  can1  18C00401   [8]  03 C8 2F C6 2F 85 2F 00
 (1.8510)  can1  4100209   [8]  00 00 00 00 00 00 00 00
 (1.8510)  can1  4100208   [8]  00 00 00 00 00 00 00 00
 (1.8540)  can1  8101201   [8]  D7 64 72 90 1F 8D 28 00
 (1.8540)  can1  8010C01   [8]  59 64 00 00 00 00 00 00
 (1.8550)  can1  89A0C02   [8]  00 00 00 00 00 00 00 00
 (1.8560)  can1  8030C02   [8]  00 00 2A 68 2A 68 92 17
 (1.8570)  can1  8580C02   [8]  00 00 00 00 00 00 00 00
 (1.8580)  can1  404FF07   [1]  00
 (1.8590)  can1  4100209   [8]  00 00 00 00 00 00 00 00
 (1.8600)  can1  4100208   [8]  00 00 00 00 00 00 00 00
 (1.8650)  can1  8100302   [5]  00 23 0A 00 07
 (1.8690)  can1  4100209   [8]  00 00 00 00 00 00 00 00
 (1.8700)  can1  4100208   [8]  00 00 00 00 00 00 00 00
 (1.8750)  can1  89A0C02   [8]  00 00 00 00 00 00 00 00
 (1.8760)  can1  8030C02   [8]  00 00 2A 68 2A 68 92 17
 (1.8760)  can1  8580C02   [8]  00 00 00 00 00 00 00 00
 (1.8790)  can1  4100209   [8]  00 00 00 00 00 00 00 00
 (1.8800)  can1  4100208   [8]  00 00 00 00 00 00 00 00
 (1.8890)  can1  4100209   [8]  00 00 00 00 00 00 00 00
 (1.8900)  can1  4100208   [8]  00 00 00 00 00 00 00 00
 (1.8900)  can1  8100302   [5]  00 24 0A 00 07
 (1.8950)  can1  89A0C02   [8]  00 00 00 00 00 00 00 00
 (1.8960)  can1  404FF01   [1]  00
 (1.8960)  can1  8030C02   [8]  00 00 2A 68 2A 68 92 17
 (1.8970)  can1  8041001   [8]  37 02 B0 3C FC A2 3B 00
 (1.8970)  can1  8580C02   [8]  00 00 00 00 00 00 00 00
 (1.8980)  can1  8120C01   [8]  90 00 00 00 00 00 00 00
 (1.8980)  can1  80F1201   [4]  C8 0F 00 00
 (1.8990)  can1  18800401   [8]  04 0E 90 FF 8F 16 8D 00
 (1.8990)  can1  18840401   [8]  04 13 90 05 90 1D 8D 00
 (1.9000)  can1  18C00401   [8]  04 F1 2E D5 2E F8 2F 00
 (1.9000)  can1  4100209   [8]  00 00 00 00 00 00 00 00
 (1.9010)  can1  4100208   [8]  00 00 00 00 00 00 00 00
 (1.9090)  can1  4100209   [8]  00 00 00 00 00 00 00 00
 (1.9100)  can1  4100208   [8]  00 00 00 00 00 00 00 00
 (1.9150)  can1  404FF02   [1]  00
 (1.9160)  can1  8100302   [5]  00 23 0A 00 07
 (1.9160)  can1  89A0C02   [8]  00 00 00 00 00 00 00 00
 (1.9170)  can1  8580C02   [8]  00 00 00 00 00 00 00 00
 (1.9170)  can1  8030C02   [8]  00 00 2A 68 2A 68 92 17
 (1.9190)  can1  4100209   [8]  00 00 00 00 00 00 00 00
 (1.9200)  can1  4100208   [8]  00 00 00 00 00 00 00 00
 (1.9290)  can1  4100209   [8]  00 00 00 00 00 00 00 00
 (1.9300)  can1  4100208   [8]  00 00 00 00 00 00 00 00
 (1.9350)  can1  89A0C02   [8]  00 00 00 00 00 00 00 00
 (1.9350)  can1  8030C02   [8]  00 00 2A 68 2A 68 92 17
 (1.9360)  can1  8580C02   [8]  00 00 00 00 00 00 00 00
 (1.9390)  can1  4100209   [8]  00 00 00 00 00 00 00 00
 (1.9400)  can1  4100208   [8]  00 00 00 00 00 00 00 00
 (1.9400)  can1  8100302   [5]  00 24 0A 00 07
 (1.9450)  can1  18101203   [4]  CE 2E 41 02
 (1.9480)  can1  18800401   [8]  05 D9 8F CD 8F D0 8F 00
 (1.9480)  can1  18840401   [8]  05 E1 8F D7 8F D8 8F 00
 (1.9490)  can1  18C00401   [8]  05 F6 2F 4A 30 6C 30 00
 (1.9490)  can1  4100209   [8]  00 00 00 00 00 00 00 00
 (1.9500)  can1  4100208   [8]  00 00 00 00 00 00 00 00
 (1.9550)  can1  8101201   [8]  D5 64 6F 90 1D 8D 16 00
 (1.9550)  can1  8010C01   [8]  5A 64 00 00 00 00 00 00
 (1.9560)  can1  8030C02   [8]  00 00 2A 68 2A 68 92 17
 (1.9560)  can1  8580C02   [8]  00 00 00 00 00 00 00 00
 (1.9570)  can1  89A0C02   [8]  00 00 00 00 00 00 00 00
 (1.9590)  can1  4100209   [8]  00 00 00 00 00 00 00 00
 (1.9600)  can1  4100208   [8]  00 00 00 00 00 00 00 00
 (1.9650)  can1  8100302   [5]  00 23 0A 00 07
 (1.9690)  can1  4100209   [8]  00 00 00 00 00 00 00 00
 (1.9700)  can1  4100208   [8]  00 00 00 00 00 00 00 00
 (1.9750)  can1  89A0C02   [8]  00 00 00 00 00 00 00 00
 (1.9760)  can1  8030C02   [8]  00 00 2A 68 2A 68 92 17
 (1.9760)  can1  8580C02   [8]  00 00 00 00 00 00 00 00
 (1.9790)  can1  4100209   [8]  00 00 00 00 00 00 00 00
 (1.9800)  can1  4100208   [8]  00 00 00 00 00 00 00 00
 (1.9890)  can1  4100209   [8]  00 00 00 00 00 00 00 00
 (1.9900)  can1  4100208   [8]  00 00 00 00 00 00 00 00
 (1.9900)  can1  8100302   [5]  00 23 0A 00 07
 (1.9950)  can1  89A0C02   [8]  00 00 00 00 00 00 00 00
 (1.9950)  can1  8030C02   [8]  00 00 2A 68 2A 68 92 17
 (1.9960)  can1  8041001   [8]  37 02 B0 3C FC A2 3B 00
 (1.9960)  can1  8580C02   [8]  00 00 00 00 00 00 00 00
 (1.9980)  can1  18800401   [8]  06 CB 8F 13 90 19 90 00
 (1.9980)  can1  18840401   [8]  06 D8 8F 17 90 21 90 00
 (1.9990)  can1  18C00401   [8]  06 46 30 A4 30 56 30 00
 (1.9990)  can1  4100209   [8]  00 00 00 00 00 00 00 00
 (2.0000)  can1  4100208   [8]  00 00 00 00 00 00 00 00
 (2.0090)  can1  4100209   [8]  00 00 00 00 00 00 00 00
 (2.0100)  can1  4100208   [8]  00 00 00 00 00 00 00 00
 (2.0150)  can1  8100302   [5]  00 23 0A 00 07
 (2.0160)  can1  8580C02   [8]  00 00 00 00 00 00 00 00
 (2.0160)  can1  89A0C02   [8]  00 00 00 00 00 00 00 00
 (2.0160)  can1  8030C02   [8]  00 00 2A 68 2A 68 92 17
 (2.0190)  can1  4100209   [8]  00 00 00 00 00 00 00 00
 (2.0200)  can1  4100208   [8]  00 00 00 00 00 00 00 00
 (2.0290)  can1  4100209   [8]  00 00 00 00 00 00 00 00
 (2.0300)  can1  4100208   [8]  00 00 00 00 00 00 00 00
 (2.0350)  can1  89A0C02   [8]  00 00 00 00 00 00 00 00
 (2.0360)  can1  8030C02   [8]  00 00 2A 68 2A 68 92 17
 (2.0360)  can1  8580C02   [8]  00 00 00 00 00 00 00 00
 (2.0390)  can1  4100209   [8]  00 00 00 00 00 00 00 00
 (2.0400)  can1  4100208   [8]  00 00 00 00 00 00 00 00
 (2.0400)  can1  8100302   [5]  00 23 0A 00 07
 (2.0480)  can1  18800401   [8]  07 11 90 04 90 E7 8F 00
 (2.0480)  can1  18840401   [8]  07 18 90 0B 90 ED 8F 00
 (2.0480)  can1  18C00401   [8]  07 AD 30 2B 30 A1 30 00
 (2.0490)  can1  4100209   [8]  00 00 00 00 00 00 00 00
 (2.0500)  can1  4100208   [8]  00 00 00 00 00 00 00 00
 (2.0550)  can1  89A0C02   [8]  00 00 00 00 00 00 00 00
 (2.0560)  can1  8030C02   [8]  00 00 2A 68 2A 68 92 17
 (2.0560)  can1  8580C02   [8]  00 00 00 00 00 00 00 00
 (2.0570)  can1  8010C01   [8]  58 64 00 00 00 00 00 00
 (2.0570)  can1  8101201   [8]  D4 64 71 90 1E 8D 0A 00
 (2.0590)  can1  4100209   [8]  00 00 00 00 00 00 00 00
 (2.0600)  can1  4100208   [8]  00 00 00 00 00 00 00 00
 (2.0650)  can1  8100302   [5]  00 23 0A 00 07
 (2.0690)  can1  4100209   [8]  00 00 00 00 00 00 00 00
 (2.0700)  can1  4100208   [8]  00 00 00 00 00 00 00 00
 (2.0750)  can1  89A0C02   [8]  00 00 00 00 00 00 00 00
 (2.0760)  can1  8030C02   [8]  00 00 2A 68 2A 68 92 17
 (2.0760)  can1  8580C02   [8]  00 00 00 00 00 00 00 00
 (2.0790)  can1  4100209   [8]  00 00 00 00 00 00 00 00
 (2.0800)  can1  4100208   [8]  00 00 00 00 00 00 00 00
 (2.0890)  can1  4100209   [8]  00 00 00 00 00 00 00 00
 (2.0900)  can1  4100208   [8]  00 00 00 00 00 00 00 00
 (2.0910)  can1  8100302   [5]  00 24 0A 00 07
 (2.0950)  can1  89A0C02   [8]  00 00 00 00 00 00 00 00
 (2.0960)  can1  8030C02   [8]  00 00 2A 68 2A 68 92 17
 (2.0960)  can1  8041001   [8]  37 02 B0 3C FC A2 3B 00
 (2.0970)  can1  8580C02   [8]  00 00 00 00 00 00 00 00
 (2.0980)  can1  18800401   [8]  08 DC 8F 4A 8D 34 90 00
 (2.0990)  can1  18840401   [8]  08 E3 8F 4A 8D 3A 90 00
 (2.0990)  can1  18C00401   [8]  08 FF 2F 84 30 99 2F 00
 (2.0990)  can1  4100209   [8]  00 00 00 00 00 00 00 00
 (2.1000)  can1  4100208   [8]  00 00 00 00 00 00 00 00
 (2.1090)  can1  4100209   [8]  00 00 00 00 00 00 00 00
 (2.1100)  can1  4100208   [8]  00 00 00 00 00 00 00 00
 (2.1150)  can1  8100302   [5]  00 22 0A 00 07
 (2.1160)  can1  8580C02   [8]  00 00 00 00 00 00 00 00
 (2.1160)  can1  89A0C02   [8]  00 00 00 00 00 00 00 00
 (2.1170)  can1  8030C02   [8]  00 00 2A 68 2A 68 92 17
 (2.1190)  can1  4100209   [8]  00 00 00 00 00 00 00 00
 (2.1200)  can1  4100208   [8]  00 00 00 00 00 00 00 00
 (2.1290)  can1  4100209   [8]  00 00 00 00 00 00 00 00
 (2.1300)  can1  4100208   [8]  00 00 00 00 00 00 00 00
 (2.1350)  can1  89A0C02   [8]  00 00 00 00 00 00 00 00
 (2.1350)  can1  8030C02   [8]  00 00 2A 68 2A 68 92 17
 (2.1360)  can1  8580C02   [8]  00 00 00 00 00 00 00 00
 (2.1390)  can1  4100209   [8]  00 00 00 00 00 00 00 00
 (2.1400)  can1  4100208   [8]  00 00 00 00 00 00 00 00
 (2.1400)  can1  8100302   [5]  00 22 0A 00 07
 (2.1480)  can1  18800401   [8]  09 27 90 E4 8F D3 8F 00
 (2.1490)  can1  18840401   [8]  09 2E 90 EB 8F D9 8F 00
 (2.1490)  can1  18C00401   [8]  09 01 30 9A 2F 11 30 00
 (2.1490)  can1  4100209   [8]  00 00 00 00 00 00 00 00
 (2.1500)  can1  4100208   [8]  00 00 00 00 00 00 00 00
 (2.1550)  can1  89A0C02   [8]  00 00 00 00 00 00 00 00
 (2.1560)  can1  8030C02   [8]  00 00 2A 68 2A 68 92 17
 (2.1560)  can1  8580C02   [8]  00 00 00 00 00 00 00 00
 (2.1570)  can1  8101201   [8]  D4 64 6F 90 1E 8D 15 00
 (2.1570)  can1  8010C01   [8]  5A 64 00 00 00 00 00 00
 (2.1590)  can1  4100209   [8]  00 00 00 00 00 00 00 00
 (2.1600)  can1  4100208   [8]  00 00 00 00 00 00 00 00
 (2.1650)  can1  8100302   [5]  00 23 0A 00 07
 (2.1690)  can1  4100209   [8]  00 00 00 00 00 00 00 00
 (2.1700)  can1  4100208   [8]  00 00 00 00 00 00 00 00
 (2.1750)  can1  89A0C02   [8]  00 00 00 00 00 00 00 00
 (2.1760)  can1  8030C02   [8]  00 00 2A 68 2A 68 92 17
 (2.1760)  can1  8580C02   [8]  00 00 00 00 00 00 00 00
 (2.1790)  can1  4100209   [8]  00 00 00 00 00 00 00 00
 (2.1800)  can1  4100208   [8]  00 00 00 00 00 00 00 00
 (2.1890)  can1  4100209   [8]  00 00 00 00 00 00 00 00
 (2.1900)  can1  4100208   [8]  00 00 00 00 00 00 00 00
 (2.1900)  can1  8100302   [5]  00 23 0A 00 07
 (2.1950)  can1  89A0C02   [8]  00 00 00 00 00 00 00 00
 (2.1950)  can1  8030C02   [8]  00 00 2A 68 2A 68 92 17
 (2.1960)  can1  8041001   [8]  37 02 B0 3C FC A2 3B 00
 (2.1960)  can1  8580C02   [8]  00 00 00 00 00 00 00 00
 (2.1980)  can1  18800401   [8]  0A B2 8F C9 8F D6 8F 00
 (2.1990)  can1  18840401   [8]  0A B9 8F CD 8F DA 8F 00
 (2.1990)  can1  18C00401   [8]  0A 45 30 9C 30 62 30 00
 (2.1990)  can1  4100209   [8]  00 00 00 00 00 00 00 00
 (2.2000)  can1  4100208   [8]  00 00 00 00 00 00 00 00
 (2.2090)  can1  4100209   [8]  00 00 00 00 00 00 00 00
 (2.2110)  can1  4100208   [8]  00 00 00 00 00 00 00 00
 (2.2150)  can1  8100302   [5]  00 22 0A 00 07
 (2.2160)  can1  8580C02   [8]  00 00 00 00 00 00 00 00
 (2.2160)  can1  89A0C02   [8]  00 00 00 00 00 00 00 00
 (2.2170)  can1  8030C02   [8]  00 00 2A 68 2A 68 92 17
 (2.2190)  can1  4100209   [8]  00 00 00 00 00 00 00 00
 (2.2200)  can1  4100208   [8]  00 00 00 00 00 00 00 00
 (2.2290)  can1  4100209   [8]  00 00 00 00 00 00 00 00
 (2.2300)  can1  4100208   [8]  00 00 00 00 00 00 00 00
 (2.2350)  can1  89A0C02   [8]  00 00 00 00 00 00 00 00
 (2.2360)  can1  8030C02   [8]  00 00 2A 68 2A 68 92 17
 (2.2360)  can1  8580C02   [8]  00 00 00 00 00 00 00 00
 (2.2390)  can1  4100209   [8]  00 00 00 00 00 00 00 00
 (2.2400)  can1  4100208   [8]  00 00 00 00 00 00 00 00
 (2.2400)  can1  8100302   [5]  00 23 0A 00 07
 (2.2480)  can1  18800401   [8]  0B 04 90 03 90 07 90 00
 (2.2480)  can1  18840401   [8]  0B 09 90 08 90 0D 90 00
 (2.2490)  can1  18C00401   [8]  0B D0 30 70 30 BF 30 00
 (2.2490)  can1  4100209   [8]  00 00 00 00 00 00 00 00
 (2.2500)  can1  4100208   [8]  00 00 00 00 00 00 00 00
 (2.2550)  can1  89A0C02   [8]  00 00 00 00 00 00 00 00
 (2.2550)  can1  8030C02   [8]  00 00 2A 68 2A 68 92 17
 (2.2560)  can1  8580C02   [8]  00 00 00 00 00 00 00 00
 (2.2580)  can1  8101201   [8]  D4 64 70 90 1E 8D 11 00
 (2.2580)  can1  8010C01   [8]  57 64 00 00 00 00 00 00
 (2.2590)  can1  4100209   [8]  00 00 00 00 00 00 00 00
 (2.2600)  can1  4100208   [8]  00 00 00 00 00 00 00 00
 (2.2650)  can1  8100302   [5]  00 23 0A 00 07
 (2.2690)  can1  4100209   [8]  00 00 00 00 00 00 00 00
 (2.2700)  can1  4100208   [8]  00 00 00 00 00 00 00 00
 (2.2750)  can1  89A0C02   [8]  00 00 00 00 00 00 00 00
 (2.2760)  can1  8030C02   [8]  00 00 2A 68 2A 68 92 17
 (2.2760)  can1  8580C02   [8]  00 00 00 00 00 00 00 00
 (2.2790)  can1  4100209   [8]  00 00 00 00 00 00 00 00
 (2.2800)  can1  4100208   [8]  00 00 00 00 00 00 00 00
 (2.2890)  can1  4100209   [8]  00 00 00 00 00 00 00 00
 (2.2900)  can1  4100208   [8]  00 00 00 00 00 00 00 00
 (2.2900)  can1  8100302   [5]  00 23 0A 00 07
 (2.2950)  can1  89A0C02   [8]  00 00 00 00 00 00 00 00
 (2.2960)  can1  8030C02   [8]  00 00 2A 68 2A 68 92 17
 (2.2960)  can1  8041001   [8]  37 02 B0 3C FC A2 3B 00
 (2.2970)  can1  8580C02   [8]  00 00 00 00 00 00 00 00
 (2.2980)  can1  18800401   [8]  0C 01 90 E7 8F E5 8F 00
 (2.2980)  can1  18840401   [8]  0C 07 90 ED 8F EB 8F 00
 (2.2990)  can1  18C00401   [8]  0C 49 30 7A 30 FD 2F 00
 (2.2990)  can1  4100209   [8]  00 00 00 00 00 00 00 00
 (2.3000)  can1  4100208   [8]  00 00 00 00 00 00 00 00
 (2.3090)  can1  4100209   [8]  00 00 00 00 00 00 00 00
 (2.3100)  can1  4100208   [8]  00 00 00 00 00 00 00 00
 (2.3150)  can1  8100302   [5]  00 22 0A 00 07
 (2.3150)  can1  8580C02   [8]  00 00 00 00 00 00 00 00
 (2.3160)  can1  89A0C02   [8]  00 00 00 00 00 00 00 00
 (2.3170)  can1  8030C02   [8]  00 00 2A 68 2A 68 92 17
 (2.3190)  can1  4100209   [8]  00 00 00 00 00 00 00 00
 (2.3200)  can1  4100208   [8]  00 00 00 00 00 00 00 00
 (2.3290)  can1  4100209   [8]  00 00 00 00 00 00 00 00
 (2.3300)  can1  4100208   [8]  00 00 00 00 00 00 00 00
 (2.3350)  can1  89A0C02   [8]  00 00 00 00 00 00 00 00
 (2.3360)  can1  8030C02   [8]  00 00 2A 68 2A 68 92 17
 (2.3360)  can1  8580C02   [8]  00 00 00 00 00 00 00 00
 (2.3390)  can1  4100209   [8]  00 00 00 00 00 00 00 00
 (2.3400)  can1  4100208   [8]  00 00 00 00 00 00 00 00
 (2.3400)  can1  8100302   [5]  00 23 0A 00 07
 (2.3480)  can1  18800401   [8]  0D EF 8F 18 90 08 90 00
 (2.3480)  can1  18840401   [8]  0D F6 8F 1E 90 0E 90 00
 (2.3490)  can1  18C00401   [8]  0D 24 30 3C 2F 40 2F 00
 (2.3490)  can1  4100209   [8]  00 00 00 00 00 00 00 00
 (2.3500)  can1  4100208   [8]  00 00 00 00 00 00 00 00
 (2.3550)  can1  89A0C02   [8]  00 00 00 00 00 00 00 00
 (2.3560)  can1  8030C02   [8]  00 00 2A 68 2A 68 92 17
 (2.3560)  can1  8580C02   [8]  00 00 00 00 00 00 00 00
 (2.3590)  can1  8101201   [8]  D4 64 6D 90 1F 8D 0D 00
 (2.3590)  can1  8010C01   [8]  59 64 00 00 00 00 00 00
 (2.3600)  can1  4100209   [8]  00 00 00 00 00 00 00 00
 (2.3600)  can1  4100208   [8]  00 00 00 00 00 00 00 00
 (2.3650)  can1  8100302   [5]  00 23 0A 00 07
 (2.3690)  can1  4100209   [8]  00 00 00 00 00 00 00 00
 (2.3700)  can1  4100208   [8]  00 00 00 00 00 00 00 00
 (2.3750)  can1  89A0C02   [8]  00 00 00 00 00 00 00 00
 (2.3760)  can1  8030C02   [8]  00 00 2A 68 2A 68 92 17
 (2.3760)  can1  8580C02   [8]  00 00 00 00 00 00 00 00
 (2.3790)  can1  4100209   [8]  00 00 00 00 00 00 00 00
 (2.3800)  can1  4100208   [8]  00 00 00 00 00 00 00 00
 (2.3890)  can1  4100209   [8]  00 00 00 00 00 00 00 00
 (2.3900)  can1  4100208   [8]  00 00 00 00 00 00 00 00
 (2.3900)  can1  8100302   [5]  00 22 0A 00 07
 (2.3950)  can1  89A0C02   [8]  00 00 00 00 00 00 00 00
 (2.3960)  can1  8030C02   [8]  00 00 2A 68 2A 68 92 17
 (2.3960)  can1  8041001   [8]  37 02 B0 3C FC A2 3B 00
 (2.3960)  can1  8580C02   [8]  00 00 00 00 00 00 00 00
 (2.3980)  can1  18800401   [8]  0E CC 8F C2 8F AF 8F 00
 (2.3980)  can1  18840401   [8]  0E D3 8F C9 8F B2 8F 00
 (2.3980)  can1  18C00401   [8]  0E 57 2F E8 2F 0D 30 00
 (2.3990)  can1  4100209   [8]  00 00 00 00 00 00 00 00
 (2.4000)  can1  4100208   [8]  00 00 00 00 00 00 00 00
 (2.4090)  can1  4100209   [8]  00 00 00 00 00 00 00 00
 (2.4100)  can1  4100208   [8]  00 00 00 00 00 00 00 00
 (2.4150)  can1  8100302   [5]  00 22 0A 00 07
 (2.4150)  can1  8580C02   [8]  00 00 00 00 00 00 00 00
 (2.4240)  can1  89A0C02   [8]  00 00 00 00 00 00 00 00
 (2.4250)  can1  8030C02   [8]  00 00 2A 68 2A 68 92 17
 (2.4250)  can1  4100209   [8]  00 00 00 00 00 00 00 00
 (2.4250)  can1  4100208   [8]  00 00 00 00 00 00 00 00
 (2.4290)  can1  4100209   [8]  00 00 00 00 00 00 00 00
 (2.4300)  can1  4100208   [8]  00 00 00 00 00 00 00 00
 (2.4350)  can1  89A0C02   [8]  00 00 00 00 00 00 00 00
 (2.4350)  can1  8030C02   [8]  00 00 2A 68 2A 68 92 17
 (2.4360)  can1  8580C02   [8]  00 00 00 00 00 00 00 00
 (2.4390)  can1  4100209   [8]  00 00 00 00 00 00 00 00
 (2.4400)  can1  4100208   [8]  00 00 00 00 00 00 00 00
 (2.4400)  can1  8100302   [5]  00 23 0A 00 07
 (2.4450)  can1  18101203   [4]  D8 2E 8B 01
 (2.4480)  can1  18800401   [8]  0F 65 8F C7 8F FC 8F 00
 (2.4480)  can1  18840401   [8]  0F 6D 8F D0 8F 04 90 00
 (2.4490)  can1  18C00401   [8]  0F 69 30 52 30 B0 30 00
 (2.4490)  can1  4100209   [8]  00 00 00 00 00 00 00 00
 (2.4500)  can1  4100208   [8]  00 00 00 00 00 00 00 00
 (2.4550)  can1  89A0C02   [8]  00 00 00 00 00 00 00 00
 (2.4560)  can1  8030C02   [8]  00 00 2A 68 2A 68 92 17
 (2.4560)  can1  8580C02   [8]  00 00 00 00 00 00 00 00
 (2.4590)  can1  4100209   [8]  00 00 00 00 00 00 00 00
 (2.4600)  can1  4100208   [8]  00 00 00 00 00 00 00 00
 (2.4610)  can1  8010C01   [8]  5A 64 00 00 00 00 00 00
 (2.4610)  can1  8101201   [8]  D6 64 70 90 21 8D 16 00
 (2.4650)  can1  8100302   [5]  00 22 0A 00 07
 (2.4690)  can1  4100209   [8]  00 00 00 00 00 00 00 00
 (2.4700)  can1  4100208   [8]  00 00 00 00 00 00 00 00
 (2.4750)  can1  89A0C02   [8]  00 00 00 00 00 00 00 00
 (2.4760)  can1  8030C02   [8]  00 00 2A 68 2A 68 92 17
 (2.4760)  can1  8580C02   [8]  00 00 00 00 00 00 00 00
 (2.4790)  can1  4100209   [8]  00 00 00 00 00 00 00 00
 (2.4800)  can1  4100208   [8]  00 00 00 00 00 00 00 00
 (2.4890)  can1  4100209   [8]  00 00 00 00 00 00 00 00
 (2.4900)  can1  4100208   [8]  00 00 00 00 00 00 00 00
 (2.4900)  can1  8100302   [5]  00 23 0A 00 07
 (2.4950)  can1  89A0C02   [8]  00 00 00 00 00 00 00 00
 (2.4960)  can1  8030C02   [8]  00 00 2A 68 2A 68 92 17
 (2.4960)  can1  8041001   [8]  37 02 B0 3C FC A2 3B 00
 (2.4970)  can1  8580C02   [8]  00 00 00 00 00 00 00 00
 (2.4980)  can1  18800401   [8]  10 F1 8F F1 8F E9 8F 00
 (2.4980)  can1  18840401   [8]  10 F6 8F F7 8F EF 8F 00
 (2.4990)  can1  18C00401   [8]  10 61 30 BA 30 14 30 00
 (2.4990)  can1  4100209   [8]  00 00 00 00 00 00 00 00
 (2.5000)  can1  4100208   [8]  00 00 00 00 00 00 00 00
 (2.5090)  can1  4100209   [8]  00 00 00 00 00 00 00 00
 (2.5100)  can1  4100208   [8]  00 00 00 00 00 00 00 00
 (2.5150)  can1  8100302   [5]  00 22 0A 00 07
 (2.5150)  can1  8580C02   [8]  00 00 00 00 00 00 00 00
 (2.5160)  can1  89A0C02   [8]  00 00 00 00 00 00 00 00
 (2.5160)  can1  8030C02   [8]  00 00 2A 68 2A 68 92 17
 (2.5190)  can1  4100209   [8]  00 00 00 00 00 00 00 00
 (2.5200)  can1  4100208   [8]  00 00 00 00 00 00 00 00
 (2.5290)  can1  4100209   [8]  00 00 00 00 00 00 00 00
 (2.5300)  can1  4100208   [8]  00 00 00 00 00 00 00 00
 (2.5350)  can1  89A0C02   [8]  00 00 00 00 00 00 00 00
 (2.5360)  can1  8030C02   [8]  00 00 2A 68 2A 68 92 17
 (2.5360)  can1  8580C02   [8]  00 00 00 00 00 00 00 00
 (2.5390)  can1  4100209   [8]  00 00 00 00 00 00 00 00
 (2.5400)  can1  4100208   [8]  00 00 00 00 00 00 00 00
 (2.5400)  can1  8100302   [5]  00 23 0A 00 07
 (2.5480)  can1  18800401   [8]  11 D2 8F CA 8F D5 8F 00
 (2.5480)  can1  18840401   [8]  11 D9 8F D0 8F DF 8F 00
 (2.5480)  can1  18C00401   [8]  11 92 30 C8 2F 4D 30 00
 (2.5490)  can1  4100209   [8]  00 00 00 00 00 00 00 00
 (2.5500)  can1  4100208   [8]  00 00 00 00 00 00 00 00
 (2.5550)  can1  89A0C02   [8]  00 00 00 00 00 00 00 00
 (2.5560)  can1  8030C02   [8]  00 00 2A 68 2A 68 92 17
 (2.5560)  can1  8580C02   [8]  00 00 00 00 00 00 00 00
 (2.5590)  can1  4100209   [8]  00 00 00 00 00 00 00 00
 (2.5600)  can1  4100208   [8]  00 00 00 00 00 00 00 00
 (2.5610)  can1  8101201   [8]  D4 64 71 90 1F 8D 0C 00
 (2.5610)  can1  8010C01   [8]  58 64 00 00 00 00 00 00
 (2.5650)  can1  8100302   [5]  00 23 0A 00 07
 (2.5690)  can1  4100209   [8]  00 00 00 00 00 00 00 00
 (2.5700)  can1  4100208   [8]  00 00 00 00 00 00 00 00
 (2.5750)  can1  89A0C02   [8]  00 00 00 00 00 00 00 00
 (2.5760)  can1  8030C02   [8]  00 00 2A 68 2A 68 92 17
 (2.5760)  can1  8580C02   [8]  00 00 00 00 00 00 00 00
 (2.5790)  can1  4100209   [8]  00 00 00 00 00 00 00 00
 (2.5800)  can1  4100208   [8]  00 00 00 00 00 00 00 00
 (2.5890)  can1  4100209   [8]  00 00 00 00 00 00 00 00
 (2.5900)  can1  4100208   [8]  00 00 00 00 00 00 00 00
 (2.5900)  can1  8100302   [5]  00 23 0A 00 07
 (2.5950)  can1  89A0C02   [8]  00 00 00 00 00 00 00 00
 (2.5960)  can1  8030C02   [8]  00 00 2A 68 2A 68 92 17
 (2.5960)  can1  8041001   [8]  37 02 B0 3C FC A2 3B 00
 (2.5960)  can1  8580C02   [8]  00 00 00 00 00 00 00 00
 (2.5980)  can1  18800401   [8]  12 14 90 07 90 CE 8F 00
 (2.5980)  can1  18840401   [8]  12 18 90 0B 90 D2 8F 00
 (2.5980)  can1  18C00401   [8]  12 AE 2F 2E 2F FC 2E 00
 (2.5990)  can1  4100209   [8]  00 00 00 00 00 00 00 00
 (2.6000)  can1  4100208   [8]  00 00 00 00 00 00 00 00
 (2.6090)  can1  4100209   [8]  00 00 00 00 00 00 00 00
 (2.6100)  can1  4100208   [8]  00 00 00 00 00 00 00 00
 (2.6150)  can1  8100302   [5]  00 23 0A 00 07
 (2.6150)  can1  8580C02   [8]  00 00 00 00 00 00 00 00
 (2.6160)  can1  89A0C02   [8]  00 00 00 00 00 00 00 00
 (2.6160)  can1  8030C02   [8]  00 00 2A 68 2A 68 92 17
 (2.6190)  can1  4100209   [8]  00 00 00 00 00 00 00 00
 (2.6200)  can1  4100208   [8]  00 00 00 00 00 00 00 00
 (2.6290)  can1  4100209   [8]  00 00 00 00 00 00 00 00
 (2.6300)  can1  4100208   [8]  00 00 00 00 00 00 00 00
 (2.6350)  can1  89A0C02   [8]  00 00 00 00 00 00 00 00
 (2.6350)  can1  8030C02   [8]  00 00 2A 68 2A 68 92 17
 (2.6360)  can1  8580C02   [8]  00 00 00 00 00 00 00 00
 (2.6390)  can1  4100209   [8]  00 00 00 00 00 00 00 00
 (2.6400)  can1  4100208   [8]  00 00 00 00 00 00 00 00
 (2.6410)  can1  8100302   [5]  00 24 0A 00 07
 (2.6480)  can1  18800401   [8]  13 C8 8F B4 8F C4 8F 00
 (2.6480)  can1  18840401   [8]  13 CC 8F B7 8F C8 8F 00
 (2.6490)  can1  18C00401   [8]  13 70 2F B0 2F 04 30 00
 (2.6490)  can1  4100209   [8]  00 00 00 00 00 00 00 00
 (2.6500)  can1  4100208   [8]  00 00 00 00 00 00 00 00
 (2.6550)  can1  89A0C02   [8]  00 00 00 00 00 00 00 00
 (2.6560)  can1  8030C02   [8]  00 00 2A 68 2A 68 92 17
 (2.6560)  can1  8580C02   [8]  00 00 00 00 00 00 00 00
 (2.6590)  can1  4100209   [8]  00 00 00 00 00 00 00 00
 (2.6600)  can1  4100208   [8]  00 00 00 00 00 00 00 00
 (2.6620)  can1  8101201   [8]  D5 64 71 90 1F 8D 14 00
 (2.6630)  can1  8010C01   [8]  59 64 00 00 00 00 00 00
 (2.6650)  can1  8100302   [5]  00 24 0A 00 07
 (2.6690)  can1  4100209   [8]  00 00 00 00 00 00 00 00
 (2.6700)  can1  4100208   [8]  00 00 00 00 00 00 00 00
 (2.6750)  can1  89A0C02   [8]  00 00 00 00 00 00 00 00
 (2.6760)  can1  8030C02   [8]  00 00 2A 68 2A 68 92 17
 (2.6760)  can1  8580C02   [8]  00 00 00 00 00 00 00 00
 (2.6790)  can1  4100209   [8]  00 00 00 00 00 00 00 00
 (2.6800)  can1  4100208   [8]  00 00 00 00 00 00 00 00
 (2.6890)  can1  4100209   [8]  00 00 00 00 00 00 00 00
 (2.6900)  can1  4100208   [8]  00 00 00 00 00 00 00 00
 (2.6900)  can1  8100302   [5]  00 24 0A 00 07
 (2.6950)  can1  89A0C02   [8]  00 00 00 00 00 00 00 00
 (2.6960)  can1  8030C02   [8]  00 00 2A 68 2A 68 92 17
 (2.6960)  can1  8041001   [8]  37 02 B0 3C FC A2 3B 00
 (2.6970)  can1  8580C02   [8]  00 00 00 00 00 00 00 00
 (2.6980)  can1  18800401   [8]  14 E3 8F F7 8F EE 8F 00
 (2.6980)  can1  18840401   [8]  14 DF 8F 00 90 F7 8F 00
 (2.6990)  can1  18C00401   [8]  14 D8 2F 1A 30 D9 2F 00
 (2.6990)  can1  4100209   [8]  00 00 00 00 00 00 00 00
 (2.7000)  can1  4100208   [8]  00 00 00 00 00 00 00 00
 (2.7090)  can1  4100209   [8]  00 00 00 00 00 00 00 00
 (2.7100)  can1  4100208   [8]  00 00 00 00 00 00 00 00
 (2.7150)  can1  8100302   [5]  00 23 0A 00 07
 (2.7160)  can1  8580C02   [8]  00 00 00 00 00 00 00 00
 (2.7160)  can1  89A0C02   [8]  00 00 00 00 00 00 00 00
 (2.7160)  can1  8030C02   [8]  00 00 2A 68 2A 68 92 17
 (2.7190)  can1  4100209   [8]  00 00 00 00 00 00 00 00
 (2.7200)  can1  4100208   [8]  00 00 00 00 00 00 00 00
 (2.7290)  can1  4100209   [8]  00 00 00 00 00 00 00 00
 (2.7300)  can1  4100208   [8]  00 00 00 00 00 00 00 00
 (2.7350)  can1  89A0C02   [8]  00 00 00 00 00 00 00 00
 (2.7360)  can1  8030C02   [8]  00 00 2A 68 2A 68 92 17
 (2.7360)  can1  8580C02   [8]  00 00 00 00 00 00 00 00
 (2.7390)  can1  4100209   [8]  00 00 00 00 00 00 00 00
 (2.7400)  can1  4100208   [8]  00 00 00 00 00 00 00 00
 (2.7400)  can1  8100302   [5]  00 23 0A 00 07
 (2.7480)  can1  18800401   [8]  15 06 90 F8 8F E0 8F 00
 (2.7480)  can1  18840401   [8]  15 0D 90 FE 8F E7 8F 00
 (2.7480)  can1  18C00401   [8]  15 27 30 9D 2F 01 30 00
 (2.7490)  can1  4100209   [8]  00 00 00 00 00 00 00 00
 (2.7500)  can1  4100208   [8]  00 00 00 00 00 00 00 00
 (2.7550)  can1  89A0C02   [8]  00 00 00 00 00 00 00 00
 (2.7560)  can1  8030C02   [8]  00 00 2A 68 2A 68 92 17
 (2.7560)  can1  8580C02   [8]  00 00 00 00 00 00 00 00
 (2.7590)  can1  4100209   [8]  00 00 00 00 00 00 00 00
 (2.7600)  can1  4100208   [8]  00 00 00 00 00 00 00 00
 (2.7630)  can1  8101201   [8]  D5 64 72 90 20 8D 0F 00
 (2.7630)  can1  8010C01   [8]  57 64 00 00 00 00 00 00
 (2.7650)  can1  8100302   [5]  00 23 0A 00 07
 (2.7690)  can1  4100209   [8]  00 00 00 00 00 00 00 00
 (2.7700)  can1  4100208   [8]  00 00 00 00 00 00 00 00
 (2.7750)  can1  89A0C02   [8]  00 00 00 00 00 00 00 00
 (2.7750)  can1  8030C02   [8]  00 00 2A 68 2A 68 92 17
 (2.7760)  can1  8580C02   [8]  00 00 00 00 00 00 00 00
 (2.7790)  can1  4100209   [8]  00 00 00 00 00 00 00 00
 (2.7800)  can1  4100208   [8]  00 00 00 00 00 00 00 00
 (2.7890)  can1  4100209   [8]  00 00 00 00 00 00 00 00
 (2.7900)  can1  4100208   [8]  00 00 00 00 00 00 00 00
 (2.7900)  can1  8100302   [5]  00 23 0A 00 07
 (2.7950)  can1  89A0C02   [8]  00 00 00 00 00 00 00 00
 (2.7960)  can1  8030C02   [8]  00 00 2A 68 2A 68 92 17
 (2.7960)  can1  8041001   [8]  37 02 B0 3C FC A2 3B 00
 (2.7960)  can1  8580C02   [8]  00 00 00 00 00 00 00 00
 (2.7980)  can1  18800401   [8]  16 D7 8F F1 8F 17 90 00
 (2.7980)  can1  18840401   [8]  16 DC 8F F8 8F 1D 90 00
 (2.7990)  can1  18C00401   [8]  16 84 2F B6 2F 03 2F 00
 (2.7990)  can1  4100209   [8]  00 00 00 00 00 00 00 00
 (2.8000)  can1  4100208   [8]  00 00 00 00 00 00 00 00
 (2.8090)  can1  4100209   [8]  00 00 00 00 00 00 00 00
 (2.8100)  can1  4100208   [8]  00 00 00 00 00 00 00 00
 (2.8150)  can1  8100302   [5]  00 22 0A 00 07
 (2.8160)  can1  8580C02   [8]  00 00 00 00 00 00 00 00
 (2.8160)  can1  89A0C02   [8]  00 00 00 00 00 00 00 00
 (2.8170)  can1  8030C02   [8]  00 00 2A 68 2A 68 92 17
 (2.8190)  can1  4100209   [8]  00 00 00 00 00 00 00 00
 (2.8200)  can1  4100208   [8]  00 00 00 00 00 00 00 00
 (2.8290)  can1  4100209   [8]  00 00 00 00 00 00 00 00
 (2.8300)  can1  4100208   [8]  00 00 00 00 00 00 00 00
 (2.8350)  can1  89A0C02   [8]  00 00 00 00 00 00 00 00
 (2.8350)  can1  8030C02   [8]  00 00 2A 68 2A 68 92 17
 (2.8360)  can1  8580C02   [8]  00 00 00 00 00 00 00 00
 (2.8390)  can1  4100209   [8]  00 00 00 00 00 00 00 00
 (2.8400)  can1  4100208   [8]  00 00 00 00 00 00 00 00
 (2.8400)  can1  8100302   [5]  00 24 0A 00 07
 (2.8450)  can1  404FF03   [1]  00
 (2.8480)  can1  8250C03   [8]  00 00 00 00 00 00 00 00
 (2.8480)  can1  8840C03   [8]  32 00 13 00 1D 00 07 00
 (2.8490)  can1  88D0C03   [8]  11 00 09 00 00 00 00 00
 (2.8490)  can1  18800401   [8]  17 0C 90 00 00 00 00 00
 (2.8500)  can1  18840401   [8]  17 12 90 00 00 00 00 00
 (2.8500)  can1  18C00401   [8]  17 F8 2E 10 27 10 27 00
 (2.8500)  can1  4100209   [8]  00 00 00 00 00 00 00 00
 (2.8510)  can1  4100208   [8]  00 00 00 00 00 00 00 00
 (2.8550)  can1  89A0C02   [8]  00 00 00 00 00 00 00 00
 (2.8560)  can1  8030C02   [8]  00 00 2A 68 2A 68 92 17
 (2.8560)  can1  8580C02   [8]  00 00 00 00 00 00 00 00
 (2.8590)  can1  404FF07   [1]  00
 (2.8590)  can1  4100209   [8]  00 00 00 00 00 00 00 00
 (2.8600)  can1  4100208   [8]  00 00 00 00 00 00 00 00
 (2.8650)  can1  8100302   [5]  00 23 0A 00 07
 (2.8660)  can1  8101201   [8]  D3 64 71 90 21 8D 22 00
 (2.8660)  can1  8010C01   [8]  58 64 00 00 00 00 00 00
 (2.8690)  can1  4100209   [8]  00 00 00 00 00 00 00 00
 (2.8700)  can1  4100208   [8]  00 00 00 00 00 00 00 00
 (2.8750)  can1  89A0C02   [8]  00 00 00 00 00 00 00 00
 (2.8760)  can1  8030C02   [8]  00 00 2A 68 2A 68 92 17
 (2.8760)  can1  8580C02   [8]  00 00 00 00 00 00 00 00
 (2.8790)  can1  4100209   [8]  00 00 00 00 00 00 00 00
 (2.8800)  can1  4100208   [8]  00 00 00 00 00 00 00 00
 (2.8890)  can1  4100209   [8]  00 00 00 00 00 00 00 00
 (2.8900)  can1  4100208   [8]  00 00 00 00 00 00 00 00
 (2.8900)  can1  8100302   [5]  00 23 0A 00 07
 (2.8950)  can1  89A0C02   [8]  00 00 00 00 00 00 00 00
 (2.8960)  can1  404FF01   [1]  00
 (2.8960)  can1  8030C02   [8]  00 00 2A 68 2A 68 92 17
 (2.8970)  can1  8041001   [8]  37 02 B0 3C FC A2 3B 00
 (2.8970)  can1  8580C02   [8]  00 00 00 00 00 00 00 00
 (2.8980)  can1  8120C01   [8]  90 00 00 00 00 00 00 00
 (2.8980)  can1  80F1201   [4]  34 12 00 00
 (2.8990)  can1  18800401   [8]  00 6F 90 85 8F 4D 8F 00
 (2.8990)  can1  18840401   [8]  00 76 90 8A 8F 66 8F 00
 (2.9000)  can1  18C00401   [8]  00 A3 2F 16 2F 14 30 00
 (2.9000)  can1  4100209   [8]  00 00 00 00 00 00 00 00
 (2.9000)  can1  4100208   [8]  00 00 00 00 00 00 00 00
 (2.9090)  can1  4100209   [8]  00 00 00 00 00 00 00 00
 (2.9100)  can1  4100208   [8]  00 00 00 00 00 00 00 00
 (2.9150)  can1  404FF02   [1]  00
 (2.9150)  can1  8100302   [5]  00 24 0A 00 07
 (2.9160)  can1  8580C02   [8]  00 00 00 00 00 00 00 00
 (2.9160)  can1  89A0C02   [8]  00 00 00 00 00 00 00 00
 (2.9160)  can1  8030C02   [8]  00 00 2A 68 2A 68 92 17
 (2.9190)  can1  4100209   [8]  00 00 00 00 00 00 00 00
 (2.9200)  can1  4100208   [8]  00 00 00 00 00 00 00 00
 (2.9290)  can1  4100209   [8]  00 00 00 00 00 00 00 00
 (2.9300)  can1  4100208   [8]  00 00 00 00 00 00 00 00
 (2.9350)  can1  89A0C02   [8]  00 00 00 00 00 00 00 00
 (2.9350)  can1  8030C02   [8]  00 00 2A 68 2A 68 92 17
 (2.9360)  can1  8580C02   [8]  00 00 00 00 00 00 00 00
 (2.9390)  can1  4100209   [8]  00 00 00 00 00 00 00 00
 (2.9400)  can1  4100208   [8]  00 00 00 00 00 00 00 00
 (2.9410)  can1  8100302   [5]  00 24 0A 00 07
 (2.9450)  can1  18101203   [4]  41 2E 07 02
 (2.9480)  can1  18800401   [8]  01 75 8F 8F 8F 80 8F 00
 (2.9480)  can1  18840401   [8]  01 7B 8F 91 8F 88 8F 00
 (2.9490)  can1  18C00401   [8]  01 BB 2F 3C 30 DF 2F 00
 (2.9490)  can1  4100209   [8]  00 00 00 00 00 00 00 00
 (2.9500)  can1  4100208   [8]  00 00 00 00 00 00 00 00
 (2.9550)  can1  89A0C02   [8]  00 00 00 00 00 00 00 00
 (2.9560)  can1  8030C02   [8]  00 00 2A 68 2A 68 92 17
 (2.9560)  can1  8580C02   [8]  00 00 00 00 00 00 00 00
 (2.9590)  can1  4100209   [8]  00 00 00 00 00 00 00 00
 (2.9600)  can1  4100208   [8]  00 00 00 00 00 00 00 00
 (2.9650)  can1  8100302   [5]  00 22 0A 00 06
 (2.9670)  can1  8101201   [8]  D3 64 6F 90 1E 8D 11 00
 (2.9670)  can1  8010C01   [8]  58 64 00 00 00 00 00 00
 (2.9690)  can1  4100209   [8]  00 00 00 00 00 00 00 00
 (2.9700)  can1  4100208   [8]  00 00 00 00 00 00 00 00
 (2.9750)  can1  89A0C02   [8]  00 00 00 00 00 00 00 00
 (2.9760)  can1  8030C02   [8]  00 00 2A 68 2A 68 92 17
 (2.9760)  can1  8580C02   [8]  00 00 00 00 00 00 00 00
 (2.9790)  can1  4100209   [8]  00 00 00 00 00 00 00 00
 (2.9800)  can1  4100208   [8]  00 00 00 00 00 00 00 00
 (2.9890)  can1  4100209   [8]  00 00 00 00 00 00 00 00
 (2.9900)  can1  4100208   [8]  00 00 00 00 00 00 00 00
 (2.9900)  can1  8100302   [5]  00 23 0A 00 07
 (2.9950)  can1  89A0C02   [8]  00 00 00 00 00 00 00 00
 (2.9960)  can1  8030C02   [8]  00 00 2A 68 2A 68 92 17
 (2.9960)  can1  8041001   [8]  37 02 B0 3C FC A2 3B 00
 (2.9970)  can1  8580C02   [8]  00 00 00 00 00 00 00 00
 (2.9980)  can1  18800401   [8]  02 A4 8F 0E 90 F7 8F 00
 (2.9980)  can1  18840401   [8]  02 A9 8F 11 90 FA 8F 00
 (2.9980)  can1  18C00401   [8]  02 19 30 D9 2F FC 2F 00
 (2.9990)  can1  4100209   [8]  00 00 00 00 00 00 00 00
 (3.0000)  can1  4100208   [8]  00 00 00 00 00 00 00 00
 (3.0090)  can1  4100209   [8]  00 00 00 00 00 00 00 00
 (3.0100)  can1  4100208   [8]  00 00 00 00 00 00 00 00
 (3.0150)  can1  8100302   [5]  00 24 0A 00 07
 (3.0160)  can1  8580C02   [8]  00 00 00 00 00 00 00 00
 (3.0160)  can1  89A0C02   [8]  00 00 00 00 00 00 00 00
 (3.0160)  can1  8030C02   [8]  00 00 2A 68 2A 68 92 17
 (3.0190)  can1  4100209   [8]  00 00 00 00 00 00 00 00
 (3.0200)  can1  4100208   [8]  00 00 00 00 00 00 00 00
 (3.0290)  can1  4100209   [8]  00 00 00 00 00 00 00 00
 (3.0300)  can1  4100208   [8]  00 00 00 00 00 00 00 00
 (3.0350)  can1  89A0C02   [8]  00 00 00 00 00 00 00 00
 (3.0360)  can1  8030C02   [8]  00 00 2A 68 2A 68 92 17
 (3.0360)  can1  8580C02   [8]  00 00 00 00 00 00 00 00
 (3.0390)  can1  4100209   [8]  00 00 00 00 00 00 00 00
 (3.0400)  can1  4100208   [8]  00 00 00 00 00 00 00 00
 (3.0400)  can1  8100302   [5]  00 24 0A 00 07
 (3.0480)  can1  18800401   [8]  03 E8 8F DA 8F F4 8F 00
 (3.0480)  can1  18840401   [8]  03 EB 8F DE 8F F5 8F 00
 (3.0480)  can1  18C00401   [8]  03 C8 2F C5 2F 86 2F 00
 (3.0490)  can1  4100209   [8]  00 00 00 00 00 00 00 00
 (3.0500)  can1  4100208   [8]  00 00 00 00 00 00 00 00
 (3.0550)  can1  89A0C02   [8]  00 00 00 00 00 00 00 00
 (3.0560)  can1  8030C02   [8]  00 00 2A 68 2A 68 92 17
 (3.0560)  can1  8580C02   [8]  00 00 00 00 00 00 00 00
 (3.0590)  can1  4100209   [8]  00 00 00 00 00 00 00 00
 (3.0600)  can1  4100208   [8]  00 00 00 00 00 00 00 00
 (3.0650)  can1  8100302   [5]  00 24 0A 00 07
 (3.0680)  can1  8101201   [8]  D6 64 6F 90 1D 8D 05 00
 (3.0680)  can1  8010C01   [8]  58 64 00 00 00 00 00 00
 (3.0690)  can1  4100209   [8]  00 00 00 00 00 00 00 00
 (3.0700)  can1  4100208   [8]  00 00 00 00 00 00 00 00
 (3.0750)  can1  89A0C02   [8]  00 00 00 00 00 00 00 00
 (3.0750)  can1  8030C02   [8]  00 00 2A 68 2A 68 92 17
 (3.0760)  can1  8580C02   [8]  00 00 00 00 00 00 00 00
 (3.0790)  can1  4100209   [8]  00 00 00 00 00 00 00 00
 (3.0800)  can1  4100208   [8]  00 00 00 00 00 00 00 00
 (3.0890)  can1  4100209   [8]  00 00 00 00 00 00 00 00
 (3.0900)  can1  4100208   [8]  00 00 00 00 00 00 00 00
 (3.0900)  can1  8100302   [5]  00 24 0A 00 07
 (3.0950)  can1  89A0C02   [8]  00 00 00 00 00 00 00 00
 (3.0960)  can1  8030C02   [8]  00 00 2A 68 2A 68 92 17
 (3.0960)  can1  8041001   [8]  37 02 B0 3C FC A2 3B 00
 (3.0960)  can1  8580C02   [8]  00 00 00 00 00 00 00 00
 (3.0980)  can1  18800401   [8]  04 0C 90 01 90 17 8D 00
 (3.0980)  can1  18840401   [8]  04 12 90 06 90 1E 8D 00
 (3.0990)  can1  18C00401   [8]  04 F2 2E D5 2E F8 2F 00
 (3.0990)  can1  4100209   [8]  00 00 00 00 00 00 00 00
 (3.1000)  can1  4100208   [8]  00 00 00 00 00 00 00 00
 (3.1090)  can1  4100209   [8]  00 00 00 00 00 00 00 00
 (3.1100)  can1  4100208   [8]  00 00 00 00 00 00 00 00
 (3.1150)  can1  8100302   [5]  00 24 0A 00 07
 (3.1160)  can1  8580C02   [8]  00 00 00 00 00 00 00 00
 (3.1160)  can1  89A0C02   [8]  00 00 00 00 00 00 00 00
 (3.1160)  can1  8030C02   [8]  00 00 2A 68 2A 68 92 17
 (3.1190)  can1  4100209   [8]  00 00 00 00 00 00 00 00
 (3.1200)  can1  4100208   [8]  00 00 00 00 00 00 00 00
 (3.1290)  can1  4100209   [8]  00 00 00 00 00 00 00 00
 (3.1300)  can1  4100208   [8]  00 00 00 00 00 00 00 00
 (3.1350)  can1  89A0C02   [8]  00 00 00 00 00 00 00 00
 (3.1350)  can1  8030C02   [8]  00 00 2A 68 2A 68 92 17
 (3.1360)  can1  8580C02   [8]  00 00 00 00 00 00 00 00
 (3.1390)  can1  4100209   [8]  00 00 00 00 00 00 00 00
 (3.1400)  can1  4100208   [8]  00 00 00 00 00 00 00 00
 (3.1400)  can1  8100302   [5]  00 23 0A 00 07
 (3.1480)  can1  18800401   [8]  05 DC 8F CF 8F D2 8F 00
 (3.1480)  can1  18840401   [8]  05 E1 8F D9 8F D8 8F 00
 (3.1490)  can1  18C00401   [8]  05 F6 2F 4B 30 6D 30 00
 (3.1490)  can1  4100209   [8]  00 00 00 00 00 00 00 00
 (3.1500)  can1  4100208   [8]  00 00 00 00 00 00 00 00
 (3.1550)  can1  89A0C02   [8]  00 00 00 00 00 00 00 00
 (3.1560)  can1  8030C02   [8]  00 00 2A 68 2A 68 92 17
 (3.1560)  can1  8580C02   [8]  00 00 00 00 00 00 00 00
 (3.1590)  can1  4100209   [8]  00 00 00 00 00 00 00 00
 (3.1600)  can1  4100208   [8]  00 00 00 00 00 00 00 00
 (3.1650)  can1  8100302   [5]  00 24 0A 00 07
 (3.1690)  can1  8101201   [8]  D3 64 6D 90 1E 8D 11 00
 (3.1690)  can1  8010C01   [8]  58 64 00 00 00 00 00 00
 (3.1690)  can1  4100209   [8]  00 00 00 00 00 00 00 00
 (3.1700)  can1  4100208   [8]  00 00 00 00 00 00 00 00
 (3.1750)  can1  89A0C02   [8]  00 00 00 00 00 00 00 00
 (3.1760)  can1  8030C02   [8]  00 00 2A 68 2A 68 92 17
 (3.1760)  can1  8580C02   [8]  00 00 00 00 00 00 00 00
 (3.1790)  can1  4100209   [8]  00 00 00 00 00 00 00 00
 (3.1800)  can1  4100208   [8]  00 00 00 00 00 00 00 00
 (3.1890)  can1  4100209   [8]  00 00 00 00 00 00 00 00
 (3.1900)  can1  4100208   [8]  00 00 00 00 00 00 00 00
 (3.1900)  can1  8100302   [5]  00 24 0A 00 07
 (3.1950)  can1  89A0C02   [8]  00 00 00 00 00 00 00 00
 (3.1950)  can1  8030C02   [8]  00 00 2A 68 2A 68 92 17
 (3.1960)  can1  8041001   [8]  37 02 B0 3C FC A2 3B 00
 (3.1960)  can1  8580C02   [8]  00 00 00 00 00 00 00 00
 (3.1980)  can1  18800401   [8]  06 D0 8F 10 90 1C 90 00
 (3.1980)  can1  18840401   [8]  06 D8 8F 14 90 1F 90 00
 (3.1990)  can1  18C00401   [8]  06 45 30 A4 30 56 30 00
 (3.1990)  can1  4100209   [8]  00 00 00 00 00 00 00 00
 (3.2000)  can1  4100208   [8]  00 00 00 00 00 00 00 00
 (3.2090)  can1  4100209   [8]  00 00 00 00 00 00 00 00
 (3.2110)  can1  4100208   [8]  00 00 00 00 00 00 00 00
 (3.2150)  can1  8100302   [5]  00 24 0A 00 07
 (3.2160)  can1  8580C02   [8]  00 00 00 00 00 00 00 00
 (3.2160)  can1  89A0C02   [8]  00 00 00 00 00 00 00 00
 (3.2160)  can1  8030C02   [8]  00 00 2A 68 2A 68 92 17
 (3.2190)  can1  4100209   [8]  00 00 00 00 00 00 00 00
 (3.2200)  can1  4100208   [8]  00 00 00 00 00 00 00 00
 (3.2290)  can1  4100209   [8]  00 00 00 00 00 00 00 00
 (3.2300)  can1  4100208   [8]  00 00 00 00 00 00 00 00
 (3.2350)  can1  89A0C02   [8]  00 00 00 00 00 00 00 00
 (3.2360)  can1  8030C02   [8]  00 00 2A 68 2A 68 92 17
 (3.2360)  can1  8580C02   [8]  00 00 00 00 00 00 00 00
 (3.2390)  can1  4100209   [8]  00 00 00 00 00 00 00 00
 (3.2400)  can1  4100208   [8]  00 00 00 00 00 00 00 00
 (3.2400)  can1  8100302   [5]  00 24 0A 00 07
 (3.2480)  can1  18800401   [8]  07 12 90 05 90 E7 8F 00
 (3.2480)  can1  18840401   [8]  07 17 90 09 90 EB 8F 00
 (3.2490)  can1  18C00401   [8]  07 AD 30 2C 30 A0 30 00
 (3.2490)  can1  4100209   [8]  00 00 00 00 00 00 00 00
 (3.2500)  can1  4100208   [8]  00 00 00 00 00 00 00 00
 (3.2550)  can1  89A0C02   [8]  00 00 00 00 00 00 00 00
 (3.2560)  can1  8030C02   [8]  00 00 2A 68 2A 68 92 17
 (3.2560)  can1  8580C02   [8]  00 00 00 00 00 00 00 00
 (3.2590)  can1  4100209   [8]  00 00 00 00 00 00 00 00
 (3.2600)  can1  4100208   [8]  00 00 00 00 00 00 00 00
 (3.2650)  can1  8100302   [5]  00 24 0A 00 07
 (3.2690)  can1  4100209   [8]  00 00 00 00 00 00 00 00
 (3.2700)  can1  8010C01   [8]  56 64 00 00 00 00 00 00
 (3.2700)  can1  4100208   [8]  00 00 00 00 00 00 00 00
 (3.2710)  can1  8101201   [8]  D2 64 70 90 1D 8D 06 00
 (3.2750)  can1  89A0C02   [8]  00 00 00 00 00 00 00 00
 (3.2760)  can1  8030C02   [8]  00 00 2A 68 2A 68 92 17
 (3.2760)  can1  8580C02   [8]  00 00 00 00 00 00 00 00
 (3.2790)  can1  4100209   [8]  00 00 00 00 00 00 00 00
 (3.2800)  can1  4100208   [8]  00 00 00 00 00 00 00 00
 (3.2890)  can1  4100209   [8]  00 00 00 00 00 00 00 00
 (3.2900)  can1  4100208   [8]  00 00 00 00 00 00 00 00
 (3.2910)  can1  8100302   [5]  00 22 0A 00 07
 (3.2950)  can1  89A0C02   [8]  00 00 00 00 00 00 00 00
 (3.2960)  can1  8030C02   [8]  00 00 2A 68 2A 68 92 17
 (3.2960)  can1  8041001   [8]  37 02 B0 3C FC A2 3B 00
 (3.2970)  can1  8580C02   [8]  00 00 00 00 00 00 00 00
 (3.2980)  can1  18800401   [8]  08 DD 8F 41 8D 34 90 00
 (3.2980)  can1  18840401   [8]  08 E1 8F 4A 8D 38 90 00
 (3.2990)  can1  18C00401   [8]  08 FE 2F 84 30 98 2F 00
 (3.2990)  can1  4100209   [8]  00 00 00 00 00 00 00 00
 (3.3000)  can1  4100208   [8]  00 00 00 00 00 00 00 00
 (3.3090)  can1  4100209   [8]  00 00 00 00 00 00 00 00
 (3.3100)  can1  4100208   [8]  00 00 00 00 00 00 00 00
 (3.3150)  can1  8100302   [5]  00 24 0A 00 07
 (3.3160)  can1  8580C02   [8]  00 00 00 00 00 00 00 00
 (3.3160)  can1  89A0C02   [8]  00 00 00 00 00 00 00 00
 (3.3170)  can1  8030C02   [8]  00 00 2A 68 2A 68 92 17
 (3.3190)  can1  4100209   [8]  00 00 00 00 00 00 00 00
 (3.3200)  can1  4100208   [8]  00 00 00 00 00 00 00 00
 (3.3290)  can1  4100209   [8]  00 00 00 00 00 00 00 00
 (3.3300)  can1  4100208   [8]  00 00 00 00 00 00 00 00
 (3.3350)  can1  89A0C02   [8]  00 00 00 00 00 00 00 00
 (3.3360)  can1  8030C02   [8]  00 00 2A 68 2A 68 92 17
 (3.3360)  can1  8580C02   [8]  00 00 00 00 00 00 00 00
 (3.3390)  can1  4100209   [8]  00 00 00 00 00 00 00 00
 (3.3400)  can1  4100208   [8]  00 00 00 00 00 00 00 00
 (3.3400)  can1  8100302   [5]  00 22 0A 00 07
 (3.3480)  can1  18800401   [8]  09 28 90 E5 8F D3 8F 00
 (3.3480)  can1  18840401   [8]  09 2C 90 E9 8F D7 8F 00
 (3.3490)  can1  18C00401   [8]  09 01 30 9A 2F 11 30 00
 (3.3490)  can1  4100209   [8]  00 00 00 00 00 00 00 00
 (3.3500)  can1  4100208   [8]  00 00 00 00 00 00 00 00
 (3.3550)  can1  89A0C02   [8]  00 00 00 00 00 00 00 00
 (3.3560)  can1  8030C02   [8]  00 00 2A 68 2A 68 92 17
 (3.3560)  can1  8580C02   [8]  00 00 00 00 00 00 00 00
 (3.3590)  can1  4100209   [8]  00 00 00 00 00 00 00 00
 (3.3600)  can1  4100208   [8]  00 00 00 00 00 00 00 00
 (3.3650)  can1  8100302   [5]  00 23 0A 00 07
 (3.3690)  can1  4100209   [8]  00 00 00 00 00 00 00 00
 (3.3700)  can1  4100208   [8]  00 00 00 00 00 00 00 00
 (3.3710)  can1  8101201   [8]  D4 64 72 90 1C 8D 09 00
 (3.3710)  can1  8010C01   [8]  58 64 00 00 00 00 00 00
 (3.3750)  can1  89A0C02   [8]  00 00 00 00 00 00 00 00
 (3.3760)  can1  8030C02   [8]  00 00 2A 68 2A 68 92 17
 (3.3760)  can1  8580C02   [8]  00 00 00 00 00 00 00 00
 (3.3790)  can1  4100209   [8]  00 00 00 00 00 00 00 00
 (3.3800)  can1  4100208   [8]  00 00 00 00 00 00 00 00
 (3.3890)  can1  4100209   [8]  00 00 00 00 00 00 00 00
 (3.3900)  can1  4100208   [8]  00 00 00 00 00 00 00 00
 (3.3900)  can1  8100302   [5]  00 23 0A 00 07
 (3.3950)  can1  89A0C02   [8]  00 00 00 00 00 00 00 00
 (3.3950)  can1  8030C02   [8]  00 00 2A 68 2A 68 92 17
 (3.3960)  can1  8041001   [8]  37 02 B0 3C FC A2 3B 00
 (3.3960)  can1  8580C02   [8]  00 00 00 00 00 00 00 00
 (3.3980)  can1  18800401   [8]  0A B6 8F C8 8F D5 8F 00
 (3.3980)  can1  18840401   [8]  0A BA 8F CC 8F D9 8F 00
 (3.3990)  can1  18C00401   [8]  0A 45 30 9C 30 62 30 00
 (3.3990)  can1  4100209   [8]  00 00 00 00 00 00 00 00
 (3.4000)  can1  4100208   [8]  00 00 00 00 00 00 00 00
 (3.4090)  can1  4100209   [8]  00 00 00 00 00 00 00 00
 (3.4100)  can1  4100208   [8]  00 00 00 00 00 00 00 00
 (3.4150)  can1  8100302   [5]  00 23 0A 00 07
 (3.4160)  can1  8580C02   [8]  00 00 00 00 00 00 00 00
 (3.4160)  can1  89A0C02   [8]  00 00 00 00 00 00 00 00
 (3.4170)  can1  8030C02   [8]  00 00 2A 68 2A 68 92 17
 (3.4190)  can1  4100209   [8]  00 00 00 00 00 00 00 00
 (3.4200)  can1  4100208   [8]  00 00 00 00 00 00 00 00
 (3.4290)  can1  4100209   [8]  00 00 00 00 00 00 00 00
 (3.4300)  can1  4100208   [8]  00 00 00 00 00 00 00 00
 (3.4350)  can1  89A0C02   [8]  00 00 00 00 00 00 00 00
 (3.4360)  can1  8030C02   [8]  00 00 2A 68 2A 68 92 17
 (3.4360)  can1  8580C02   [8]  00 00 00 00 00 00 00 00
 (3.4390)  can1  4100209   [8]  00 00 00 00 00 00 00 00
 (3.4400)  can1  4100208   [8]  00 00 00 00 00 00 00 00
 (3.4400)  can1  8100302   [5]  00 23 0A 00 07
 (3.4450)  can1  18101203   [4]  D3 2E 9D 01
 (3.4480)  can1  18800401   [8]  0B 04 90 03 90 09 90 00
 (3.4480)  can1  18840401   [8]  0B 08 90 06 90 0D 90 00
 (3.4490)  can1  18C00401   [8]  0B D0 30 70 30 BF 30 00
 (3.4490)  can1  4100209   [8]  00 00 00 00 00 00 00 00
 (3.4500)  can1  4100208   [8]  00 00 00 00 00 00 00 00
 (3.4550)  can1  89A0C02   [8]  00 00 00 00 00 00 00 00
 (3.4560)  can1  8030C02   [8]  00 00 2A 68 2A 68 92 17
 (3.4560)  can1  8580C02   [8]  00 00 00 00 00 00 00 00
 (3.4590)  can1  4100209   [8]  00 00 00 00 00 00 00 00
 (3.4600)  can1  4100208   [8]  00 00 00 00 00 00 00 00
 (3.4650)  can1  8100302   [5]  00 25 0A 00 07
 (3.4690)  can1  4100209   [8]  00 00 00 00 00 00 00 00
 (3.4700)  can1  4100208   [8]  00 00 00 00 00 00 00 00
 (3.4710)  can1  8101201   [8]  D0 64 71 90 1D 8D 1F 00
 (3.4710)  can1  8010C01   [8]  55 64 00 00 00 00 00 00
 (3.4750)  can1  89A0C02   [8]  00 00 00 00 00 00 00 00
 (3.4760)  can1  8030C02   [8]  00 00 2A 68 2A 68 92 17
 (3.4760)  can1  8580C02   [8]  00 00 00 00 00 00 00 00
 (3.4790)  can1  4100209   [8]  00 00 00 00 00 00 00 00
 (3.4800)  can1  4100208   [8]  00 00 00 00 00 00 00 00
 (3.4890)  can1  4100209   [8]  00 00 00 00 00 00 00 00
 (3.4900)  can1  4100208   [8]  00 00 00 00 00 00 00 00
 (3.4900)  can1  8100302   [5]  00 23 0A 00 07
 (3.4950)  can1  89A0C02   [8]  00 00 00 00 00 00 00 00
 (3.4960)  can1  8030C02   [8]  00 00 2A 68 2A 68 92 17
 (3.4960)  can1  8041001   [8]  37 02 B0 3C FC A2 3B 00
 (3.4970)  can1  8580C02   [8]  00 00 00 00 00 00 00 00
 (3.4980)  can1  18800401   [8]  0C 00 90 E8 8F E5 8F 00
 (3.4980)  can1  18840401   [8]  0C 05 90 EC 8F E9 8F 00
 (3.4990)  can1  18C00401   [8]  0C 49 30 7A 30 FE 2F 00
 (3.4990)  can1  4100209   [8]  00 00 00 00 00 00 00 00
 (3.5000)  can1  4100208   [8]  00 00 00 00 00 00 00 00
 (3.5090)  can1  4100209   [8]  00 00 00 00 00 00 00 00
 (3.5100)  can1  4100208   [8]  00 00 00 00 00 00 00 00
 (3.5150)  can1  8100302   [5]  00 23 0A 00 07
 (3.5150)  can1  8580C02   [8]  00 00 00 00 00 00 00 00
 (3.5160)  can1  89A0C02   [8]  00 00 00 00 00 00 00 00
 (3.5160)  can1  8030C02   [8]  00 00 2A 68 2A 68 92 17
 (3.5190)  can1  4100209   [8]  00 00 00 00 00 00 00 00
 (3.5200)  can1  4100208   [8]  00 00 00 00 00 00 00 00
 (3.5290)  can1  4100209   [8]  00 00 00 00 00 00 00 00
 (3.5300)  can1  4100208   [8]  00 00 00 00 00 00 00 00
 (3.5350)  can1  89A0C02   [8]  00 00 00 00 00 00 00 00
 (3.5360)  can1  8030C02   [8]  00 00 2A 68 2A 68 92 17
 (3.5360)  can1  8580C02   [8]  00 00 00 00 00 00 00 00
 (3.5390)  can1  4100209   [8]  00 00 00 00 00 00 00 00
 (3.5400)  can1  4100208   [8]  00 00 00 00 00 00 00 00
 (3.5400)  can1  8100302   [5]  00 23 0A 00 07
 (3.5480)  can1  18800401   [8]  0D E8 8F 18 90 08 90 00
 (3.5480)  can1  18840401   [8]  0D F2 8F 1C 90 0C 90 00
 (3.5490)  can1  18C00401   [8]  0D 23 30 3D 2F 3F 2F 00
 (3.5490)  can1  4100209   [8]  00 00 00 00 00 00 00 00
 (3.5500)  can1  4100208   [8]  00 00 00 00 00 00 00 00
 (3.5550)  can1  89A0C02   [8]  00 00 00 00 00 00 00 00
 (3.5560)  can1  8030C02   [8]  00 00 2A 68 2A 68 92 17
 (3.5560)  can1  8580C02   [8]  00 00 00 00 00 00 00 00
 (3.5590)  can1  4100209   [8]  00 00 00 00 00 00 00 00
 (3.5600)  can1  4100208   [8]  00 00 00 00 00 00 00 00
 (3.5650)  can1  8100302   [5]  00 28 0A 00 07
 (3.5690)  can1  4100209   [8]  00 00 00 00 00 00 00 00
 (3.5700)  can1  4100208   [8]  00 00 00 00 00 00 00 00
 (3.5720)  can1  8101201   [8]  D4 64 6E 90 1D 8D 0F 00
 (3.5720)  can1  8010C01   [8]  57 64 00 00 00 00 00 00
 (3.5750)  can1  89A0C02   [8]  00 00 00 00 00 00 00 00
 (3.5760)  can1  8030C02   [8]  00 00 2A 68 2A 68 92 17
 (3.5760)  can1  8580C02   [8]  00 00 00 00 00 00 00 00
 (3.5790)  can1  4100209   [8]  00 00 00 00 00 00 00 00
 (3.5800)  can1  4100208   [8]  00 00 00 00 00 00 00 00
 (3.5890)  can1  4100209   [8]  00 00 00 00 00 00 00 00
 (3.5900)  can1  4100208   [8]  00 00 00 00 00 00 00 00
 (3.5900)  can1  8100302   [5]  00 23 0A 00 07
 (3.5950)  can1  89A0C02   [8]  00 00 00 00 00 00 00 00
 (3.5960)  can1  8030C02   [8]  00 00 2A 68 2A 68 92 17
 (3.5960)  can1  8041001   [8]  37 02 B0 3C FC A2 3B 00
 (3.5960)  can1  8580C02   [8]  00 00 00 00 00 00 00 00
 (3.5980)  can1  18800401   [8]  0E CE 8F C2 8F AA 8F 00
 (3.5980)  can1  18840401   [8]  0E D0 8F C6 8F A9 8F 00
 (3.5980)  can1  18C00401   [8]  0E 55 2F E8 2F 0D 30 00
 (3.5990)  can1  4100209   [8]  00 00 00 00 00 00 00 00
 (3.6000)  can1  4100208   [8]  00 00 00 00 00 00 00 00
 (3.6090)  can1  4100209   [8]  00 00 00 00 00 00 00 00
 (3.6100)  can1  4100208   [8]  00 00 00 00 00 00 00 00
 (3.6150)  can1  8100302   [5]  00 22 0A 00 07
 (3.6150)  can1  8580C02   [8]  00 00 00 00 00 00 00 00
 (3.6160)  can1  89A0C02   [8]  00 00 00 00 00 00 00 00
 (3.6170)  can1  8030C02   [8]  00 00 2A 68 2A 68 92 17
 (3.6190)  can1  4100209   [8]  00 00 00 00 00 00 00 00
 (3.6200)  can1  4100208   [8]  00 00 00 00 00 00 00 00
 (3.6290)  can1  4100209   [8]  00 00 00 00 00 00 00 00
 (3.6300)  can1  4100208   [8]  00 00 00 00 00 00 00 00
 (3.6420)  can1  89A0C02   [8]  00 00 00 00 00 00 00 00
 (3.6430)  can1  8030C02   [8]  00 00 2A 68 2A 68 92 17
 (3.6430)  can1  8580C02   [8]  00 00 00 00 00 00 00 00
 (3.6440)  can1  4100209   [8]  00 00 00 00 00 00 00 00
 (3.6440)  can1  4100208   [8]  00 00 00 00 00 00 00 00
 (3.6440)  can1  8100302   [5]  00 24 0A 00 07
 (3.6480)  can1  18800401   [8]  0F 65 8F C6 8F FC 8F 00
 (3.6480)  can1  18840401   [8]  0F 6A 8F CB 8F FF 8F 00
 (3.6490)  can1  18C00401   [8]  0F 69 30 52 30 AF 30 00
 (3.6490)  can1  4100209   [8]  00 00 00 00 00 00 00 00
 (3.6500)  can1  4100208   [8]  00 00 00 00 00 00 00 00
 (3.6550)  can1  89A0C02   [8]  00 00 00 00 00 00 00 00
 (3.6560)  can1  8030C02   [8]  00 00 2A 68 2A 68 92 17
 (3.6560)  can1  8580C02   [8]  00 00 00 00 00 00 00 00
 (3.6590)  can1  4100209   [8]  00 00 00 00 00 00 00 00
 (3.6600)  can1  4100208   [8]  00 00 00 00 00 00 00 00
 (3.6650)  can1  8100302   [5]  00 23 0A 00 07
 (3.6690)  can1  4100209   [8]  00 00 00 00 00 00 00 00
 (3.6700)  can1  4100208   [8]  00 00 00 00 00 00 00 00
 (3.6730)  can1  8101201   [8]  D6 64 72 90 1E 8D 20 00
 (3.6740)  can1  8010C01   [8]  5A 64 00 00 00 00 00 00
 (3.6750)  can1  89A0C02   [8]  00 00 00 00 00 00 00 00
 (3.6760)  can1  8030C02   [8]  00 00 2A 68 2A 68 92 17
 (3.6760)  can1  8580C02   [8]  00 00 00 00 00 00 00 00
 (3.6790)  can1  4100209   [8]  00 00 00 00 00 00 00 00
 (3.6800)  can1  4100208   [8]  00 00 00 00 00 00 00 00
 (3.6890)  can1  4100209   [8]  00 00 00 00 00 00 00 00
 (3.6900)  can1  4100208   [8]  00 00 00 00 00 00 00 00
 (3.6900)  can1  8100302   [5]  00 23 0A 00 07
 (3.6950)  can1  89A0C02   [8]  00 00 00 00 00 00 00 00
 (3.6960)  can1  8030C02   [8]  00 00 2A 68 2A 68 92 17
 (3.6960)  can1  8041001   [8]  37 02 B0 3C FC A2 3B 00
 (3.6970)  can1  8580C02   [8]  00 00 00 00 00 00 00 00
 (3.6980)  can1  18800401   [8]  10 EF 8F F3 8F E9 8F 00
 (3.6980)  can1  18840401   [8]  10 F4 8F F6 8F ED 8F 00
 (3.6990)  can1  18C00401   [8]  10 61 30 BA 30 14 30 00
 (3.6990)  can1  4100209   [8]  00 00 00 00 00 00 00 00
 (3.7000)  can1  4100208   [8]  00 00 00 00 00 00 00 00
 (3.7090)  can1  4100209   [8]  00 00 00 00 00 00 00 00
 (3.7100)  can1  4100208   [8]  00 00 00 00 00 00 00 00
 (3.7150)  can1  8100302   [5]  00 23 0A 00 07
 (3.7160)  can1  8580C02   [8]  00 00 00 00 00 00 00 00
 (3.7160)  can1  89A0C02   [8]  00 00 00 00 00 00 00 00
 (3.7160)  can1  8030C02   [8]  00 00 2A 68 2A 68 92 17
 (3.7190)  can1  4100209   [8]  00 00 00 00 00 00 00 00
 (3.7200)  can1  4100208   [8]  00 00 00 00 00 00 00 00
 (3.7290)  can1  4100209   [8]  00 00 00 00 00 00 00 00
 (3.7300)  can1  4100208   [8]  00 00 00 00 00 00 00 00
 (3.7350)  can1  89A0C02   [8]  00 00 00 00 00 00 00 00
 (3.7360)  can1  8030C02   [8]  00 00 2A 68 2A 68 92 17
 (3.7360)  can1  8580C02   [8]  00 00 00 00 00 00 00 00
 (3.7390)  can1  4100209   [8]  00 00 00 00 00 00 00 00
 (3.7400)  can1  4100208   [8]  00 00 00 00 00 00 00 00
 (3.7400)  can1  8100302   [5]  00 24 0A 00 07
 (3.7480)  can1  18800401   [8]  11 D3 8F CB 8F DC 8F 00
 (3.7480)  can1  18840401   [8]  11 D7 8F CE 8F DF 8F 00
 (3.7480)  can1  18C00401   [8]  11 92 30 C8 2F 4D 30 00
 (3.7490)  can1  4100209   [8]  00 00 00 00 00 00 00 00
 (3.7500)  can1  4100208   [8]  00 00 00 00 00 00 00 00
 (3.7550)  can1  89A0C02   [8]  00 00 00 00 00 00 00 00
 (3.7560)  can1  8030C02   [8]  00 00 2A 68 2A 68 92 17
 (3.7560)  can1  8580C02   [8]  00 00 00 00 00 00 00 00
 (3.7590)  can1  4100209   [8]  00 00 00 00 00 00 00 00
 (3.7600)  can1  4100208   [8]  00 00 00 00 00 00 00 00
 (3.7650)  can1  8100302   [5]  00 23 0A 00 07
 (3.7690)  can1  4100209   [8]  00 00 00 00 00 00 00 00
 (3.7700)  can1  4100208   [8]  00 00 00 00 00 00 00 00
 (3.7740)  can1  8101201   [8]  D4 64 6E 90 1D 8D 0D 00
 (3.7740)  can1  8010C01   [8]  59 64 00 00 00 00 00 00
 (3.7750)  can1  89A0C02   [8]  00 00 00 00 00 00 00 00
 (3.7750)  can1  8030C02   [8]  00 00 2A 68 2A 68 92 17
 (3.7760)  can1  8580C02   [8]  00 00 00 00 00 00 00 00
 (3.7790)  can1  4100209   [8]  00 00 00 00 00 00 00 00
 (3.7800)  can1  4100208   [8]  00 00 00 00 00 00 00 00
 (3.7890)  can1  4100209   [8]  00 00 00 00 00 00 00 00
 (3.7900)  can1  4100208   [8]  00 00 00 00 00 00 00 00
 (3.7900)  can1  8100302   [5]  00 23 0A 00 07
 (3.7950)  can1  89A0C02   [8]  00 00 00 00 00 00 00 00
 (3.7960)  can1  8030C02   [8]  00 00 2A 68 2A 68 92 17
 (3.7960)  can1  8041001   [8]  37 02 B0 3C FC A2 3B 00
 (3.7960)  can1  8580C02   [8]  00 00 00 00 00 00 00 00
 (3.7980)  can1  18800401   [8]  12 15 90 08 90 CE 8F 00
 (3.7980)  can1  18840401   [8]  12 18 90 0B 90 D0 8F 00
 (3.7980)  can1  18C00401   [8]  12 AE 2F 2E 2F FC 2E 00
 (3.7990)  can1  4100209   [8]  00 00 00 00 00 00 00 00
 (3.8000)  can1  4100208   [8]  00 00 00 00 00 00 00 00
 (3.8090)  can1  4100209   [8]  00 00 00 00 00 00 00 00
 (3.8100)  can1  4100208   [8]  00 00 00 00 00 00 00 00
 (3.8150)  can1  8100302   [5]  00 23 0A 00 07
 (3.8150)  can1  8580C02   [8]  00 00 00 00 00 00 00 00
 (3.8160)  can1  89A0C02   [8]  00 00 00 00 00 00 00 00
 (3.8160)  can1  8030C02   [8]  00 00 2A 68 2A 68 92 17
 (3.8190)  can1  4100209   [8]  00 00 00 00 00 00 00 00
 (3.8200)  can1  4100208   [8]  00 00 00 00 00 00 00 00
 (3.8290)  can1  4100209   [8]  00 00 00 00 00 00 00 00
 (3.8300)  can1  4100208   [8]  00 00 00 00 00 00 00 00
 (3.8350)  can1  89A0C02   [8]  00 00 00 00 00 00 00 00
 (3.8350)  can1  8030C02   [8]  00 00 2A 68 2A 68 92 17
 (3.8360)  can1  8580C02   [8]  00 00 00 00 00 00 00 00
 (3.8390)  can1  4100209   [8]  00 00 00 00 00 00 00 00
 (3.8400)  can1  4100208   [8]  00 00 00 00 00 00 00 00
 (3.8410)  can1  8100302   [5]  00 23 0A 00 07
 (3.8450)  can1  404FF03   [1]  00
 (3.8480)  can1  8250C03   [8]  00 00 00 00 00 00 00 00
 (3.8480)  can1  8840C03   [8]  33 00 11 00 1F 00 07 00
 (3.8490)  can1  88D0C03   [8]  11 00 09 00 00 00 00 00
 (3.8490)  can1  18800401   [8]  13 C7 8F AA 8F C3 8F 00
 (3.8500)  can1  18840401   [8]  13 CB 8F B4 8F C7 8F 00
 (3.8500)  can1  18C00401   [8]  13 6F 2F B1 2F 03 30 00
 (3.8510)  can1  4100209   [8]  00 00 00 00 00 00 00 00
 (3.8510)  can1  4100208   [8]  00 00 00 00 00 00 00 00
 (3.8550)  can1  89A0C02   [8]  00 00 00 00 00 00 00 00
 (3.8560)  can1  8030C02   [8]  00 00 2A 68 2A 68 92 17
 (3.8560)  can1  8580C02   [8]  00 00 00 00 00 00 00 00
 (3.8580)  can1  404FF07   [1]  00
 (3.8590)  can1  4100209   [8]  00 00 00 00 00 00 00 00
 (3.8600)  can1  4100208   [8]  00 00 00 00 00 00 00 00
 (3.8650)  can1  8100302   [5]  00 24 0A 00 07
 (3.8690)  can1  4100209   [8]  00 00 00 00 00 00 00 00
 (3.8700)  can1  4100208   [8]  00 00 00 00 00 00 00 00
 (3.8750)  can1  89A0C02   [8]  00 00 00 00 00 00 00 00
 (3.8760)  can1  8030C02   [8]  00 00 2A 68 2A 68 92 17
 (3.8760)  can1  8580C02   [8]  00 00 00 00 00 00 00 00
 (3.8770)  can1  8101201   [8]  D4 64 70 90 1D 8D 06 00
 (3.8770)  can1  8010C01   [8]  58 64 00 00 00 00 00 00
 (3.8790)  can1  4100209   [8]  00 00 00 00 00 00 00 00
 (3.8800)  can1  4100208   [8]  00 00 00 00 00 00 00 00
 (3.8890)  can1  4100209   [8]  00 00 00 00 00 00 00 00
 (3.8900)  can1  4100208   [8]  00 00 00 00 00 00 00 00
 (3.8910)  can1  8100302   [5]  00 23 0A 00 07
 (3.8950)  can1  89A0C02   [8]  00 00 00 00 00 00 00 00
 (3.8960)  can1  404FF01   [1]  00
 (3.8960)  can1  8030C02   [8]  00 00 2A 68 2A 68 92 17
 (3.8960)  can1  8041001   [8]  37 02 B0 3C FC A2 3B 00
 (3.8970)  can1  8580C02   [8]  00 00 00 00 00 00 00 00
 (3.8980)  can1  8120C01   [8]  90 00 00 00 00 00 00 00
 (3.8980)  can1  80F1201   [4]  A4 10 00 00
 (3.8990)  can1  18800401   [8]  14 D8 8F FC 8F EF 8F 00
 (3.8990)  can1  18840401   [8]  14 DD 8F 01 90 F7 8F 00
 (3.9000)  can1  18C00401   [8]  14 D7 2F 19 30 D9 2F 00
 (3.9000)  can1  4100209   [8]  00 00 00 00 00 00 00 00
 (3.9010)  can1  4100208   [8]  00 00 00 00 00 00 00 00
 (3.9090)  can1  4100209   [8]  00 00 00 00 00 00 00 00
 (3.9100)  can1  4100208   [8]  00 00 00 00 00 00 00 00
 (3.9150)  can1  404FF02   [1]  00
 (3.9150)  can1  8100302   [5]  00 23 0A 00 07
 (3.9160)  can1  8580C02   [8]  00 00 00 00 00 00 00 00
 (3.9160)  can1  89A0C02   [8]  00 00 00 00 00 00 00 00
 (3.9170)  can1  8030C02   [8]  00 00 2A 68 2A 68 92 17
 (3.9190)  can1  4100209   [8]  00 00 00 00 00 00 00 00
 (3.9200)  can1  4100208   [8]  00 00 00 00 00 00 00 00
 (3.9290)  can1  4100209   [8]  00 00 00 00 00 00 00 00
 (3.9300)  can1  4100208   [8]  00 00 00 00 00 00 00 00
 (3.9350)  can1  89A0C02   [8]  00 00 00 00 00 00 00 00
 (3.9350)  can1  8030C02   [8]  00 00 2A 68 2A 68 92 17
 (3.9360)  can1  8580C02   [8]  00 00 00 00 00 00 00 00
 (3.9390)  can1  4100209   [8]  00 00 00 00 00 00 00 00
 (3.9400)  can1  4100208   [8]  00 00 00 00 00 00 00 00
 (3.9410)  can1  8100302   [5]  00 23 0A 00 07
 (3.9450)  can1  18101203   [4]  EC 2E 9D 01
 (3.9480)  can1  18800401   [8]  15 06 90 F8 8F E1 8F 00
 (3.9480)  can1  18840401   [8]  15 0D 90 FE 8F E6 8F 00
 (3.9490)  can1  18C00401   [8]  15 28 30 9E 2F 01 30 00
 (3.9490)  can1  4100209   [8]  00 00 00 00 00 00 00 00
 (3.9500)  can1  4100208   [8]  00 00 00 00 00 00 00 00
 (3.9550)  can1  89A0C02   [8]  00 00 00 00 00 00 00 00
 (3.9560)  can1  8030C02   [8]  00 00 2A 68 2A 68 92 17
 (3.9560)  can1  8580C02   [8]  00 00 00 00 00 00 00 00
 (3.9590)  can1  4100209   [8]  00 00 00 00 00 00 00 00
 (3.9600)  can1  4100208   [8]  00 00 00 00 00 00 00 00
 (3.9650)  can1  8100302   [5]  00 23 0A 00 07
 (3.9690)  can1  4100209   [8]  00 00 00 00 00 00 00 00
 (3.9700)  can1  4100208   [8]  00 00 00 00 00 00 00 00
 (3.9750)  can1  89A0C02   [8]  00 00 00 00 00 00 00 00
 (3.9760)  can1  8030C02   [8]  00 00 2A 68 2A 68 92 17
 (3.9760)  can1  8580C02   [8]  00 00 00 00 00 00 00 00
 (3.9780)  can1  8101201   [8]  D3 64 71 90 1F 8D 0F 00
 (3.9780)  can1  8010C01   [8]  58 64 00 00 00 00 00 00
 (3.9790)  can1  4100209   [8]  00 00 00 00 00 00 00 00
 (3.9800)  can1  4100208   [8]  00 00 00 00 00 00 00 00
 (3.9890)  can1  4100209   [8]  00 00 00 00 00 00 00 00
 (3.9900)  can1  4100208   [8]  00 00 00 00 00 00 00 00
 (3.9900)  can1  8100302   [5]  00 24 0A 00 07
 (3.9950)  can1  89A0C02   [8]  00 00 00 00 00 00 00 00
 (3.9960)  can1  8030C02   [8]  00 00 2A 68 2A 68 92 17
 (3.9960)  can1  8041001   [8]  37 02 B0 3C FC A2 3B 00
 (3.9970)  can1  8580C02   [8]  00 00 00 00 00 00 00 00
 (3.9980)  can1  18800401   [8]  16 D8 8F E8 8F 18 90 00
 (3.9980)  can1  18840401   [8]  16 DD 8F F0 8F 1D 90 00
 (3.9990)  can1  18C00401   [8]  16 84 2F B5 2F 03 2F 00
 (3.9990)  can1  4100209   [8]  00 00 00 00 00 00 00 00
 (4.0000)  can1  4100208   [8]  00 00 00 00 00 00 00 00
 (4.0090)  can1  4100209   [8]  00 00 00 00 00 00 00 00
 (4.0100)  can1  4100208   [8]  00 00 00 00 00 00 00 00
 (4.0150)  can1  8100302   [5]  00 23 0A 00 07
 (4.0160)  can1  8580C02   [8]  00 00 00 00 00 00 00 00
 (4.0160)  can1  89A0C02   [8]  00 00 00 00 00 00 00 00
 (4.0160)  can1  8030C02   [8]  00 00 2A 68 2A 68 92 17
 (4.0190)  can1  4100209   [8]  00 00 00 00 00 00 00 00
 (4.0200)  can1  4100208   [8]  00 00 00 00 00 00 00 00
 (4.0290)  can1  4100209   [8]  00 00 00 00 00 00 00 00
 (4.0300)  can1  4100208   [8]  00 00 00 00 00 00 00 00
 (4.0350)  can1  89A0C02   [8]  00 00 00 00 00 00 00 00
 (4.0360)  can1  8030C02   [8]  00 00 2A 68 2A 68 92 17
 (4.0360)  can1  8580C02   [8]  00 00 00 00 00 00 00 00
 (4.0390)  can1  4100209   [8]  00 00 00 00 00 00 00 00
 (4.0400)  can1  4100208   [8]  00 00 00 00 00 00 00 00
 (4.0400)  can1  8100302   [5]  00 24 0A 00 07
 (4.0480)  can1  18800401   [8]  17 0D 90 00 00 00 00 00
 (4.0480)  can1  18840401   [8]  17 12 90 00 00 00 00 00
 (4.0480)  can1  18C00401   [8]  17 F8 2E 10 27 10 27 00
 (4.0490)  can1  4100209   [8]  00 00 00 00 00 00 00 00
 (4.0500)  can1  4100208   [8]  00 00 00 00 00 00 00 00
 (4.0550)  can1  89A0C02   [8]  00 00 00 00 00 00 00 00
 (4.0560)  can1  8030C02   [8]  00 00 2A 68 2A 68 92 17
 (4.0560)  can1  8580C02   [8]  00 00 00 00 00 00 00 00
 (4.0590)  can1  4100209   [8]  00 00 00 00 00 00 00 00
 (4.0600)  can1  4100208   [8]  00 00 00 00 00 00 00 00
 (4.0650)  can1  8100302   [5]  00 23 0A 00 07
 (4.0690)  can1  4100209   [8]  00 00 00 00 00 00 00 00
 (4.0700)  can1  4100208   [8]  00 00 00 00 00 00 00 00
 (4.0750)  can1  89A0C02   [8]  00 00 00 00 00 00 00 00
 (4.0750)  can1  8030C02   [8]  00 00 2A 68 2A 68 92 17
 (4.0760)  can1  8580C02   [8]  00 00 00 00 00 00 00 00
 (4.0790)  can1  8101201   [8]  D2 64 72 90 20 8D 19 00
 (4.0790)  can1  8010C01   [8]  58 64 00 00 00 00 00 00
 (4.0800)  can1  4100209   [8]  00 00 00 00 00 00 00 00
 (4.0800)  can1  4100208   [8]  00 00 00 00 00 00 00 00
 (4.0890)  can1  4100209   [8]  00 00 00 00 00 00 00 00
 (4.0900)  can1  4100208   [8]  00 00 00 00 00 00 00 00
 (4.0900)  can1  8100302   [5]  00 24 0A 00 07
 (4.0950)  can1  89A0C02   [8]  00 00 00 00 00 00 00 00
 (4.0960)  can1  8030C02   [8]  00 00 2A 68 2A 68 92 17
 (4.0960)  can1  8041001   [8]  37 02 B0 3C FC A2 3B 00
 (4.0960)  can1  8580C02   [8]  00 00 00 00 00 00 00 00
 (4.0980)  can1  18800401   [8]  00 6F 90 84 8F 5F 8F 00
 (4.0980)  can1  18840401   [8]  00 76 90 89 8F 6B 8F 00
 (4.0990)  can1  18C00401   [8]  00 A3 2F 16 2F 13 30 00
 (4.0990)  can1  4100209   [8]  00 00 00 00 00 00 00 00
 (4.1000)  can1  4100208   [8]  00 00 00 00 00 00 00 00
 (4.1090)  can1  4100209   [8]  00 00 00 00 00 00 00 00
 (4.1100)  can1  4100208   [8]  00 00 00 00 00 00 00 00
 (4.1150)  can1  8100302   [5]  00 22 0A 00 07
 (4.1150)  can1  8580C02   [8]  00 00 00 00 00 00 00 00
 (4.1160)  can1  89A0C02   [8]  00 00 00 00 00 00 00 00
 (4.1160)  can1  8030C02   [8]  00 00 2A 68 2A 68 92 17
 (4.1190)  can1  4100209   [8]  00 00 00 00 00 00 00 00
 (4.1200)  can1  4100208   [8]  00 00 00 00 00 00 00 00
 (4.1290)  can1  4100209   [8]  00 00 00 00 00 00 00 00
 (4.1300)  can1  4100208   [8]  00 00 00 00 00 00 00 00
 (4.1350)  can1  89A0C02   [8]  00 00 00 00 00 00 00 00
 (4.1350)  can1  8030C02   [8]  00 00 2A 68 2A 68 92 17
 (4.1360)  can1  8580C02   [8]  00 00 00 00 00 00 00 00
 (4.1390)  can1  4100209   [8]  00 00 00 00 00 00 00 00
 (4.1400)  can1  4100208   [8]  00 00 00 00 00 00 00 00
 (4.1410)  can1  8100302   [5]  00 24 0A 00 07
 (4.1480)  can1  18800401   [8]  01 73 8F 89 8F 82 8F 00
 (4.1480)  can1  18840401   [8]  01 79 8F 90 8F 88 8F 00
 (4.1490)  can1  18C00401   [8]  01 BA 2F 3C 30 DF 2F 00
 (4.1490)  can1  4100209   [8]  00 00 00 00 00 00 00 00
 (4.1500)  can1  4100208   [8]  00 00 00 00 00 00 00 00
 (4.1550)  can1  89A0C02   [8]  00 00 00 00 00 00 00 00
 (4.1560)  can1  8030C02   [8]  00 00 2A 68 2A 68 92 17
 (4.1560)  can1  8580C02   [8]  00 00 00 00 00 00 00 00
 (4.1590)  can1  4100209   [8]  00 00 00 00 00 00 00 00
 (4.1600)  can1  4100208   [8]  00 00 00 00 00 00 00 00
 (4.1650)  can1  8100302   [5]  00 23 0A 00 07
 (4.1690)  can1  4100209   [8]  00 00 00 00 00 00 00 00
 (4.1700)  can1  4100208   [8]  00 00 00 00 00 00 00 00
 (4.1750)  can1  89A0C02   [8]  00 00 00 00 00 00 00 00
 (4.1760)  can1  8030C02   [8]  00 00 2A 68 2A 68 92 17
 (4.1760)  can1  8580C02   [8]  00 00 00 00 00 00 00 00
 (4.1790)  can1  4100209   [8]  00 00 00 00 00 00 00 00
 (4.1800)  can1  8010C01   [8]  59 64 00 00 00 00 00 00
 (4.1800)  can1  4100208   [8]  00 00 00 00 00 00 00 00
 (4.1810)  can1  8101201   [8]  D5 64 6F 90 1F 8D 15 00
 (4.1890)  can1  4100209   [8]  00 00 00 00 00 00 00 00
 (4.1900)  can1  4100208   [8]  00 00 00 00 00 00 00 00
 (4.1900)  can1  8100302   [5]  00 23 0A 00 07
 (4.1950)  can1  89A0C02   [8]  00 00 00 00 00 00 00 00
 (4.1950)  can1  8030C02   [8]  00 00 2A 68 2A 68 92 17
 (4.1960)  can1  8041001   [8]  37 02 B0 3C FC A2 3B 00
 (4.1960)  can1  8580C02   [8]  00 00 00 00 00 00 00 00
 (4.1980)  can1  18800401   [8]  02 A9 8F 0D 90 F6 8F 00
 (4.1980)  can1  18840401   [8]  02 AB 8F 12 90 FC 8F 00
 (4.1980)  can1  18C00401   [8]  02 19 30 D8 2F FC 2F 00
 (4.1990)  can1  4100209   [8]  00 00 00 00 00 00 00 00
 (4.2000)  can1  4100208   [8]  00 00 00 00 00 00 00 00
 (4.2090)  can1  4100209   [8]  00 00 00 00 00 00 00 00
 (4.2110)  can1  4100208   [8]  00 00 00 00 00 00 00 00
 (4.2150)  can1  8100302   [5]  00 23 0A 00 07
 (4.2160)  can1  8580C02   [8]  00 00 00 00 00 00 00 00
 (4.2160)  can1  89A0C02   [8]  00 00 00 00 00 00 00 00
 (4.2160)  can1  8030C02   [8]  00 00 2A 68 2A 68 92 17
 (4.2190)  can1  4100209   [8]  00 00 00 00 00 00 00 00
 (4.2200)  can1  4100208   [8]  00 00 00 00 00 00 00 00
 (4.2290)  can1  4100209   [8]  00 00 00 00 00 00 00 00
 (4.2300)  can1  4100208   [8]  00 00 00 00 00 00 00 00
 (4.2350)  can1  89A0C02   [8]  00 00 00 00 00 00 00 00
 (4.2360)  can1  8030C02   [8]  00 00 2A 68 2A 68 92 17
 (4.2360)  can1  8580C02   [8]  00 00 00 00 00 00 00 00
 (4.2390)  can1  4100209   [8]  00 00 00 00 00 00 00 00
 (4.2400)  can1  4100208   [8]  00 00 00 00 00 00 00 00
 (4.2400)  can1  8100302   [5]  00 23 0A 00 07
 (4.2480)  can1  18800401   [8]  03 E8 8F D9 8F F1 8F 00
 (4.2480)  can1  18840401   [8]  03 EC 8F DF 8F F6 8F 00
 (4.2480)  can1  18C00401   [8]  03 C7 2F C5 2F 84 2F 00
 (4.2490)  can1  4100209   [8]  00 00 00 00 00 00 00 00
 (4.2500)  can1  4100208   [8]  00 00 00 00 00 00 00 00
 (4.2550)  can1  89A0C02   [8]  00 00 00 00 00 00 00 00
 (4.2560)  can1  8030C02   [8]  00 00 2A 68 2A 68 92 17
 (4.2560)  can1  8580C02   [8]  00 00 00 00 00 00 00 00
 (4.2590)  can1  4100209   [8]  00 00 00 00 00 00 00 00
 (4.2600)  can1  4100208   [8]  00 00 00 00 00 00 00 00
 (4.2650)  can1  8100302   [5]  00 24 0A 00 07
 (4.2690)  can1  4100209   [8]  00 00 00 00 00 00 00 00
 (4.2700)  can1  4100208   [8]  00 00 00 00 00 00 00 00
 (4.2750)  can1  89A0C02   [8]  00 00 00 00 00 00 00 00
 (4.2760)  can1  8030C02   [8]  00 00 2A 68 2A 68 92 17
 (4.2760)  can1  8580C02   [8]  00 00 00 00 00 00 00 00
 (4.2790)  can1  4100209   [8]  00 00 00 00 00 00 00 00
 (4.2800)  can1  4100208   [8]  00 00 00 00 00 00 00 00
 (4.2810)  can1  8101201   [8]  D0 64 71 90 20 8D 1A 00
 (4.2810)  can1  8010C01   [8]  57 64 00 00 00 00 00 00
 (4.2890)  can1  4100209   [8]  00 00 00 00 00 00 00 00
 (4.2900)  can1  4100208   [8]  00 00 00 00 00 00 00 00
 (4.2910)  can1  8100302   [5]  00 23 0A 00 07
 (4.2950)  can1  89A0C02   [8]  00 00 00 00 00 00 00 00
 (4.2960)  can1  8030C02   [8]  00 00 2A 68 2A 68 92 17
 (4.2960)  can1  8041001   [8]  37 02 B0 3C FC A2 3B 00
 (4.2960)  can1  8580C02   [8]  00 00 00 00 00 00 00 00
 (4.2980)  can1  18800401   [8]  04 0F 90 00 90 16 8D 00
 (4.2980)  can1  18840401   [8]  04 14 90 06 90 1F 8D 00
 (4.2990)  can1  18C00401   [8]  04 F1 2E D4 2E F7 2F 00
 (4.2990)  can1  4100209   [8]  00 00 00 00 00 00 00 00
 (4.3000)  can1  4100208   [8]  00 00 00 00 00 00 00 00
 (4.3090)  can1  4100209   [8]  00 00 00 00 00 00 00 00
 (4.3100)  can1  4100208   [8]  00 00 00 00 00 00 00 00
 (4.3150)  can1  8100302   [5]  00 24 0A 00 07
 (4.3160)  can1  8580C02   [8]  00 00 00 00 00 00 00 00
 (4.3160)  can1  89A0C02   [8]  00 00 00 00 00 00 00 00
 (4.3170)  can1  8030C02   [8]  00 00 2A 68 2A 68 92 17
 (4.3190)  can1  4100209   [8]  00 00 00 00 00 00 00 00
 (4.3200)  can1  4100208   [8]  00 00 00 00 00 00 00 00
 (4.3290)  can1  4100209   [8]  00 00 00 00 00 00 00 00
 (4.3300)  can1  4100208   [8]  00 00 00 00 00 00 00 00
 (4.3350)  can1  89A0C02   [8]  00 00 00 00 00 00 00 00
 (4.3350)  can1  8030C02   [8]  00 00 2A 68 2A 68 92 17
 (4.3360)  can1  8580C02   [8]  00 00 00 00 00 00 00 00
 (4.3390)  can1  4100209   [8]  00 00 00 00 00 00 00 00
 (4.3400)  can1  4100208   [8]  00 00 00 00 00 00 00 00
 (4.3400)  can1  8100302   [5]  00 22 0A 00 07
 (4.3480)  can1  18800401   [8]  05 DD 8F E3 8F D6 8F 00
 (4.3490)  can1  18840401   [8]  05 E2 8F D7 8F DA 8F 00
 (4.3490)  can1  18C00401   [8]  05 F4 2F 4B 30 6D 30 00
 (4.3490)  can1  4100209   [8]  00 00 00 00 00 00 00 00
 (4.3500)  can1  4100208   [8]  00 00 00 00 00 00 00 00
 (4.3550)  can1  89A0C02   [8]  00 00 00 00 00 00 00 00
 (4.3560)  can1  8030C02   [8]  00 00 2A 68 2A 68 92 17
 (4.3560)  can1  8580C02   [8]  00 00 00 00 00 00 00 00
 (4.3590)  can1  4100209   [8]  00 00 00 00 00 00 00 00
 (4.3600)  can1  4100208   [8]  00 00 00 00 00 00 00 00
 (4.3650)  can1  8100302   [5]  00 23 0A 00 07
 (4.3690)  can1  4100209   [8]  00 00 00 00 00 00 00 00
 (4.3700)  can1  4100208   [8]  00 00 00 00 00 00 00 00
 (4.3750)  can1  89A0C02   [8]  00 00 00 00 00 00 00 00
 (4.3760)  can1  8030C02   [8]  00 00 2A 68 2A 68 92 17
 (4.3760)  can1  8580C02   [8]  00 00 00 00 00 00 00 00
 (4.3790)  can1  4100209   [8]  00 00 00 00 00 00 00 00
 (4.3800)  can1  4100208   [8]  00 00 00 00 00 00 00 00
 (4.3820)  can1  8101201   [8]  D2 64 6E 90 1F 8D 0F 00
 (4.3820)  can1  8010C01   [8]  56 64 00 00 00 00 00 00
 (4.3890)  can1  4100209   [8]  00 00 00 00 00 00 00 00
 (4.3900)  can1  4100208   [8]  00 00 00 00 00 00 00 00
 (4.3900)  can1  8100302   [5]  00 24 0A 00 07
 (4.3950)  can1  89A0C02   [8]  00 00 00 00 00 00 00 00
 (4.3960)  can1  8030C02   [8]  00 00 2A 68 2A 68 92 17
 (4.3960)  can1  8041001   [8]  37 02 B0 3C FC A2 3B 00
 (4.3960)  can1  8580C02   [8]  00 00 00 00 00 00 00 00
 (4.3980)  can1  18800401   [8]  06 D2 8F 12 90 1A 90 00
 (4.3990)  can1  18840401   [8]  06 D9 8F 16 90 1F 90 00
 (4.3990)  can1  18C00401   [8]  06 45 30 A4 30 57 30 00
 (4.3990)  can1  4100209   [8]  00 00 00 00 00 00 00 00
 (4.4000)  can1  4100208   [8]  00 00 00 00 00 00 00 00
 (4.4090)  can1  4100209   [8]  00 00 00 00 00 00 00 00
 (4.4100)  can1  4100208   [8]  00 00 00 00 00 00 00 00
 (4.4150)  can1  8100302   [5]  00 24 0A 00 07
 (4.4150)  can1  8580C02   [8]  00 00 00 00 00 00 00 00
 (4.4160)  can1  89A0C02   [8]  00 00 00 00 00 00 00 00
 (4.4170)  can1  8030C02   [8]  00 00 2A 68 2A 68 92 17
 (4.4190)  can1  4100209   [8]  00 00 00 00 00 00 00 00
 (4.4200)  can1  4100208   [8]  00 00 00 00 00 00 00 00
 (4.4290)  can1  4100209   [8]  00 00 00 00 00 00 00 00
 (4.4300)  can1  4100208   [8]  00 00 00 00 00 00 00 00
 (4.4350)  can1  89A0C02   [8]  00 00 00 00 00 00 00 00
 (4.4360)  can1  8030C02   [8]  00 00 2A 68 2A 68 92 17
 (4.4360)  can1  8580C02   [8]  00 00 00 00 00 00 00 00
 (4.4390)  can1  4100209   [8]  00 00 00 00 00 00 00 00
 (4.4400)  can1  4100208   [8]  00 00 00 00 00 00 00 00
 (4.4400)  can1  8100302   [5]  00 23 0A 00 07
 (4.4450)  can1  18101203   [4]  EC 2E 57 02
 (4.4480)  can1  18800401   [8]  07 14 90 05 90 E7 8F 00
 (4.4490)  can1  18840401   [8]  07 18 90 09 90 EB 8F 00
 (4.4490)  can1  18C00401   [8]  07 AD 30 2B 30 A0 30 00
 (4.4490)  can1  4100209   [8]  00 00 00 00 00 00 00 00
 (4.4500)  can1  4100208   [8]  00 00 00 00 00 00 00 00
 (4.4550)  can1  89A0C02   [8]  00 00 00 00 00 00 00 00
 (4.4550)  can1  8030C02   [8]  00 00 2A 68 2A 68 92 17
 (4.4560)  can1  8580C02   [8]  00 00 00 00 00 00 00 00
 (4.4600)  can1  4100209   [8]  00 00 00 00 00 00 00 00
 (4.4600)  can1  4100208   [8]  00 00 00 00 00 00 00 00
 (4.4650)  can1  8100302   [5]  00 24 0A 00 07
 (4.4690)  can1  4100209   [8]  00 00 00 00 00 00 00 00
 (4.4700)  can1  4100208   [8]  00 00 00 00 00 00 00 00
 (4.4750)  can1  89A0C02   [8]  00 00 00 00 00 00 00 00
 (4.4760)  can1  8030C02   [8]  00 00 2A 68 2A 68 92 17
 (4.4760)  can1  8580C02   [8]  00 00 00 00 00 00 00 00
 (4.4790)  can1  4100209   [8]  00 00 00 00 00 00 00 00
 (4.4800)  can1  4100208   [8]  00 00 00 00 00 00 00 00
 (4.4820)  can1  8101201   [8]  D2 64 6F 90 1D 8D 00 00
 (4.4820)  can1  8010C01   [8]  55 64 00 00 00 00 00 00
 (4.4890)  can1  4100209   [8]  00 00 00 00 00 00 00 00
 (4.4900)  can1  4100208   [8]  00 00 00 00 00 00 00 00
 (4.4910)  can1  8100302   [5]  00 23 0A 00 07
 (4.4950)  can1  89A0C02   [8]  00 00 00 00 00 00 00 00
 (4.4960)  can1  8030C02   [8]  00 00 2A 68 2A 68 92 17
 (4.4960)  can1  8041001   [8]  37 02 B0 3C FC A2 3B 00
 (4.4970)  can1  8580C02   [8]  00 00 00 00 00 00 00 00
 (4.4980)  can1  18800401   [8]  08 DD 8F 48 8D 34 90 00
 (4.4980)  can1  18840401   [8]  08 E3 8F 4D 8D 3A 90 00
 (4.4990)  can1  18C00401   [8]  08 FE 2F 83 30 98 2F 00
 (4.4990)  can1  4100209   [8]  00 00 00 00 00 00 00 00
 (4.5000)  can1  4100208   [8]  00 00 00 00 00 00 00 00
 (4.5090)  can1  4100209   [8]  00 00 00 00 00 00 00 00
 (4.5100)  can1  4100208   [8]  00 00 00 00 00 00 00 00
 (4.5150)  can1  8100302   [5]  00 23 0A 00 07
 (4.5160)  can1  8580C02   [8]  00 00 00 00 00 00 00 00
 (4.5160)  can1  89A0C02   [8]  00 00 00 00 00 00 00 00
 (4.5170)  can1  8030C02   [8]  00 00 2A 68 2A 68 92 17
 (4.5190)  can1  4100209   [8]  00 00 00 00 00 00 00 00
 (4.5200)  can1  4100208   [8]  00 00 00 00 00 00 00 00
 (4.5290)  can1  4100209   [8]  00 00 00 00 00 00 00 00
 (4.5300)  can1  4100208   [8]  00 00 00 00 00 00 00 00
 (4.5350)  can1  89A0C02   [8]  00 00 00 00 00 00 00 00
 (4.5360)  can1  8030C02   [8]  00 00 2A 68 2A 68 92 17
 (4.5360)  can1  8580C02   [8]  00 00 00 00 00 00 00 00
 (4.5390)  can1  4100209   [8]  00 00 00 00 00 00 00 00
 (4.5400)  can1  4100208   [8]  00 00 00 00 00 00 00 00
 (4.5400)  can1  8100302   [5]  00 23 0A 00 07
 (4.5480)  can1  18800401   [8]  09 29 90 E4 8F D2 8F 00
 (4.5480)  can1  18840401   [8]  09 2E 90 EA 8F D8 8F 00
 (4.5490)  can1  18C00401   [8]  09 00 30 9A 2F 11 30 00
 (4.5490)  can1  4100209   [8]  00 00 00 00 00 00 00 00
 (4.5500)  can1  4100208   [8]  00 00 00 00 00 00 00 00
 (4.5550)  can1  89A0C02   [8]  00 00 00 00 00 00 00 00
 (4.5560)  can1  8030C02   [8]  00 00 2A 68 2A 68 92 17
 (4.5560)  can1  8580C02   [8]  00 00 00 00 00 00 00 00
 (4.5590)  can1  4100209   [8]  00 00 00 00 00 00 00 00
 (4.5600)  can1  4100208   [8]  00 00 00 00 00 00 00 00
 (4.5650)  can1  8100302   [5]  00 24 0A 00 07
 (4.5690)  can1  4100209   [8]  00 00 00 00 00 00 00 00
 (4.5700)  can1  4100208   [8]  00 00 00 00 00 00 00 00
 (4.5750)  can1  89A0C02   [8]  00 00 00 00 00 00 00 00
 (4.5750)  can1  8030C02   [8]  00 00 2A 68 2A 68 92 17
 (4.5760)  can1  8580C02   [8]  00 00 00 00 00 00 00 00
 (4.5800)  can1  4100209   [8]  00 00 00 00 00 00 00 00
 (4.5800)  can1  4100208   [8]  00 00 00 00 00 00 00 00
 (4.5830)  can1  8101201   [8]  D5 64 6F 90 1E 8D 11 00
 (4.5830)  can1  8010C01   [8]  56 64 00 00 00 00 00 00
 (4.5890)  can1  4100209   [8]  00 00 00 00 00 00 00 00
 (4.5900)  can1  4100208   [8]  00 00 00 00 00 00 00 00
 (4.5900)  can1  8100302   [5]  00 24 0A 00 07
 (4.5950)  can1  89A0C02   [8]  00 00 00 00 00 00 00 00
 (4.5960)  can1  8030C02   [8]  00 00 2A 68 2A 68 92 17
 (4.5960)  can1  8041001   [8]  37 02 B0 3C FC A2 3B 00
 (4.5960)  can1  8580C02   [8]  00 00 00 00 00 00 00 00
 (4.5980)  can1  18800401   [8]  0A B3 8F C8 8F D4 8F 00
 (4.5980)  can1  18840401   [8]  0A BC 8F CD 8F DA 8F 00
 (4.5990)  can1  18C00401   [8]  0A 45 30 9C 30 61 30 00
 (4.5990)  can1  4100209   [8]  00 00 00 00 00 00 00 00
 (4.6000)  can1  4100208   [8]  00 00 00 00 00 00 00 00
 (4.6090)  can1  4100209   [8]  00 00 00 00 00 00 00 00
 (4.6100)  can1  4100208   [8]  00 00 00 00 00 00 00 00
 (4.6150)  can1  8100302   [5]  00 25 0A 00 07
 (4.6160)  can1  8580C02   [8]  00 00 00 00 00 00 00 00
 (4.6160)  can1  89A0C02   [8]  00 00 00 00 00 00 00 00
 (4.6170)  can1  8030C02   [8]  00 00 2A 68 2A 68 92 17
 (4.6190)  can1  4100209   [8]  00 00 00 00 00 00 00 00
 (4.6200)  can1  4100208   [8]  00 00 00 00 00 00 00 00
 (4.6290)  can1  4100209   [8]  00 00 00 00 00 00 00 00
 (4.6300)  can1  4100208   [8]  00 00 00 00 00 00 00 00
 (4.6350)  can1  89A0C02   [8]  00 00 00 00 00 00 00 00
 (4.6360)  can1  8030C02   [8]  00 00 2A 68 2A 68 92 17
 (4.6360)  can1  8580C02   [8]  00 00 00 00 00 00 00 00
 (4.6400)  can1  4100209   [8]  00 00 00 00 00 00 00 00
 (4.6400)  can1  4100208   [8]  00 00 00 00 00 00 00 00
 (4.6410)  can1  8100302   [5]  00 24 0A 00 07
 (4.6480)  can1  18800401   [8]  0B 05 90 03 90 09 90 00
 (4.6480)  can1  18840401   [8]  0B 0A 90 08 90 0E 90 00
 (4.6490)  can1  18C00401   [8]  0B D0 30 70 30 BE 30 00
 (4.6490)  can1  4100209   [8]  00 00 00 00 00 00 00 00
 (4.6500)  can1  4100208   [8]  00 00 00 00 00 00 00 00
 (4.6550)  can1  89A0C02   [8]  00 00 00 00 00 00 00 00
 (4.6560)  can1  8030C02   [8]  00 00 2A 68 2A 68 92 17
 (4.6560)  can1  8580C02   [8]  00 00 00 00 00 00 00 00
 (4.6590)  can1  4100209   [8]  00 00 00 00 00 00 00 00
 (4.6600)  can1  4100208   [8]  00 00 00 00 00 00 00 00
 (4.6650)  can1  8100302   [5]  00 23 0A 00 07
 (4.6690)  can1  4100209   [8]  00 00 00 00 00 00 00 00
 (4.6700)  can1  4100208   [8]  00 00 00 00 00 00 00 00
 (4.6750)  can1  89A0C02   [8]  00 00 00 00 00 00 00 00
 (4.6760)  can1  8030C02   [8]  00 00 2A 68 2A 68 92 17
 (4.6760)  can1  8580C02   [8]  00 00 00 00 00 00 00 00
 (4.6800)  can1  4100209   [8]  00 00 00 00 00 00 00 00
 (4.6800)  can1  4100208   [8]  00 00 00 00 00 00 00 00
 (4.6860)  can1  8101201   [8]  D2 64 71 90 1E 8D 19 00
 (4.6860)  can1  8010C01   [8]  57 64 00 00 00 00 00 00
 (4.6890)  can1  4100209   [8]  00 00 00 00 00 00 00 00
 (4.6900)  can1  4100208   [8]  00 00 00 00 00 00 00 00
 (4.6900)  can1  8100302   [5]  00 24 0A 00 07
 (4.6950)  can1  89A0C02   [8]  00 00 00 00 00 00 00 00
 (4.6960)  can1  8030C02   [8]  00 00 2A 68 2A 68 92 17
 (4.6960)  can1  8041001   [8]  37 02 B0 3C FC A2 3B 00
 (4.6970)  can1  8580C02   [8]  00 00 00 00 00 00 00 00
 (4.6980)  can1  18800401   [8]  0C 01 90 E7 8F E5 8F 00
 (4.6980)  can1  18840401   [8]  0C 07 90 EE 8F EB 8F 00
 (4.6990)  can1  18C00401   [8]  0C 48 30 7B 30 FD 2F 00
 (4.6990)  can1  4100209   [8]  00 00 00 00 00 00 00 00
 (4.7000)  can1  4100208   [8]  00 00 00 00 00 00 00 00
 (4.7100)  can1  4100209   [8]  00 00 00 00 00 00 00 00
 (4.7100)  can1  4100208   [8]  00 00 00 00 00 00 00 00
 (4.7150)  can1  8100302   [5]  00 23 0A 00 07
 (4.7150)  can1  8580C02   [8]  00 00 00 00 00 00 00 00
 (4.7160)  can1  89A0C02   [8]  00 00 00 00 00 00 00 00
 (4.7160)  can1  8030C02   [8]  00 00 2A 68 2A 68 92 17
 (4.7200)  can1  4100209   [8]  00 00 00 00 00 00 00 00
 (4.7200)  can1  4100208   [8]  00 00 00 00 00 00 00 00
 (4.7290)  can1  4100209   [8]  00 00 00 00 00 00 00 00
 (4.7300)  can1  4100208   [8]  00 00 00 00 00 00 00 00
 (4.7350)  can1  89A0C02   [8]  00 00 00 00 00 00 00 00
 (4.7360)  can1  8030C02   [8]  00 00 2A 68 2A 68 92 17
 (4.7360)  can1  8580C02   [8]  00 00 00 00 00 00 00 00
 (4.7390)  can1  4100209   [8]  00 00 00 00 00 00 00 00
 (4.7400)  can1  4100208   [8]  00 00 00 00 00 00 00 00
 (4.7400)  can1  8100302   [5]  00 24 0A 00 07
 (4.7480)  can1  18800401   [8]  0D F2 8F 18 90 09 90 00
 (4.7480)  can1  18840401   [8]  0D F7 8F 1F 90 0F 90 00
 (4.7480)  can1  18C00401   [8]  0D 23 30 3C 2F 3F 2F 00
 (4.7500)  can1  4100209   [8]  00 00 00 00 00 00 00 00
 (4.7500)  can1  4100208   [8]  00 00 00 00 00 00 00 00
 (4.7550)  can1  89A0C02   [8]  00 00 00 00 00 00 00 00
 (4.7560)  can1  8030C02   [8]  00 00 2A 68 2A 68 92 17
 (4.7560)  can1  8580C02   [8]  00 00 00 00 00 00 00 00
 (4.7600)  can1  4100209   [8]  00 00 00 00 00 00 00 00
 (4.7600)  can1  4100208   [8]  00 00 00 00 00 00 00 00
 (4.7650)  can1  8100302   [5]  00 24 0A 00 07
 (4.7700)  can1  4100209   [8]  00 00 00 00 00 00 00 00
 (4.7700)  can1  4100208   [8]  00 00 00 00 00 00 00 00
 (4.7750)  can1  89A0C02   [8]  00 00 00 00 00 00 00 00
 (4.7750)  can1  8030C02   [8]  00 00 2A 68 2A 68 92 17
 (4.7760)  can1  8580C02   [8]  00 00 00 00 00 00 00 00
 (4.7790)  can1  4100209   [8]  00 00 00 00 00 00 00 00
 (4.7800)  can1  4100208   [8]  00 00 00 00 00 00 00 00
 (4.7870)  can1  8101201   [8]  D6 64 71 90 1F 8D 18 00
 (4.7870)  can1  8010C01   [8]  59 64 00 00 00 00 00 00
 (4.7890)  can1  4100209   [8]  00 00 00 00 00 00 00 00
 (4.7900)  can1  4100208   [8]  00 00 00 00 00 00 00 00
 (4.7900)  can1  8100302   [5]  00 22 0A 00 07
 (4.7950)  can1  89A0C02   [8]  00 00 00 00 00 00 00 00
 (4.7960)  can1  8030C02   [8]  00 00 2A 68 2A 68 92 17
 (4.7960)  can1  8041001   [8]  37 02 B0 3C FC A2 3B 00
 (4.7960)  can1  8580C02   [8]  00 00 00 00 00 00 00 00
 (4.7980)  can1  18800401   [8]  0E CA 8F C1 8F A5 8F 00
 (4.7980)  can1  18840401   [8]  0E D1 8F C7 8F AB 8F 00
 (4.7990)  can1  18C00401   [8]  0E 56 2F E8 2F 0D 30 00
 (4.7990)  can1  4100209   [8]  00 00 00 00 00 00 00 00
 (4.8000)  can1  4100208   [8]  00 00 00 00 00 00 00 00
 (4.8100)  can1  4100209   [8]  00 00 00 00 00 00 00 00
 (4.8100)  can1  4100208   [8]  00 00 00 00 00 00 00 00
 (4.8150)  can1  8100302   [5]  00 23 0A 00 07
 (4.8160)  can1  8580C02   [8]  00 00 00 00 00 00 00 00
 (4.8160)  can1  89A0C02   [8]  00 00 00 00 00 00 00 00
 (4.8160)  can1  8030C02   [8]  00 00 2A 68 2A 68 92 17
 (4.8200)  can1  4100209   [8]  00 00 00 00 00 00 00 00
 (4.8200)  can1  4100208   [8]  00 00 00 00 00 00 00 00
 (4.8290)  can1  4100209   [8]  00 00 00 00 00 00 00 00
 (4.8300)  can1  4100208   [8]  00 00 00 00 00 00 00 00
 (4.8350)  can1  89A0C02   [8]  00 00 00 00 00 00 00 00
 (4.8350)  can1  8030C02   [8]  00 00 2A 68 2A 68 92 17
 (4.8360)  can1  8580C02   [8]  00 00 00 00 00 00 00 00
 (4.8400)  can1  4100209   [8]  00 00 00 00 00 00 00 00
 (4.8400)  can1  4100208   [8]  00 00 00 00 00 00 00 00
 (4.8410)  can1  8100302   [5]  00 23 0A 00 07
 (4.8450)  can1  404FF03   [1]  00
 (4.8540)  can1  8250C03   [8]  00 00 00 00 00 00 00 00
 (4.8550)  can1  8840C03   [8]  32 00 12 00 1C 00 07 00
 (4.8550)  can1  88D0C03   [8]  2E 00 09 00 00 00 00 00
 (4.8560)  can1  18800401   [8]  0F 65 8F C8 8F FC 8F 00
 (4.8570)  can1  18840401   [8]  0F 6A 8F CE 8F 02 90 00
 (4.8570)  can1  18C00401   [8]  0F 68 30 52 30 AF 30 00
 (4.8570)  can1  4100209   [8]  00 00 00 00 00 00 00 00
 (4.8580)  can1  4100208   [8]  00 00 00 00 00 00 00 00
 (4.8580)  can1  89A0C02   [8]  00 00 00 00 00 00 00 00
 (4.8590)  can1  8030C02   [8]  00 00 2A 68 2A 68 92 17
 (4.8590)  can1  8580C02   [8]  00 00 00 00 00 00 00 00
 (4.8600)  can1  404FF07   [1]  00
 (4.8600)  can1  4100209   [8]  00 00 00 00 00 00 00 00
 (4.8600)  can1  4100208   [8]  00 00 00 00 00 00 00 00
 (4.8650)  can1  8100302   [5]  00 22 0A 00 07
 (4.8700)  can1  4100209   [8]  00 00 00 00 00 00 00 00
 (4.8700)  can1  4100208   [8]  00 00 00 00 00 00 00 00
 (4.8750)  can1  89A0C02   [8]  00 00 00 00 00 00 00 00
 (4.8760)  can1  8030C02   [8]  00 00 2A 68 2A 68 92 17
 (4.8760)  can1  8580C02   [8]  00 00 00 00 00 00 00 00
 (4.8790)  can1  4100209   [8]  00 00 00 00 00 00 00 00
 (4.8800)  can1  4100208   [8]  00 00 00 00 00 00 00 00
 (4.8880)  can1  8101201   [8]  D1 64 6F 90 1E 8D 19 00
 (4.8880)  can1  8010C01   [8]  57 64 00 00 00 00 00 00
 (4.8900)  can1  4100209   [8]  00 00 00 00 00 00 00 00
 (4.8900)  can1  4100208   [8]  00 00 00 00 00 00 00 00
 (4.8900)  can1  8100302   [5]  00 23 0A 00 07
 (4.8950)  can1  89A0C02   [8]  00 00 00 00 00 00 00 00
 (4.8960)  can1  404FF01   [1]  00
 (4.8960)  can1  8030C02   [8]  00 00 2A 68 2A 68 92 17
