 (1.2300)  can1  595FF71   [8]  05 80 60 09 60 09 F7 5D
 (1.2350)  can1  596FF71   [8]  01 80 FF FF FF FF F0 9F
 (1.2360)  can1  4100209   [8]  AB 35 13 00 00 00 00 00
 (1.2360)  can1  8100302   [5]  01 00 0A 00 18
 (1.2370)  can1  4100208   [8]  2B 10 13 00 00 00 00 00
 (1.2370)  can1  8101201   [8]  D2 62 CD 8D F7 89 51 00
 (1.2370)  can1  4100209   [8]  AB 35 13 00 00 00 00 00
 (1.2380)  can1  8010C01   [8]  56 62 00 00 00 00 00 00
 (1.2380)  can1  8100302   [5]  01 00 0A 00 18
 (1.2380)  can1  4100208   [8]  2B 10 13 00 00 00 00 00
 (1.2400)  can1  4100209   [8]  AB 35 13 00 00 00 00 00
 (1.2410)  can1  89A0C02   [8]  00 00 00 00 CC 0B 00 00
 (1.2410)  can1  8030C02   [8]  00 00 2A 68 2A 68 92 17
 (1.2420)  can1  4100208   [8]  2B 10 13 00 00 00 00 00
 (1.2430)  can1  8580C02   [8]  00 00 00 00 00 00 00 00
 (1.2430)  can1  585FF72   [8]  03 80 60 09 60 09 F0 8A
 (1.2440)  can1  586FF72   [8]  01 80 FF FF FF FF F4 9F
 (1.2490)  can1  595FF71   [8]  05 80 60 09 60 09 FA 5D
 (1.2490)  can1  596FF71   [8]  FD 7F FF FF FF FF F3 B1
 (1.2500)  can1  599FF71   [8]  1A E0 02 82 02 00 FB D1
 (1.2500)  can1  4100209   [8]  AB 35 13 00 00 00 00 00
 (1.2510)  can1  4100208   [8]  2B 10 13 00 00 00 00 00
 (1.2560)  can1  8100302   [5]  01 00 0A 00 18
 (1.2600)  can1  4100209   [8]  AB 35 13 00 00 00 00 00
 (1.2610)  can1  5807202   [8]  03 80 00 00 E0 01 0A BF
 (1.2610)  can1  5817202   [8]  01 00 10 27 10 27 0D E3
 (1.2620)  can1  4100208   [8]  2B 10 13 00 00 00 00 00
 (1.2630)  can1  5907102   [8]  05 80 00 00 E0 01 0A 68
 (1.2630)  can1  5827202   [8]  FA 00 00 00 00 00 0A D4
 (1.2640)  can1  585FF72   [8]  03 80 60 09 60 09 F1 8A
 (1.2640)  can1  586FF72   [8]  FD 7F FF FF FF FF F5 B1
 (1.2640)  can1  5837202   [8]  2C 41 06 00 00 00 0A E0
 (1.2650)  can1  587FF72   [8]  FE 07 C8 0F FF FF FB 34
 (1.2650)  can1  5917102   [8]  01 00 10 27 10 27 0D E3
 (1.2660)  can1  5927102   [8]  FA 00 00 00 00 00 0A D4
 (1.2660)  can1  5847270   [8]  00 00 00 00 00 00 0A 9F
 (1.2670)  can1  5937102   [8]  2C 41 06 00 00 00 0A E0
 (1.2670)  can1  8041001   [8]  01 02 70 32 04 AF 3B 00
 (1.2680)  can1  5947102   [8]  00 00 00 00 00 00 0A 9F
 (1.2680)  can1  8580C02   [8]  FE FF 00 00 00 00 00 00
 (1.2680)  can1  89A0C02   [8]  00 00 00 00 CC 0B 00 00
 (1.2680)  can1  18800401   [8]  12 72 8D 60 8D 2B 8D 00
 (1.2690)  can1  8030C02   [8]  00 00 2A 68 2A 68 92 17
 (1.2690)  can1  18840401   [8]  12 8B 8D 79 8D 43 8D 00
 (1.2690)  can1  18C00401   [8]  12 61 30 7E 2F 24 2F 00
 (1.2690)  can1  595FF71   [8]  05 80 60 09 60 09 FB 5D
 (1.2700)  can1  596FF71   [8]  01 80 FF FF FF FF F4 9F
 (1.2700)  can1  597FF71   [8]  09 08 E2 0F FF FF FB F1
 (1.2710)  can1  598FF71   [8]  40 01 78 FF FF FF FB CA
 (1.2710)  can1  4100209   [8]  AB 35 13 00 00 00 00 00
 (1.2720)  can1  4100208   [8]  2B 10 13 00 00 00 00 00
 (1.2800)  can1  4100209   [8]  AB 35 13 00 00 00 00 00
 (1.2810)  can1  8100302   [5]  01 00 0A 00 18
 (1.2810)  can1  8580C02   [8]  00 00 FE FF 00 00 00 00
 (1.2820)  can1  89A0C02   [8]  CC 0B 00 00 00 00 00 00
 (1.2830)  can1  4100208   [8]  2B 10 13 00 00 00 00 00
 (1.2830)  can1  8030C02   [8]  00 00 2A 68 2A 68 92 17
 (1.2840)  can1  585FF72   [8]  03 80 60 09 60 09 F2 8A
 (1.2840)  can1  586FF72   [8]  00 80 FF FF FF FF F6 CB
 (1.2890)  can1  595FF71   [8]  05 80 60 09 60 09 FC 5D
 (1.2900)  can1  596FF71   [8]  FE 7F FF FF FF FF F5 4D
 (1.2900)  can1  4100209   [8]  AB 35 13 00 00 00 00 00
 (1.2910)  can1  4100208   [8]  2B 10 13 00 00 00 00 00
 (1.3000)  can1  4100209   [8]  AB 35 13 00 00 00 00 00
 (1.3010)  can1  89A0C02   [8]  00 00 00 00 00 00 00 00
 (1.3010)  can1  8030C02   [8]  00 00 2A 68 2A 68 92 17
 (1.3020)  can1  4100208   [8]  2B 10 13 00 00 00 00 00
 (1.3020)  can1  8580C02   [8]  FF FF 00 00 00 00 00 00
 (1.3030)  can1  585FF72   [8]  03 80 60 09 60 09 F3 8A
 (1.3030)  can1  586FF72   [8]  FF 7F FF FF FF FF F7 19
 (1.3060)  can1  8100302   [5]  01 00 0A 00 18
 (1.3090)  can1  595FF71   [8]  05 80 60 09 60 09 FD 5D
 (1.3100)  can1  596FF71   [8]  00 80 FF FF FF FF F6 CB
 (1.3100)  can1  4100209   [8]  AB 35 13 00 00 00 00 00
 (1.3110)  can1  4100208   [8]  2B 10 13 00 00 00 00 00
 (1.3150)  can1  404FF03   [1]  00
 (1.3150)  can1  18800401   [8]  13 28 8D F4 8C 12 8D 00
 (1.3160)  can1  18840401   [8]  13 40 8D 08 8D 2A 8D 00
 (1.3160)  can1  18C00401   [8]  13 08 30 0B 30 BF 30 00
 (1.3170)  can1  8250C03   [8]  45 00 FD 00 00 00 4C 00
 (1.3170)  can1  588FF72   [8]  A0 01 54 FF FF FF FC 59
 (1.3180)  can1  589FF72   [8]  1A E0 02 82 02 00 FC D1
 (1.3180)  can1  8840C03   [8]  39 00 14 00 21 00 07 00
 (1.3190)  can1  88D0C03   [8]  2B 00 00 00 72 00 7B 00
 (1.3200)  can1  4100209   [8]  AB 35 13 00 00 00 00 00
 (1.3210)  can1  5807202   [8]  03 80 00 00 E0 01 0B BF
 (1.3220)  can1  5817202   [8]  01 00 10 27 10 27 0E E3
 (1.3220)  can1  4100208   [8]  2B 10 13 00 00 00 00 00
 (1.3230)  can1  5907102   [8]  05 80 00 00 E0 01 0B 68
 (1.3230)  can1  5827202   [8]  FA 00 00 00 00 00 0B D4
 (1.3240)  can1  585FF72   [8]  03 80 60 09 60 09 F4 8A
 (1.3240)  can1  586FF72   [8]  FE 7F FF FF FF FF F8 4D
 (1.3240)  can1  5837202   [8]  2C 41 06 00 00 00 0B E0
 (1.3250)  can1  5917102   [8]  01 00 10 27 10 27 0E E3
 (1.3260)  can1  5927102   [8]  FA 00 00 00 00 00 0B D4
 (1.3260)  can1  5937102   [8]  2C 41 06 00 00 00 0B E0
 (1.3260)  can1  5847270   [8]  00 00 00 00 00 00 0B 9F
 (1.3260)  can1  5947102   [8]  00 00 00 00 00 00 0B 9F
 (1.3260)  can1  89A0C02   [8]  00 00 00 00 00 00 00 00
 (1.3270)  can1  8030C02   [8]  00 00 2A 68 2A 68 92 17
 (1.3270)  can1  8580C02   [8]  00 00 00 00 00 00 00 00
 (1.3270)  can1  1948FF72   [8]  00 C0 00 55 FF FF A6 B9
 (1.3290)  can1  595FF71   [8]  05 80 60 09 60 09 FE 5D
 (1.3300)  can1  596FF71   [8]  FE 7F FF FF FF FF F7 4D
 (1.3300)  can1  4100209   [8]  AB 35 13 00 00 00 00 00
 (1.3310)  can1  8100302   [5]  01 00 0A 00 18
 (1.3310)  can1  4100208   [8]  2B 10 13 00 00 00 00 00
 (1.3330)  can1  8101201   [8]  CF 62 D0 8D F9 89 60 00
 (1.3330)  can1  8010C01   [8]  53 62 00 00 00 00 00 00
 (1.3400)  can1  4100209   [8]  AB 35 13 00 00 00 00 00
 (1.3410)  can1  89A0C02   [8]  00 00 00 00 00 00 00 00
 (1.3410)  can1  8030C02   [8]  00 00 2A 68 2A 68 92 17
 (1.3420)  can1  4100208   [8]  2B 10 13 00 00 00 00 00
 (1.3430)  can1  8580C02   [8]  FF FF FF FF 00 00 00 00
 (1.3440)  can1  585FF72   [8]  03 80 60 09 60 09 F5 8A
 (1.3440)  can1  586FF72   [8]  FE 7F FF FF FF FF F9 4D
 (1.3440)  can1  404FF07   [1]  00
 (1.3490)  can1  595FF71   [8]  05 80 60 09 60 09 FF 5D
 (1.3500)  can1  596FF71   [8]  FE 7F FF FF FF FF F8 4D
 (1.3500)  can1  599FF71   [8]  1A E0 02 82 02 00 FC D1
 (1.3500)  can1  4100209   [8]  AB 35 13 00 00 00 00 00
 (1.3510)  can1  4100208   [8]  2B 10 13 00 00 00 00 00
 (1.3550)  can1  1948FF71   [8]  00 C0 00 55 FF FF A6 B9
 (1.3550)  can1  1949FF71   [8]  0D 80 00 0D A0 00 A7 E1
 (1.3560)  can1  194AFF71   [8]  36 07 58 86 35 58 A8 50
 (1.3570)  can1  194BFF71   [8]  86 F5 FF FF FF FF A9 20
 (1.3570)  can1  8100302   [5]  01 00 0A 00 18
 (1.3570)  can1  194CFF71   [8]  FF FF FF FF FF FF AA A4
 (1.3600)  can1  4100209   [8]  AB 35 13 00 00 00 00 00
 (1.3610)  can1  89A0C02   [8]  00 00 00 00 00 00 00 00
 (1.3620)  can1  8030C02   [8]  00 00 2A 68 2A 68 92 17
 (1.3620)  can1  4100208   [8]  2B 10 13 00 00 00 00 00
 (1.3620)  can1  8580C02   [8]  FF FF FF FF 00 00 00 00
 (1.3630)  can1  585FF72   [8]  03 80 60 09 60 09 F6 8A
 (1.3630)  can1  586FF72   [8]  FE 7F FF FF FF FF FA 4D
 (1.3640)  can1  587FF72   [8]  FF 07 C8 0F FF FF FC 60
 (1.3650)  can1  404FF01   [1]  00
 (1.3650)  can1  8041001   [8]  01 02 70 32 04 AF 3B 00
 (1.3660)  can1  1949FF72   [8]  0D 80 00 0D 90 00 A7 D1
 (1.3670)  can1  194AFF72   [8]  64 D7 57 77 75 57 A8 7D
 (1.3670)  can1  194BFF72   [8]  77 F5 FF FF FF FF A9 11
 (1.3670)  can1  194CFF72   [8]  FF FF FF FF FF FF AA A4
 (1.3680)  can1  8120C01   [8]  04 00 00 00 00 00 00 00
 (1.3680)  can1  80F1201   [4]  68 10 00 00
 (1.3680)  can1  18800401   [8]  14 40 8D 60 8D 60 8D 00
 (1.3680)  can1  18840401   [8]  14 5C 8D 7C 8D 77 8D 00
 (1.3690)  can1  18C00401   [8]  14 3D 30 DE 30 45 30 00
 (1.3690)  can1  595FF71   [8]  05 80 60 09 60 09 F0 5D
 (1.3700)  can1  596FF71   [8]  02 80 FF FF FF FF F9 63
 (1.3700)  can1  597FF71   [8]  0B 08 E2 0F FF FF FC 59
 (1.3710)  can1  598FF71   [8]  40 01 78 FF FF FF FC CA
 (1.3710)  can1  4100209   [8]  AB 35 13 00 00 00 00 00
 (1.3720)  can1  4100208   [8]  2B 10 13 00 00 00 00 00
 (1.3800)  can1  4100209   [8]  AB 35 13 00 00 00 00 00
 (1.3810)  can1  5807202   [8]  03 80 00 00 E0 01 0C BF
 (1.3820)  can1  5817202   [8]  01 00 10 27 10 27 0F E3
 (1.3820)  can1  4100208   [8]  2B 10 13 00 00 00 00 00
 (1.3830)  can1  5907102   [8]  05 80 00 00 E0 01 0C 68
 (1.3830)  can1  5827202   [8]  FA 00 00 00 00 00 0C D4
 (1.3830)  can1  585FF72   [8]  03 80 60 09 60 09 F7 8A
 (1.3840)  can1  586FF72   [8]  FF 7F FF FF FF FF FB 19
 (1.3840)  can1  5837202   [8]  2C 41 06 00 00 00 0C E0
 (1.3840)  can1  5917102   [8]  01 00 10 27 10 27 0F E3
 (1.3850)  can1  5927102   [8]  FA 00 00 00 00 00 0C D4
 (1.3850)  can1  5937102   [8]  2C 41 06 00 00 00 0C E0
 (1.3860)  can1  5847270   [8]  00 00 00 00 00 00 0C 9F
 (1.3860)  can1  5947102   [8]  00 00 00 00 00 00 0C 9F
 (1.3870)  can1  404FF02   [1]  00
 (1.3870)  can1  8100302   [5]  01 00 0A 00 18
 (1.3870)  can1  89A0C02   [8]  99 17 00 00 00 00 00 00
 (1.3870)  can1  8580C02   [8]  01 00 FF FF 00 00 00 00
 (1.3870)  can1  8030C02   [8]  00 00 2A 68 2A 68 92 17
 (1.3890)  can1  595FF71   [8]  05 80 60 09 60 09 F1 5D
 (1.3890)  can1  596FF71   [8]  FF 7F FF FF FF FF FA 19
 (1.3900)  can1  4100209   [8]  AB 35 13 00 00 00 00 00
 (1.3910)  can1  4100208   [8]  2B 10 13 00 00 00 00 00
 (1.4000)  can1  4100209   [8]  AB 35 13 00 00 00 00 00
 (1.4010)  can1  89A0C02   [8]  00 00 00 00 00 00 00 00
 (1.4020)  can1  8030C02   [8]  00 00 2A 68 2A 68 92 17
 (1.4020)  can1  4100208   [8]  2B 10 13 00 00 00 00 00
 (1.4030)  can1  8580C02   [8]  00 00 00 00 00 00 00 00
 (1.4030)  can1  585FF72   [8]  03 80 60 09 60 09 F8 8A
 (1.4040)  can1  586FF72   [8]  FF 7F FF FF FF FF FC 19
 (1.4060)  can1  8100302   [5]  01 00 0A 00 18
 (1.4090)  can1  595FF71   [8]  05 80 60 09 60 09 F2 5D
 (1.4100)  can1  596FF71   [8]  FF 7F FF FF FF FF FB 19
 (1.4110)  can1  4100209   [8]  AB 35 13 00 00 00 00 00
 (1.4120)  can1  4100208   [8]  2B 10 13 00 00 00 00 00
 (1.4150)  can1  18101203   [4]  12 2D 7A 07
 (1.4150)  can1  18800401   [8]  15 86 8D 67 8D 28 8D 00
 (1.4160)  can1  18840401   [8]  15 9E 8D 80 8D 43 8D 00
 (1.4160)  can1  18C00401   [8]  15 F4 30 F7 2F C5 30 00
 (1.4170)  can1  588FF72   [8]  A0 01 54 FF FF FF FD 59
 (1.4170)  can1  589FF72   [8]  1A E0 02 82 02 00 FD D1
 (1.4200)  can1  4100209   [8]  AB 35 13 00 00 00 00 00
 (1.4210)  can1  89A0C02   [8]  00 00 00 00 00 00 00 00
 (1.4210)  can1  8030C02   [8]  00 00 2A 68 2A 68 92 17
 (1.4220)  can1  4100208   [8]  2B 10 13 00 00 00 00 00
 (1.4220)  can1  8580C02   [8]  00 00 00 00 00 00 00 00
 (1.4230)  can1  585FF72   [8]  03 80 60 09 60 09 F9 8A
 (1.4230)  can1  586FF72   [8]  01 80 FF FF FF FF FD 9F
 (1.4290)  can1  595FF71   [8]  05 80 60 09 60 09 F3 5D
 (1.4290)  can1  596FF71   [8]  03 80 FF FF FF FF FC 37
 (1.4300)  can1  4100209   [8]  AB 35 13 00 00 00 00 00
 (1.4310)  can1  8100302   [5]  01 00 0A 00 18
 (1.4310)  can1  4100208   [8]  2B 10 13 00 00 00 00 00
 (1.4320)  can1  528FF72   [8]  0C 00 30 00 00 00 34 00
 (1.4320)  can1  529FF72   [8]  00 00 43 00 0A 00 03 00
 (1.4330)  can1  52AFF72   [8]  14 14 14 14 14 14 1A 00
 (1.4330)  can1  52BFF72   [8]  11 16 11 14 00 FF 00 00
 (1.4340)  can1  52CFF72   [8]  00 00 EF FF EF FF 3A 00
 (1.4350)  can1  8101201   [8]  D3 62 C8 8D F7 89 58 00
 (1.4350)  can1  8010C01   [8]  54 62 00 00 00 00 00 00
 (1.4390)  can1  528FF71   [8]  00 00 56 00 00 00 56 00
 (1.4400)  can1  529FF71   [8]  09 00 49 00 0B 00 05 00
 (1.4400)  can1  52AFF71   [8]  14 14 14 14 14 14 14 00
 (1.4410)  can1  52BFF71   [8]  10 14 10 14 00 FF 00 00
 (1.4410)  can1  4100209   [8]  AB 35 13 00 00 00 00 00
 (1.4420)  can1  52CFF71   [8]  00 00 EF FF EF FF 3A 00
 (1.4420)  can1  5807202   [8]  03 80 00 00 E0 01 0D BF
 (1.4430)  can1  5817202   [8]  01 00 10 27 10 27 00 E3
 (1.4440)  can1  4100208   [8]  2B 10 13 00 00 00 00 00
 (1.4440)  can1  5827202   [8]  FA 00 00 00 00 00 0D D4
 (1.4440)  can1  5907102   [8]  05 80 00 00 E0 01 0D 68
 (1.4450)  can1  585FF72   [8]  03 80 60 09 60 09 FA 8A
 (1.4450)  can1  586FF72   [8]  00 80 FF FF FF FF FE CB
 (1.4460)  can1  5837202   [8]  2C 41 06 00 00 00 0D E0
 (1.4460)  can1  5917102   [8]  01 00 10 27 10 27 00 E3
 (1.4460)  can1  5927102   [8]  FA 00 00 00 00 00 0D D4
 (1.4460)  can1  5847270   [8]  00 00 00 00 00 00 0D 9F
 (1.4470)  can1  5937102   [8]  2C 41 06 00 00 00 0D E0
 (1.4470)  can1  5947102   [8]  00 00 00 00 00 00 0D 9F
 (1.4470)  can1  8580C02   [8]  02 00 00 00 00 00 00 00
 (1.4470)  can1  89A0C02   [8]  66 23 00 00 CC 0B 00 00
 (1.4480)  can1  8030C02   [8]  00 00 2A 68 2A 68 92 17
 (1.4490)  can1  595FF71   [8]  05 80 60 09 60 09 F4 5D
 (1.4490)  can1  596FF71   [8]  FD 7F FF FF FF FF FD B1
 (1.4500)  can1  599FF71   [8]  1A E0 02 82 02 00 FD D1
 (1.4500)  can1  4100209   [8]  AB 35 13 00 00 00 00 00
 (1.4510)  can1  4100208   [8]  2B 10 13 00 00 00 00 00
 (1.4550)  can1  8100302   [5]  01 00 0A 00 18
 (1.4600)  can1  4100209   [8]  AB 35 13 00 00 00 00 00
 (1.4610)  can1  89A0C02   [8]  00 00 00 00 00 00 00 00
 (1.4610)  can1  8030C02   [8]  00 00 2A 68 2A 68 92 17
 (1.4620)  can1  4100208   [8]  2B 10 13 00 00 00 00 00
 (1.4620)  can1  8580C02   [8]  FE FF 00 00 00 00 00 00
 (1.4620)  can1  585FF72   [8]  03 80 60 09 60 09 FB 8A
 (1.4630)  can1  586FF72   [8]  00 80 FF FF FF FF FF CB
 (1.4630)  can1  587FF72   [8]  01 08 CA 0F FF FF FD D8
 (1.4630)  can1  8041001   [8]  01 02 70 32 04 AF 3B 00
 (1.4650)  can1  18800401   [8]  16 0B 8D 4D 8D 7E 8D 00
 (1.4650)  can1  18840401   [8]  16 24 8D 65 8D 96 8D 00
 (1.4660)  can1  18C00401   [8]  16 E7 2F 74 30 6D 2F 00
 (1.4690)  can1  595FF71   [8]  05 80 60 09 60 09 F5 5D
 (1.4700)  can1  596FF71   [8]  FF 7F FF FF FF FF FE 19
 (1.4700)  can1  597FF71   [8]  07 08 E2 0F FF FF FD D8
 (1.4700)  can1  598FF71   [8]  40 01 78 FF FF FF FD CA
 (1.4710)  can1  4100209   [8]  AB 35 13 00 00 00 00 00
 (1.4710)  can1  4100208   [8]  2B 10 13 00 00 00 00 00
 (1.4800)  can1  4100209   [8]  AB 35 13 00 00 00 00 00
 (1.4810)  can1  8100302   [5]  01 00 0A 00 18
 (1.4810)  can1  8580C02   [8]  00 00 00 00 00 00 00 00
 (1.4820)  can1  89A0C02   [8]  00 00 00 00 00 00 00 00
 (1.4820)  can1  4100208   [8]  2B 10 13 00 00 00 00 00
 (1.4820)  can1  8030C02   [8]  00 00 2A 68 2A 68 92 17
 (1.4830)  can1  585FF72   [8]  03 80 60 09 60 09 FC 8A
 (1.4830)  can1  586FF72   [8]  01 80 FF FF FF FF F0 9F
 (1.4890)  can1  595FF71   [8]  05 80 60 09 60 09 F6 5D
 (1.4900)  can1  596FF71   [8]  FD 7F FF FF FF FF FF B1
 (1.4910)  can1  4100209   [8]  AB 35 13 00 00 00 00 00
 (1.4920)  can1  4100208   [8]  2B 10 13 00 00 00 00 00
 (1.5000)  can1  4100209   [8]  AB 35 13 00 00 00 00 00
 (1.5010)  can1  5807202   [8]  03 80 00 00 E0 01 0E BF
 (1.5010)  can1  5817202   [8]  01 00 10 27 10 27 01 E3
 (1.5010)  can1  4100208   [8]  2B 10 13 00 00 00 00 00
 (1.5020)  can1  5907102   [8]  05 80 00 00 E0 01 0E 68
 (1.5020)  can1  5827202   [8]  FA 00 00 00 00 00 0E D4
 (1.5030)  can1  585FF72   [8]  03 80 60 09 60 09 FD 8A
 (1.5030)  can1  586FF72   [8]  00 80 FF FF FF FF F1 CB
 (1.5040)  can1  5837202   [8]  2C 41 06 00 00 00 0E E0
 (1.5040)  can1  5917102   [8]  01 00 10 27 10 27 01 E3
 (1.5050)  can1  5927102   [8]  FA 00 00 00 00 00 0E D4
 (1.5050)  can1  5937102   [8]  2C 41 06 00 00 00 0E E0
 (1.5050)  can1  5847270   [8]  00 00 00 00 00 00 0E 9F
 (1.5060)  can1  5947102   [8]  00 00 00 00 00 00 0E 9F
 (1.5060)  can1  89A0C02   [8]  00 00 00 00 CC 0B 00 00
 (1.5060)  can1  8030C02   [8]  00 00 2A 68 2A 68 92 17
 (1.5070)  can1  8580C02   [8]  FE FF 00 00 00 00 00 00
 (1.5070)  can1  8100302   [5]  01 00 0A 00 18
 (1.5090)  can1  595FF71   [8]  05 80 60 09 60 09 F7 5D
 (1.5100)  can1  596FF71   [8]  FF 7F FF FF FF FF F0 19
 (1.5100)  can1  4100209   [8]  AB 35 13 00 00 00 00 00
 (1.5110)  can1  4100208   [8]  2B 10 13 00 00 00 00 00
 (1.5150)  can1  18800401   [8]  17 6B 8D 00 00 00 00 00
 (1.5150)  can1  18840401   [8]  17 83 8D 00 00 00 00 00
 (1.5160)  can1  18C00401   [8]  17 A8 2F 10 27 10 27 00
 (1.5170)  can1  588FF72   [8]  A0 01 54 FF FF FF FE 59
 (1.5180)  can1  589FF72   [8]  1A E0 02 82 02 00 FE D1
 (1.5200)  can1  4100209   [8]  AB 35 13 00 00 00 00 00
 (1.5210)  can1  89A0C02   [8]  00 00 00 00 00 00 00 00
 (1.5210)  can1  8030C02   [8]  00 00 2A 68 2A 68 92 17
 (1.5220)  can1  8580C02   [8]  00 00 00 00 00 00 00 00
 (1.5220)  can1  4100208   [8]  2B 10 13 00 00 00 00 00
 (1.5230)  can1  585FF72   [8]  03 80 60 09 60 09 FE 8A
 (1.5240)  can1  586FF72   [8]  FF 7F FF FF FF FF F2 19
 (1.5290)  can1  595FF71   [8]  05 80 60 09 60 09 F8 5D
 (1.5300)  can1  596FF71   [8]  FE 7F FF FF FF FF F1 4D
 (1.5300)  can1  4100209   [8]  AB 35 13 00 00 00 00 00
 (1.5310)  can1  8100302   [5]  01 00 0A 00 18
 (1.5320)  can1  4100208   [8]  2B 10 13 00 00 00 00 00
 (1.5350)  can1  8101201   [8]  D2 62 CB 8D F6 89 67 00
 (1.5350)  can1  8010C01   [8]  56 62 00 00 00 00 00 00
 (1.5400)  can1  4100209   [8]  AB 35 13 00 00 00 00 00
 (1.5410)  can1  89A0C02   [8]  00 00 00 00 00 00 00 00
 (1.5410)  can1  8030C02   [8]  00 00 2A 68 2A 68 92 17
 (1.5410)  can1  8580C02   [8]  FF FF 00 00 00 00 00 00
 (1.5420)  can1  4100208   [8]  2B 10 13 00 00 00 00 00
 (1.5420)  can1  585FF72   [8]  03 80 60 09 60 09 FF 8A
 (1.5420)  can1  586FF72   [8]  02 80 FF FF FF FF F3 63
 (1.5490)  can1  595FF71   [8]  05 80 60 09 60 09 F9 5D
 (1.5500)  can1  596FF71   [8]  FE 7F FF FF FF FF F2 4D
 (1.5500)  can1  599FF71   [8]  1A E0 02 82 02 00 FE D1
 (1.5500)  can1  4100209   [8]  AB 35 13 00 00 00 00 00
 (1.5510)  can1  4100208   [8]  2B 10 13 00 00 00 00 00
 (1.5560)  can1  8100302   [5]  01 00 0A 00 18
 (1.5600)  can1  4100209   [8]  AB 35 13 00 00 00 00 00
 (1.5610)  can1  5807202   [8]  03 80 00 00 E0 01 0F BF
 (1.5610)  can1  5817202   [8]  01 00 10 27 10 27 02 E3
 (1.5610)  can1  4100208   [8]  2B 10 13 00 00 00 00 00
 (1.5620)  can1  5907102   [8]  05 80 00 00 E0 01 0F 68
 (1.5620)  can1  5827202   [8]  FA 00 00 00 00 00 0F D4
 (1.5630)  can1  585FF72   [8]  03 80 60 09 60 09 F0 8A
 (1.5630)  can1  586FF72   [8]  FF 7F FF FF FF FF F4 19
 (1.5640)  can1  5837202   [8]  2C 41 06 00 00 00 0F E0
 (1.5650)  can1  587FF72   [8]  01 08 CA 0F FF FF FE D8
 (1.5650)  can1  5917102   [8]  01 00 10 27 10 27 02 E3
 (1.5660)  can1  5927102   [8]  FA 00 00 00 00 00 0F D4
 (1.5670)  can1  5847270   [8]  00 00 00 00 00 00 0F 9F
 (1.5670)  can1  5937102   [8]  2C 41 06 00 00 00 0F E0
 (1.5670)  can1  8041001   [8]  01 02 70 32 04 AF 3B 00
 (1.5670)  can1  5947102   [8]  00 00 00 00 00 00 0F 9F
 (1.5680)  can1  8580C02   [8]  FF FF 01 00 00 00 00 00
 (1.5680)  can1  89A0C02   [8]  00 00 00 00 99 17 00 00
 (1.5680)  can1  18800401   [8]  00 CD 8D E4 8C B7 8C 00
 (1.5690)  can1  8030C02   [8]  00 00 2A 68 2A 68 92 17
 (1.5690)  can1  18840401   [8]  00 E6 8D FE 8C BF 8C 00
 (1.5700)  can1  18C00401   [8]  00 40 30 45 2F D0 30 00
 (1.5710)  can1  595FF71   [8]  05 80 60 09 60 09 FA 5D
 (1.5710)  can1  596FF71   [8]  01 80 FF FF FF FF F3 9F
 (1.5710)  can1  597FF71   [8]  09 08 E4 0F FF FF FE 3E
 (1.5720)  can1  598FF71   [8]  40 01 78 FF FF FF FE CA
 (1.5720)  can1  4100209   [8]  AB 35 13 00 00 00 00 00
 (1.5720)  can1  4100208   [8]  2B 10 13 00 00 00 00 00
 (1.5800)  can1  4100209   [8]  AB 35 13 00 00 00 00 00
 (1.5810)  can1  8100302   [5]  01 00 0A 00 18
 (1.5810)  can1  8580C02   [8]  00 00 00 00 00 00 00 00
 (1.5810)  can1  89A0C02   [8]  CC 0B 00 00 00 00 00 00
 (1.5820)  can1  4100208   [8]  2B 10 13 00 00 00 00 00
 (1.5820)  can1  8030C02   [8]  00 00 2A 68 2A 68 92 17
 (1.5820)  can1  585FF72   [8]  03 80 60 09 60 09 F1 8A
 (1.5830)  can1  586FF72   [8]  FF 7F FF FF FF FF F5 19
 (1.5830)  can1  1948FF72   [8]  00 C0 00 55 FF FF AB BE
 (1.5890)  can1  595FF71   [8]  05 80 60 09 60 09 FB 5D
 (1.5900)  can1  596FF71   [8]  FE 7F FF FF FF FF F4 4D
 (1.5900)  can1  4100209   [8]  AB 35 13 00 00 00 00 00
 (1.5910)  can1  4100208   [8]  2B 10 13 00 00 00 00 00
 (1.6000)  can1  4100209   [8]  AB 35 13 00 00 00 00 00
 (1.6010)  can1  89A0C02   [8]  00 00 00 00 00 00 00 00
 (1.6010)  can1  8030C02   [8]  00 00 2A 68 2A 68 92 17
 (1.6010)  can1  8580C02   [8]  FF FF 00 00 00 00 00 00
 (1.6020)  can1  4100208   [8]  2B 10 13 00 00 00 00 00
 (1.6020)  can1  585FF72   [8]  03 80 60 09 60 09 F2 8A
 (1.6020)  can1  586FF72   [8]  FD 7F FF FF FF FF F6 B1
 (1.6050)  can1  8100302   [5]  01 00 0A 00 18
 (1.6090)  can1  595FF71   [8]  05 80 60 09 60 09 FC 5D
 (1.6090)  can1  596FF71   [8]  00 80 FF FF FF FF F5 CB
 (1.6100)  can1  1948FF71   [8]  00 C0 00 55 FF FF AB BE
 (1.6110)  can1  1949FF71   [8]  0D 80 00 0D 80 00 AC C6
 (1.6110)  can1  194AFF71   [8]  36 67 58 86 85 58 AD 05
 (1.6120)  can1  4100209   [8]  AB 35 13 00 00 00 00 00
 (1.6120)  can1  194BFF71   [8]  86 F5 FF FF FF FF AE 25
 (1.6120)  can1  194CFF71   [8]  FF FF FF FF FF FF AF A9
 (1.6130)  can1  4100208   [8]  2B 10 13 00 00 00 00 00
 (1.6150)  can1  18800401   [8]  01 C4 8C 00 8D F7 8C 00
 (1.6150)  can1  18840401   [8]  01 DF 8C 1A 8D 12 8D 00
 (1.6160)  can1  18C00401   [8]  01 20 30 06 31 63 30 00
 (1.6170)  can1  588FF72   [8]  A0 01 54 FF FF FF FF 59
 (1.6170)  can1  589FF72   [8]  1A E0 02 82 02 00 FF D1
 (1.6180)  can1  1949FF72   [8]  0D 80 00 0D 90 00 AC D6
 (1.6180)  can1  194AFF72   [8]  63 07 58 77 D5 57 AD 12
 (1.6180)  can1  194BFF72   [8]  7D F5 FF FF FF FF AE 1C
 (1.6190)  can1  194CFF72   [8]  FF FF FF FF FF FF AF A9
 (1.6200)  can1  4100209   [8]  AB 35 13 00 00 00 00 00
 (1.6210)  can1  5807202   [8]  03 80 00 00 E0 01 00 BF
 (1.6210)  can1  5817202   [8]  01 00 10 27 10 27 03 E3
 (1.6220)  can1  4100208   [8]  2B 10 13 00 00 00 00 00
 (1.6220)  can1  5907102   [8]  05 80 00 00 E0 01 00 68
 (1.6230)  can1  5827202   [8]  FA 00 00 00 00 00 00 D4
 (1.6230)  can1  585FF72   [8]  03 80 60 09 60 09 F3 8A
 (1.6230)  can1  586FF72   [8]  FF 7F FF FF FF FF F7 19
 (1.6240)  can1  5837202   [8]  2C 41 06 00 00 00 00 E0
 (1.6240)  can1  5917102   [8]  01 00 10 27 10 27 03 E3
 (1.6240)  can1  5927102   [8]  FA 00 00 00 00 00 00 D4
 (1.6250)  can1  5937102   [8]  2C 41 06 00 00 00 00 E0
 (1.6260)  can1  5847270   [8]  00 00 00 00 00 00 00 9F
 (1.6260)  can1  5947102   [8]  00 00 00 00 00 00 00 9F
 (1.6260)  can1  89A0C02   [8]  00 00 00 00 00 00 00 00
 (1.6270)  can1  8030C02   [8]  00 00 2A 68 2A 68 92 17
 (1.6270)  can1  8580C02   [8]  00 00 FE FF 00 00 00 00
 (1.6290)  can1  595FF71   [8]  05 80 60 09 60 09 FD 5D
 (1.6290)  can1  596FF71   [8]  01 80 FF FF FF FF F6 9F
 (1.6300)  can1  4100209   [8]  AB 35 13 00 00 00 00 00
 (1.6310)  can1  8100302   [5]  01 00 0A 00 18
 (1.6310)  can1  4100208   [8]  2B 10 13 00 00 00 00 00
 (1.6360)  can1  8101201   [8]  D3 62 CD 8D F7 89 55 00
 (1.6360)  can1  8010C01   [8]  57 62 00 00 00 00 00 00
 (1.6400)  can1  4100209   [8]  AB 35 13 00 00 00 00 00
 (1.6410)  can1  89A0C02   [8]  CC 0B 00 00 00 00 00 00
 (1.6410)  can1  8030C02   [8]  00 00 2A 68 2A 68 92 17
 (1.6410)  can1  8580C02   [8]  00 00 00 00 00 00 00 00
 (1.6420)  can1  4100208   [8]  2B 10 13 00 00 00 00 00
 (1.6420)  can1  585FF72   [8]  03 80 60 09 60 09 F4 8A
 (1.6420)  can1  586FF72   [8]  FF 7F FF FF FF FF F8 19
 (1.6490)  can1  595FF71   [8]  05 80 60 09 60 09 FE 5D
 (1.6490)  can1  596FF71   [8]  FE 7F FF FF FF FF F7 4D
 (1.6500)  can1  599FF71   [8]  1A E0 02 82 02 00 FF D1
 (1.6500)  can1  4100209   [8]  AB 35 13 00 00 00 00 00
 (1.6510)  can1  4100208   [8]  2B 10 13 00 00 00 00 00
 (1.6550)  can1  8100302   [5]  01 00 0A 00 18
 (1.6600)  can1  4100209   [8]  AB 35 13 00 00 00 00 00
 (1.6610)  can1  89A0C02   [8]  00 00 00 00 00 00 00 00
 (1.6610)  can1  8030C02   [8]  00 00 2A 68 2A 68 92 17
 (1.6620)  can1  8580C02   [8]  FF FF 00 00 00 00 00 00
 (1.6620)  can1  4100208   [8]  2B 10 13 00 00 00 00 00
 (1.6630)  can1  585FF72   [8]  03 80 60 09 60 09 F5 8A
 (1.6630)  can1  586FF72   [8]  01 80 FF FF FF FF F9 9F
 (1.6640)  can1  587FF72   [8]  00 08 CA 0F FF FF FF 8C
 (1.6640)  can1  8041001   [8]  01 02 70 32 04 AF 3B 00
 (1.6650)  can1  18800401   [8]  02 12 8D 82 8D 65 8D 00
 (1.6650)  can1  18840401   [8]  02 29 8D 9B 8D 7E 8D 00
 (1.6660)  can1  18C00401   [8]  02 E2 30 56 30 BB 30 00
 (1.6690)  can1  595FF71   [8]  05 80 60 09 60 09 FF 5D
 (1.6690)  can1  596FF71   [8]  01 80 FF FF FF FF F8 9F
 (1.6700)  can1  597FF71   [8]  09 08 E2 0F FF FF FF F1
 (1.6700)  can1  598FF71   [8]  40 01 78 FF FF FF FF CA
 (1.6700)  can1  4100209   [8]  AB 35 13 00 00 00 00 00
 (1.6710)  can1  4100208   [8]  2B 10 13 00 00 00 00 00
 (1.6800)  can1  4100209   [8]  AB 35 13 00 00 00 00 00
 (1.6810)  can1  5807202   [8]  03 80 00 00 E0 01 01 BF
 (1.6820)  can1  5817202   [8]  01 00 10 27 10 27 04 E3
 (1.6820)  can1  4100208   [8]  2B 10 13 00 00 00 00 00
 (1.6830)  can1  5907102   [8]  05 80 00 00 E0 01 01 68
 (1.6830)  can1  5827202   [8]  FA 00 00 00 00 00 01 D4
 (1.6840)  can1  585FF72   [8]  03 80 60 09 60 09 F6 8A
 (1.6840)  can1  586FF72   [8]  FF 7F FF FF FF FF FA 19
 (1.6840)  can1  5837202   [8]  2C 41 06 00 00 00 01 E0
 (1.6850)  can1  5917102   [8]  01 00 10 27 10 27 04 E3
 (1.6850)  can1  5927102   [8]  FA 00 00 00 00 00 01 D4
 (1.6860)  can1  5937102   [8]  2C 41 06 00 00 00 01 E0
 (1.6860)  can1  5847270   [8]  00 00 00 00 00 00 01 9F
 (1.6860)  can1  5947102   [8]  00 00 00 00 00 00 01 9F
 (1.6870)  can1  8100302   [5]  01 00 0A 00 18
 (1.6870)  can1  8580C02   [8]  00 00 00 00 00 00 00 00
 (1.6870)  can1  89A0C02   [8]  CC 0B 00 00 CC 0B 00 00
 (1.6870)  can1  8030C02   [8]  00 00 2A 68 2A 68 92 17
 (1.6890)  can1  595FF71   [8]  05 80 60 09 60 09 F0 5D
 (1.6890)  can1  596FF71   [8]  FE 7F FF FF FF FF F9 4D
 (1.6900)  can1  4100209   [8]  AB 35 13 00 00 00 00 00
 (1.6910)  can1  4100208   [8]  2B 10 13 00 00 00 00 00
 (1.7000)  can1  4100209   [8]  AB 35 13 00 00 00 00 00
 (1.7010)  can1  89A0C02   [8]  00 00 00 00 00 00 00 00
 (1.7010)  can1  8030C02   [8]  00 00 2A 68 2A 68 92 17
 (1.7020)  can1  8580C02   [8]  FF FF 00 00 00 00 00 00
 (1.7020)  can1  4100208   [8]  2B 10 13 00 00 00 00 00
 (1.7020)  can1  585FF72   [8]  03 80 60 09 60 09 F7 8A
 (1.7030)  can1  586FF72   [8]  00 80 FF FF FF FF FB CB
 (1.7050)  can1  8100302   [5]  01 00 0A 00 18
 (1.7090)  can1  595FF71   [8]  05 80 60 09 60 09 F1 5D
 (1.7100)  can1  596FF71   [8]  FE 7F FF FF FF FF FA 4D
 (1.7100)  can1  4100209   [8]  AB 35 13 00 00 00 00 00
 (1.7110)  can1  4100208   [8]  2B 10 13 00 00 00 00 00
 (1.7150)  can1  18800401   [8]  03 32 8D 18 8D 48 8D 00
 (1.7160)  can1  18840401   [8]  03 4C 8D 32 8D 63 8D 00
 (1.7160)  can1  18C00401   [8]  03 4B 30 7D 30 F9 2F 00
 (1.7170)  can1  588FF72   [8]  A0 01 54 FF FF FF F0 59
 (1.7170)  can1  589FF72   [8]  1A E0 02 82 02 00 F0 D1
 (1.7200)  can1  4100209   [8]  AB 35 13 00 00 00 00 00
 (1.7210)  can1  89A0C02   [8]  00 00 00 00 00 00 00 00
 (1.7210)  can1  8030C02   [8]  00 00 2A 68 2A 68 92 17
 (1.7210)  can1  8580C02   [8]  FF FF 00 00 00 00 00 00
 (1.7220)  can1  4100208   [8]  2B 10 13 00 00 00 00 00
 (1.7230)  can1  585FF72   [8]  03 80 60 09 60 09 F8 8A
 (1.7230)  can1  586FF72   [8]  01 80 FF FF FF FF FC 9F
 (1.7290)  can1  595FF71   [8]  05 80 60 09 60 09 F2 5D
 (1.7290)  can1  596FF71   [8]  01 80 FF FF FF FF FB 9F
 (1.7300)  can1  4100209   [8]  AB 35 13 00 00 00 00 00
 (1.7310)  can1  8100302   [5]  01 00 0A 00 18
 (1.7320)  can1  4100208   [8]  2B 10 13 00 00 00 00 00
 (1.7370)  can1  8101201   [8]  D3 62 CF 8D F7 89 63 00
 (1.7370)  can1  8010C01   [8]  53 62 00 00 00 00 00 00
 (1.7400)  can1  4100209   [8]  AB 35 13 00 00 00 00 00
 (1.7410)  can1  5807202   [8]  03 80 00 00 E0 01 02 BF
 (1.7410)  can1  5817202   [8]  01 00 10 27 10 27 05 E3
 (1.7410)  can1  4100208   [8]  2B 10 13 00 00 00 00 00
 (1.7420)  can1  5907102   [8]  05 80 00 00 E0 01 02 68
 (1.7420)  can1  5827202   [8]  FA 00 00 00 00 00 02 D4
 (1.7430)  can1  585FF72   [8]  03 80 60 09 60 09 F9 8A
 (1.7440)  can1  586FF72   [8]  FD 7F FF FF FF FF FD B1
 (1.7440)  can1  5837202   [8]  2C 41 06 00 00 00 02 E0
 (1.7440)  can1  5917102   [8]  01 00 10 27 10 27 05 E3
 (1.7450)  can1  5927102   [8]  FA 00 00 00 00 00 02 D4
 (1.7450)  can1  5937102   [8]  2C 41 06 00 00 00 02 E0
 (1.7450)  can1  5847270   [8]  00 00 00 00 00 00 02 9F
 (1.7460)  can1  5947102   [8]  00 00 00 00 00 00 02 9F
 (1.7460)  can1  89A0C02   [8]  CC 0B 00 00 CC 0B 00 00
 (1.7460)  can1  8030C02   [8]  00 00 2A 68 2A 68 92 17
 (1.7460)  can1  8580C02   [8]  00 00 00 00 00 00 00 00
 (1.7490)  can1  595FF71   [8]  05 80 60 09 60 09 F3 5D
 (1.7490)  can1  596FF71   [8]  FD 7F FF FF FF FF FC B1
 (1.7500)  can1  599FF71   [8]  1A E0 02 82 02 00 F0 D1
 (1.7510)  can1  4100209   [8]  AB 35 13 00 00 00 00 00
 (1.7510)  can1  4100208   [8]  2B 10 13 00 00 00 00 00
 (1.7550)  can1  8100302   [5]  01 00 0A 00 18
 (1.7600)  can1  4100209   [8]  AB 35 13 00 00 00 00 00
 (1.7610)  can1  89A0C02   [8]  00 00 00 00 00 00 00 00
 (1.7610)  can1  8030C02   [8]  00 00 2A 68 2A 68 92 17
 (1.7610)  can1  8580C02   [8]  FE FF FE FF 00 00 00 00
 (1.7620)  can1  4100208   [8]  2B 10 13 00 00 00 00 00
 (1.7620)  can1  585FF72   [8]  03 80 60 09 60 09 FA 8A
 (1.7620)  can1  586FF72   [8]  00 80 FF FF FF FF FE CB
 (1.7630)  can1  587FF72   [8]  05 08 CA 0F FF FF F0 A7
 (1.7630)  can1  8041001   [8]  01 02 70 32 04 AF 3B 00
 (1.7650)  can1  18800401   [8]  04 67 8D 54 8D DC 89 00
 (1.7660)  can1  18840401   [8]  04 82 8D 6D 8D F6 89 00
 (1.7660)  can1  18C00401   [8]  04 97 2F 3F 2F 50 30 00
 (1.7690)  can1  595FF71   [8]  05 80 60 09 60 09 F4 5D
 (1.7690)  can1  596FF71   [8]  00 80 FF FF FF FF FD CB
 (1.7700)  can1  597FF71   [8]  11 08 E0 0F FF FF F0 99
 (1.7700)  can1  598FF71   [8]  40 01 78 FF FF FF F0 CA
 (1.7710)  can1  4100209   [8]  AB 35 13 00 00 00 00 00
 (1.7710)  can1  4100208   [8]  2B 10 13 00 00 00 00 00
 (1.7800)  can1  4100209   [8]  AB 35 13 00 00 00 00 00
 (1.7810)  can1  8100302   [5]  01 00 0A 00 18
 (1.7810)  can1  8580C02   [8]  00 00 00 00 00 00 00 00
 (1.7810)  can1  89A0C02   [8]  00 00 00 00 00 00 00 00
 (1.7820)  can1  4100208   [8]  2B 10 13 00 00 00 00 00
 (1.7820)  can1  8030C02   [8]  00 00 2A 68 2A 68 92 17
 (1.7830)  can1  585FF72   [8]  03 80 60 09 60 09 FB 8A
 (1.7830)  can1  586FF72   [8]  00 80 FF FF FF FF FF CB
 (1.7890)  can1  595FF71   [8]  05 80 60 09 60 09 F5 5D
 (1.7900)  can1  596FF71   [8]  01 80 FF FF FF FF FE 9F
 (1.7900)  can1  4100209   [8]  AB 35 13 00 00 00 00 00
 (1.7910)  can1  4100208   [8]  2B 10 13 00 00 00 00 00
 (1.8000)  can1  4100209   [8]  AB 35 13 00 00 00 00 00
 (1.8010)  can1  5807202   [8]  03 80 00 00 E0 01 03 BF
 (1.8010)  can1  5817202   [8]  01 00 10 27 10 27 06 E3
 (1.8010)  can1  4100208   [8]  2B 10 13 00 00 00 00 00
 (1.8020)  can1  5907102   [8]  05 80 00 00 E0 01 03 68
 (1.8020)  can1  5827202   [8]  FA 00 00 00 00 00 03 D4
 (1.8030)  can1  585FF72   [8]  03 80 60 09 60 09 FC 8A
 (1.8030)  can1  586FF72   [8]  01 80 FF FF FF FF F0 9F
 (1.8040)  can1  5837202   [8]  2C 41 06 00 00 00 03 E0
 (1.8040)  can1  5917102   [8]  01 00 10 27 10 27 06 E3
 (1.8050)  can1  5927102   [8]  FA 00 00 00 00 00 03 D4
 (1.8050)  can1  5937102   [8]  2C 41 06 00 00 00 03 E0
 (1.8050)  can1  5847270   [8]  00 00 00 00 00 00 03 9F
 (1.8060)  can1  5947102   [8]  00 00 00 00 00 00 03 9F
 (1.8060)  can1  89A0C02   [8]  CC 0B 00 00 00 00 00 00
 (1.8070)  can1  8030C02   [8]  00 00 2A 68 2A 68 92 17
 (1.8070)  can1  8580C02   [8]  00 00 00 00 00 00 00 00
 (1.8070)  can1  8100302   [5]  01 00 0A 00 18
 (1.8090)  can1  595FF71   [8]  05 80 60 09 60 09 F6 5D
 (1.8090)  can1  596FF71   [8]  FF 7F FF FF FF FF FF 19
 (1.8100)  can1  4100209   [8]  AB 35 13 00 00 00 00 00
 (1.8110)  can1  4100208   [8]  2B 10 13 00 00 00 00 00
 (1.8150)  can1  18800401   [8]  05 46 8D 0C 8D 32 8D 00
 (1.8160)  can1  18840401   [8]  05 5F 8D 2F 8D 4B 8D 00
 (1.8160)  can1  18C00401   [8]  05 A4 30 B8 30 30 31 00
 (1.8170)  can1  588FF72   [8]  A0 01 54 FF FF FF F1 59
 (1.8170)  can1  589FF72   [8]  1A E0 02 82 02 00 F1 D1
 (1.8200)  can1  4100209   [8]  AB 35 13 00 00 00 00 00
 (1.8210)  can1  89A0C02   [8]  00 00 00 00 CC 0B 00 00
 (1.8210)  can1  8030C02   [8]  00 00 2A 68 2A 68 92 17
 (1.8210)  can1  8580C02   [8]  00 00 00 00 00 00 00 00
 (1.8220)  can1  4100208   [8]  2B 10 13 00 00 00 00 00
 (1.8220)  can1  585FF72   [8]  03 80 60 09 60 09 FD 8A
 (1.8220)  can1  586FF72   [8]  00 80 FF FF FF FF F1 CB
 (1.8290)  can1  595FF71   [8]  05 80 60 09 60 09 F7 5D
 (1.8300)  can1  596FF71   [8]  00 80 FF FF FF FF F0 CB
 (1.8300)  can1  4100209   [8]  AB 35 13 00 00 00 00 00
 (1.8310)  can1  8100302   [5]  01 00 0A 00 18
 (1.8400)  can1  4100208   [8]  2B 10 13 00 00 00 00 00
 (1.8410)  can1  1948FF72   [8]  00 C0 00 55 FF FF B0 C3
 (1.8410)  can1  8101201   [8]  D5 62 CC 8D F6 89 5A 00
 (1.8420)  can1  8010C01   [8]  55 62 00 00 00 00 00 00
 (1.8420)  can1  4100209   [8]  AB 35 13 00 00 00 00 00
 (1.8430)  can1  89A0C02   [8]  00 00 00 00 00 00 00 00
 (1.8430)  can1  8030C02   [8]  00 00 2A 68 2A 68 92 17
 (1.8440)  can1  8580C02   [8]  00 00 00 00 00 00 00 00
 (1.8440)  can1  4100208   [8]  2B 10 13 00 00 00 00 00
 (1.8450)  can1  585FF72   [8]  03 80 60 09 60 09 FE 8A
 (1.8450)  can1  586FF72   [8]  02 80 FF FF FF FF F2 63
 (1.8490)  can1  595FF71   [8]  05 80 60 09 60 09 F8 5D
 (1.8500)  can1  596FF71   [8]  FE 7F FF FF FF FF F1 4D
 (1.8510)  can1  599FF71   [8]  1A E0 02 82 02 00 F1 D1
 (1.8510)  can1  4100209   [8]  AB 35 13 00 00 00 00 00
 (1.8510)  can1  4100208   [8]  2B 10 13 00 00 00 00 00
 (1.8550)  can1  8100302   [5]  01 00 0A 00 18
 (1.8600)  can1  4100209   [8]  AB 35 13 00 00 00 00 00
 (1.8610)  can1  5807202   [8]  03 80 00 00 E0 01 04 BF
 (1.8610)  can1  5817202   [8]  01 00 10 27 10 27 07 E3
 (1.8610)  can1  4100208   [8]  2B 10 13 00 00 00 00 00
 (1.8620)  can1  5907102   [8]  05 80 00 00 E0 01 04 68
 (1.8620)  can1  5827202   [8]  FA 00 00 00 00 00 04 D4
 (1.8620)  can1  585FF72   [8]  03 80 60 09 60 09 FF 8A
 (1.8630)  can1  586FF72   [8]  00 80 FF FF FF FF F3 CB
 (1.8640)  can1  5837202   [8]  2C 41 06 00 00 00 04 E0
 (1.8640)  can1  587FF72   [8]  00 08 CA 0F FF FF F1 8C
 (1.8640)  can1  5917102   [8]  01 00 10 27 10 27 07 E3
 (1.8650)  can1  5927102   [8]  FA 00 00 00 00 00 04 D4
 (1.8650)  can1  5847270   [8]  00 00 00 00 00 00 04 9F
 (1.8660)  can1  5937102   [8]  2C 41 06 00 00 00 04 E0
 (1.8660)  can1  8041001   [8]  01 02 70 32 04 AF 3B 00
 (1.8660)  can1  5947102   [8]  00 00 00 00 00 00 04 9F
 (1.8670)  can1  8580C02   [8]  FF FF 01 00 00 00 00 00
 (1.8680)  can1  89A0C02   [8]  00 00 00 00 99 17 00 00
 (1.8680)  can1  18800401   [8]  06 53 8D 85 8D 91 8D 00
 (1.8690)  can1  8030C02   [8]  00 00 2A 68 2A 68 92 17
 (1.8690)  can1  18840401   [8]  06 69 8D 9F 8D AA 8D 00
 (1.8690)  can1  18C00401   [8]  06 AE 30 67 31 A6 30 00
 (1.8690)  can1  1948FF71   [8]  00 C0 00 55 FF FF B0 C3
 (1.8700)  can1  1949FF71   [8]  0D 80 00 0D 90 00 B1 DB
 (1.8700)  can1  194AFF71   [8]  35 77 57 86 05 58 B2 98
 (1.8700)  can1  194BFF71   [8]  88 F5 FF FF FF FF B3 2C
 (1.8710)  can1  194CFF71   [8]  FF FF FF FF FF FF B4 AE
 (1.8710)  can1  595FF71   [8]  05 80 60 09 60 09 F9 5D
 (1.8710)  can1  596FF71   [8]  00 80 FF FF FF FF F2 CB
 (1.8710)  can1  597FF71   [8]  07 08 E2 0F FF FF F1 D8
 (1.8720)  can1  598FF71   [8]  40 01 78 FF FF FF F1 CA
 (1.8720)  can1  4100209   [8]  AB 35 13 00 00 00 00 00
 (1.8730)  can1  4100208   [8]  2B 10 13 00 00 00 00 00
 (1.8730)  can1  1949FF72   [8]  0D 80 00 0D A0 00 B1 EB
 (1.8740)  can1  194AFF72   [8]  63 D7 57 80 A5 57 B2 BF
 (1.8750)  can1  194BFF72   [8]  77 F5 FF FF FF FF B3 1B
 (1.8750)  can1  194CFF72   [8]  FF FF FF FF FF FF B4 AE
 (1.8800)  can1  4100209   [8]  AB 35 13 00 00 00 00 00
 (1.8810)  can1  8100302   [5]  01 00 0A 00 18
 (1.8810)  can1  8580C02   [8]  00 00 00 00 00 00 00 00
 (1.8810)  can1  89A0C02   [8]  00 00 00 00 00 00 00 00
 (1.8820)  can1  4100208   [8]  2B 10 13 00 00 00 00 00
 (1.8820)  can1  8030C02   [8]  00 00 2A 68 2A 68 92 17
 (1.8820)  can1  585FF72   [8]  03 80 60 09 60 09 F0 8A
 (1.8830)  can1  586FF72   [8]  FD 7F FF FF FF FF F4 B1
 (1.8890)  can1  595FF71   [8]  05 80 60 09 60 09 FA 5D
 (1.8900)  can1  596FF71   [8]  02 80 FF FF FF FF F3 63
 (1.8900)  can1  4100209   [8]  AB 35 13 00 00 00 00 00
 (1.8910)  can1  4100208   [8]  2B 10 13 00 00 00 00 00
 (1.9000)  can1  4100209   [8]  AB 35 13 00 00 00 00 00
 (1.9010)  can1  89A0C02   [8]  99 17 00 00 00 00 00 00
 (1.9010)  can1  8030C02   [8]  00 00 2A 68 2A 68 92 17
 (1.9020)  can1  8580C02   [8]  01 00 FE FF 00 00 00 00
 (1.9020)  can1  4100208   [8]  2B 10 13 00 00 00 00 00
 (1.9030)  can1  585FF72   [8]  03 80 60 09 60 09 F1 8A
 (1.9030)  can1  586FF72   [8]  FE 7F FF FF FF FF F5 4D
 (1.9050)  can1  8100302   [5]  01 00 0A 00 18
 (1.9090)  can1  595FF71   [8]  05 80 60 09 60 09 FB 5D
 (1.9090)  can1  596FF71   [8]  FF 7F FF FF FF FF F4 19
 (1.9100)  can1  4100209   [8]  AB 35 13 00 00 00 00 00
 (1.9110)  can1  4100208   [8]  2B 10 13 00 00 00 00 00
 (1.9150)  can1  18101203   [4]  17 2D 06 07
 (1.9150)  can1  18800401   [8]  07 93 8D 76 8D 36 8D 00
 (1.9160)  can1  18840401   [8]  07 AD 8D 90 8D 4F 8D 00
 (1.9160)  can1  18C00401   [8]  07 74 31 92 30 6B 31 00
 (1.9170)  can1  588FF72   [8]  A0 01 54 FF FF FF F2 59
 (1.9180)  can1  589FF72   [8]  1A E0 02 82 02 00 F2 D1
 (1.9200)  can1  4100209   [8]  AB 35 13 00 00 00 00 00
 (1.9210)  can1  5807202   [8]  03 80 00 00 E0 01 05 BF
 (1.9210)  can1  5817202   [8]  01 00 10 27 10 27 08 E3
 (1.9210)  can1  4100208   [8]  2B 10 13 00 00 00 00 00
 (1.9220)  can1  5907102   [8]  05 80 00 00 E0 01 05 68
 (1.9220)  can1  5827202   [8]  FA 00 00 00 00 00 05 D4
 (1.9230)  can1  585FF72   [8]  03 80 60 09 60 09 F2 8A
 (1.9230)  can1  586FF72   [8]  01 80 FF FF FF FF F6 9F
 (1.9230)  can1  5837202   [8]  2C 41 06 00 00 00 05 E0
 (1.9240)  can1  5917102   [8]  01 00 10 27 10 27 08 E3
 (1.9240)  can1  5927102   [8]  FA 00 00 00 00 00 05 D4
 (1.9250)  can1  5937102   [8]  2C 41 06 00 00 00 05 E0
 (1.9250)  can1  5847270   [8]  00 00 00 00 00 00 05 9F
 (1.9260)  can1  5947102   [8]  00 00 00 00 00 00 05 9F
 (1.9260)  can1  89A0C02   [8]  00 00 00 00 00 00 00 00
 (1.9260)  can1  8030C02   [8]  00 00 2A 68 2A 68 92 17
 (1.9260)  can1  8580C02   [8]  00 00 FF FF 00 00 00 00
 (1.9290)  can1  595FF71   [8]  05 80 60 09 60 09 FC 5D
 (1.9290)  can1  596FF71   [8]  00 80 FF FF FF FF F5 CB
 (1.9300)  can1  4100209   [8]  AB 35 13 00 00 00 00 00
 (1.9310)  can1  8100302   [5]  01 00 0A 00 18
 (1.9310)  can1  4100208   [8]  2B 10 13 00 00 00 00 00
 (1.9320)  can1  528FF72   [8]  FE FF 3B 00 00 00 34 00
 (1.9320)  can1  529FF72   [8]  01 00 42 00 0A 00 03 00
 (1.9320)  can1  52CFF72   [8]  00 00 EF FF EF FF 3A 00
 (1.9380)  can1  8101201   [8]  D0 62 CE 8D F7 89 6F 00
 (1.9390)  can1  8010C01   [8]  56 62 00 00 00 00 00 00
 (1.9390)  can1  528FF71   [8]  00 00 56 00 00 00 56 00
 (1.9400)  can1  529FF71   [8]  09 00 49 00 0B 00 05 00
 (1.9400)  can1  52CFF71   [8]  00 00 EF FF EF FF 3A 00
 (1.9400)  can1  4100209   [8]  AB 35 13 00 00 00 00 00
 (1.9410)  can1  89A0C02   [8]  00 00 00 00 CC 0B 00 00
 (1.9410)  can1  8030C02   [8]  00 00 2A 68 2A 68 92 17
 (1.9420)  can1  8580C02   [8]  00 00 00 00 00 00 00 00
 (1.9420)  can1  4100208   [8]  2B 10 13 00 00 00 00 00
 (1.9420)  can1  585FF72   [8]  03 80 60 09 60 09 F3 8A
 (1.9420)  can1  586FF72   [8]  00 80 FF FF FF FF F7 CB
 (1.9490)  can1  595FF71   [8]  05 80 60 09 60 09 FD 5D
 (1.9490)  can1  596FF71   [8]  01 80 FF FF FF FF F6 9F
 (1.9500)  can1  599FF71   [8]  1A E0 02 82 02 00 F2 D1
 (1.9510)  can1  4100209   [8]  AB 35 13 00 00 00 00 00
 (1.9510)  can1  4100208   [8]  2B 10 13 00 00 00 00 00
 (1.9550)  can1  8100302   [5]  01 00 0A 00 18
 (1.9600)  can1  4100209   [8]  AB 35 13 00 00 00 00 00
 (1.9610)  can1  89A0C02   [8]  CC 0B 00 00 00 00 00 00
 (1.9610)  can1  8030C02   [8]  00 00 2A 68 2A 68 92 17
 (1.9610)  can1  8580C02   [8]  00 00 00 00 00 00 00 00
 (1.9620)  can1  4100208   [8]  2B 10 13 00 00 00 00 00
 (1.9620)  can1  585FF72   [8]  03 80 60 09 60 09 F4 8A
 (1.9620)  can1  586FF72   [8]  01 80 FF FF FF FF F8 9F
 (1.9620)  can1  587FF72   [8]  02 08 C8 0F FF FF F2 61
 (1.9630)  can1  8041001   [8]  01 02 70 32 04 AF 3B 00
 (1.9650)  can1  18800401   [8]  08 1D 8D 06 8A A3 8D 00
 (1.9650)  can1  18840401   [8]  08 36 8D 1D 8A BC 8D 00
 (1.9660)  can1  18C00401   [8]  08 45 30 58 31 F5 2F 00
 (1.9690)  can1  595FF71   [8]  05 80 60 09 60 09 FE 5D
 (1.9690)  can1  596FF71   [8]  01 80 FF FF FF FF F7 9F
 (1.9700)  can1  597FF71   [8]  08 08 E2 0F FF FF F2 A5
 (1.9700)  can1  598FF71   [8]  40 01 78 FF FF FF F2 CA
 (1.9710)  can1  4100209   [8]  AB 35 13 00 00 00 00 00
 (1.9710)  can1  4100208   [8]  2B 10 13 00 00 00 00 00
 (1.9800)  can1  4100209   [8]  AB 35 13 00 00 00 00 00
 (1.9810)  can1  5807202   [8]  03 80 00 00 E0 01 06 BF
 (1.9820)  can1  5817202   [8]  01 00 10 27 10 27 09 E3
 (1.9820)  can1  4100208   [8]  2B 10 13 00 00 00 00 00
 (1.9830)  can1  5907102   [8]  05 80 00 00 E0 01 06 68
 (1.9840)  can1  5827202   [8]  FA 00 00 00 00 00 06 D4
 (1.9840)  can1  585FF72   [8]  03 80 60 09 60 09 F5 8A
 (1.9840)  can1  586FF72   [8]  01 80 FF FF FF FF F9 9F
 (1.9850)  can1  5837202   [8]  2C 41 06 00 00 00 06 E0
 (1.9850)  can1  5917102   [8]  01 00 10 27 10 27 09 E3
 (1.9850)  can1  5927102   [8]  FA 00 00 00 00 00 06 D4
 (1.9860)  can1  5937102   [8]  2C 41 06 00 00 00 06 E0
 (1.9860)  can1  5847270   [8]  00 00 00 00 00 00 06 9F
 (1.9860)  can1  5947102   [8]  00 00 00 00 00 00 06 9F
 (1.9870)  can1  8100302   [5]  01 00 0A 00 18
 (1.9870)  can1  8580C02   [8]  00 00 00 00 00 00 00 00
 (1.9870)  can1  89A0C02   [8]  CC 0B 00 00 CC 0B 00 00
 (1.9870)  can1  8030C02   [8]  00 00 2A 68 2A 68 92 17
 (1.9890)  can1  595FF71   [8]  05 80 60 09 60 09 FF 5D
 (1.9890)  can1  596FF71   [8]  FF 7F FF FF FF FF F8 19
 (1.9900)  can1  4100209   [8]  AB 35 13 00 00 00 00 00
 (1.9910)  can1  4100208   [8]  2B 10 13 00 00 00 00 00
 (2.0000)  can1  4100209   [8]  AB 35 13 00 00 00 00 00
 (2.0010)  can1  89A0C02   [8]  00 00 00 00 CC 0B 00 00
 (2.0010)  can1  8030C02   [8]  00 00 2A 68 2A 68 92 17
 (2.0020)  can1  8580C02   [8]  00 00 00 00 00 00 00 00
 (2.0020)  can1  4100208   [8]  2B 10 13 00 00 00 00 00
 (2.0020)  can1  585FF72   [8]  03 80 60 09 60 09 F6 8A
 (2.0030)  can1  586FF72   [8]  FF 7F FF FF FF FF FA 19
 (2.0050)  can1  8100302   [5]  01 00 0A 00 18
 (2.0090)  can1  595FF71   [8]  05 80 60 09 60 09 F0 5D
 (2.0090)  can1  596FF71   [8]  00 80 FF FF FF FF F9 CB
 (2.0100)  can1  4100209   [8]  AB 35 13 00 00 00 00 00
 (2.0110)  can1  4100208   [8]  2B 10 13 00 00 00 00 00
 (2.0150)  can1  18800401   [8]  09 8E 8D 60 8D 41 8D 00
 (2.0160)  can1  18840401   [8]  09 A7 8D 78 8D 5A 8D 00
 (2.0160)  can1  18C00401   [8]  09 CB 30 BD 2F B3 30 00
 (2.0170)  can1  588FF72   [8]  A0 01 54 FF FF FF F3 59
 (2.0170)  can1  589FF72   [8]  1A E0 02 82 02 00 F3 D1
 (2.0200)  can1  4100209   [8]  AB 35 13 00 00 00 00 00
 (2.0210)  can1  89A0C02   [8]  00 00 00 00 00 00 00 00
 (2.0210)  can1  8030C02   [8]  00 00 2A 68 2A 68 92 17
 (2.0220)  can1  8580C02   [8]  00 00 00 00 00 00 00 00
 (2.0220)  can1  4100208   [8]  2B 10 13 00 00 00 00 00
 (2.0230)  can1  585FF72   [8]  03 80 60 09 60 09 F7 8A
 (2.0230)  can1  586FF72   [8]  00 80 FF FF FF FF FB CB
 (2.0290)  can1  595FF71   [8]  05 80 60 09 60 09 F1 5D
 (2.0290)  can1  596FF71   [8]  FE 7F FF FF FF FF FA 4D
 (2.0300)  can1  4100209   [8]  AB 35 13 00 00 00 00 00
 (2.0310)  can1  8100302   [5]  01 00 0A 00 18
 (2.0310)  can1  4100208   [8]  2B 10 13 00 00 00 00 00
 (2.0390)  can1  8101201   [8]  D4 62 CE 8D F6 89 57 00
 (2.0400)  can1  8010C01   [8]  57 62 00 00 00 00 00 00
 (2.0400)  can1  4100209   [8]  AB 35 13 00 00 00 00 00
 (2.0410)  can1  5807202   [8]  03 80 00 00 E0 01 07 BF
 (2.0410)  can1  5817202   [8]  01 00 10 27 10 27 0A E3
 (2.0410)  can1  4100208   [8]  2B 10 13 00 00 00 00 00
 (2.0420)  can1  5907102   [8]  05 80 00 00 E0 01 07 68
 (2.0420)  can1  5827202   [8]  FA 00 00 00 00 00 07 D4
 (2.0420)  can1  585FF72   [8]  03 80 60 09 60 09 F8 8A
 (2.0430)  can1  586FF72   [8]  FD 7F FF FF FF FF FC B1
 (2.0430)  can1  5837202   [8]  2C 41 06 00 00 00 07 E0
 (2.0440)  can1  5917102   [8]  01 00 10 27 10 27 0A E3
 (2.0450)  can1  5927102   [8]  FA 00 00 00 00 00 07 D4
 (2.0450)  can1  5937102   [8]  2C 41 06 00 00 00 07 E0
 (2.0450)  can1  5847270   [8]  00 00 00 00 00 00 07 9F
 (2.0460)  can1  5947102   [8]  00 00 00 00 00 00 07 9F
 (2.0460)  can1  89A0C02   [8]  00 00 00 00 00 00 00 00
 (2.0460)  can1  8030C02   [8]  00 00 2A 68 2A 68 92 17
 (2.0470)  can1  8580C02   [8]  FF FF 00 00 00 00 00 00
 (2.0490)  can1  595FF71   [8]  05 80 60 09 60 09 F2 5D
 (2.0490)  can1  596FF71   [8]  FD 7F FF FF FF FF FB B1
 (2.0500)  can1  599FF71   [8]  1A E0 02 82 02 00 F3 D1
 (2.0500)  can1  4100209   [8]  AB 35 13 00 00 00 00 00
 (2.0520)  can1  4100208   [8]  2B 10 13 00 00 00 00 00
 (2.0550)  can1  8100302   [5]  01 00 0A 00 18
 (2.0600)  can1  4100209   [8]  AB 35 13 00 00 00 00 00
 (2.0610)  can1  89A0C02   [8]  00 00 00 00 00 00 00 00
 (2.0620)  can1  8030C02   [8]  00 00 2A 68 2A 68 92 17
 (2.0620)  can1  8580C02   [8]  FE FF FE FF 00 00 00 00
 (2.0620)  can1  4100208   [8]  2B 10 13 00 00 00 00 00
 (2.0630)  can1  585FF72   [8]  03 80 60 09 60 09 F9 8A
 (2.0630)  can1  586FF72   [8]  00 80 FF FF FF FF FD CB
 (2.0630)  can1  587FF72   [8]  00 08 CA 0F FF FF F3 8C
 (2.0640)  can1  8041001   [8]  01 02 70 32 04 AF 3B 00
 (2.0650)  can1  18800401   [8]  0A F9 8C 2F 8D 56 8D 00
 (2.0660)  can1  18840401   [8]  0A 0F 8D 47 8D 6E 8D 00
 (2.0660)  can1  18C00401   [8]  0A 9F 30 53 31 DB 30 00
 (2.0690)  can1  595FF71   [8]  05 80 60 09 60 09 F3 5D
 (2.0690)  can1  596FF71   [8]  FE 7F FF FF FF FF FC 4D
 (2.0700)  can1  597FF71   [8]  0A 08 E4 0F FF FF F3 C2
 (2.0710)  can1  598FF71   [8]  40 01 78 FF FF FF F3 CA
 (2.0710)  can1  4100209   [8]  AB 35 13 00 00 00 00 00
 (2.0710)  can1  4100208   [8]  2B 10 13 00 00 00 00 00
 (2.0800)  can1  4100209   [8]  AB 35 13 00 00 00 00 00
 (2.0810)  can1  8100302   [5]  01 00 0A 00 18
 (2.0810)  can1  8580C02   [8]  FF FF 00 00 00 00 00 00
 (2.0820)  can1  89A0C02   [8]  00 00 00 00 00 00 00 00
 (2.0820)  can1  4100208   [8]  2B 10 13 00 00 00 00 00
 (2.0820)  can1  8030C02   [8]  00 00 2A 68 2A 68 92 17
 (2.0830)  can1  585FF72   [8]  03 80 60 09 60 09 FA 8A
 (2.0830)  can1  586FF72   [8]  FD 7F FF FF FF FF FE B1
 (2.0890)  can1  595FF71   [8]  05 80 60 09 60 09 F4 5D
 (2.0890)  can1  596FF71   [8]  00 80 FF FF FF FF FD CB
 (2.0900)  can1  4100209   [8]  AB 35 13 00 00 00 00 00
 (2.0910)  can1  4100208   [8]  2B 10 13 00 00 00 00 00
 (2.0920)  can1  1948FF72   [8]  00 C0 00 55 FF FF B5 C8
 (2.1000)  can1  4100209   [8]  AB 35 13 00 00 00 00 00
 (2.1010)  can1  5807202   [8]  03 80 00 00 E0 01 08 BF
 (2.1010)  can1  5817202   [8]  01 00 10 27 10 27 0B E3
 (2.1010)  can1  4100208   [8]  2B 10 13 00 00 00 00 00
 (2.1020)  can1  5907102   [8]  05 80 00 00 E0 01 08 68
 (2.1020)  can1  5827202   [8]  FA 00 00 00 00 00 08 D4
 (2.1030)  can1  585FF72   [8]  03 80 60 09 60 09 FB 8A
 (2.1030)  can1  586FF72   [8]  FD 7F FF FF FF FF FF B1
 (2.1030)  can1  5837202   [8]  2C 41 06 00 00 00 08 E0
 (2.1040)  can1  5917102   [8]  01 00 10 27 10 27 0B E3
 (2.1050)  can1  5927102   [8]  FA 00 00 00 00 00 08 D4
 (2.1050)  can1  5937102   [8]  2C 41 06 00 00 00 08 E0
 (2.1050)  can1  5847270   [8]  00 00 00 00 00 00 08 9F
 (2.1060)  can1  5947102   [8]  00 00 00 00 00 00 08 9F
 (2.1060)  can1  89A0C02   [8]  00 00 00 00 00 00 00 00
 (2.1060)  can1  8030C02   [8]  00 00 2A 68 2A 68 92 17
 (2.1070)  can1  8580C02   [8]  00 00 FE FF 00 00 00 00
 (2.1070)  can1  8100302   [5]  01 00 0A 00 18
 (2.1090)  can1  595FF71   [8]  05 80 60 09 60 09 F5 5D
 (2.1100)  can1  596FF71   [8]  02 80 FF FF FF FF FE 63
 (2.1100)  can1  4100209   [8]  AB 35 13 00 00 00 00 00
 (2.1110)  can1  4100208   [8]  2B 10 13 00 00 00 00 00
 (2.1150)  can1  18800401   [8]  0B 7E 8D 7E 8D 8A 8D 00
 (2.1150)  can1  18840401   [8]  0B 97 8D 95 8D A3 8D 00
 (2.1160)  can1  18C00401   [8]  0B 8F 31 E3 30 81 31 00
 (2.1170)  can1  588FF72   [8]  A0 01 54 FF FF FF F4 59
 (2.1180)  can1  589FF72   [8]  1A E0 02 82 02 00 F4 D1
 (2.1190)  can1  1948FF71   [8]  00 C0 00 55 FF FF B5 C8
 (2.1200)  can1  1949FF71   [8]  0D 80 00 0D C0 00 B6 10
 (2.1200)  can1  194AFF71   [8]  36 67 58 86 85 58 B7 0F
 (2.1200)  can1  194BFF71   [8]  86 F5 FF FF FF FF B8 2F
 (2.1210)  can1  194CFF71   [8]  FF FF FF FF FF FF B9 B3
 (2.1210)  can1  4100209   [8]  AB 35 13 00 00 00 00 00
 (2.1210)  can1  8030C02   [8]  00 00 2A 68 2A 68 92 17
 (2.1220)  can1  8580C02   [8]  01 00 FE FF 00 00 00 00
 (2.1220)  can1  4100208   [8]  2B 10 13 00 00 00 00 00
 (2.1220)  can1  89A0C02   [8]  99 17 00 00 00 00 00 00
 (2.1230)  can1  585FF72   [8]  03 80 60 09 60 09 FC 8A
 (2.1230)  can1  586FF72   [8]  FF 7F FF FF FF FF F0 19
 (2.1270)  can1  1949FF72   [8]  0D 80 00 0D 90 00 B6 E0
 (2.1280)  can1  194AFF72   [8]  63 07 58 77 75 57 B7 BC
 (2.1280)  can1  194BFF72   [8]  77 F5 FF FF FF FF B8 20
 (2.1290)  can1  194CFF72   [8]  FF FF FF FF FF FF B9 B3
 (2.1290)  can1  595FF71   [8]  05 80 60 09 60 09 F6 5D
 (2.1290)  can1  596FF71   [8]  FE 7F FF FF FF FF FF 4D
 (2.1300)  can1  4100209   [8]  AB 35 13 00 00 00 00 00
 (2.1310)  can1  8100302   [5]  01 00 0A 00 18
 (2.1310)  can1  4100208   [8]  2B 10 13 00 00 00 00 00
 (2.1400)  can1  4100209   [8]  AB 35 13 00 00 00 00 00
 (2.1410)  can1  8101201   [8]  D5 62 D1 8D F8 89 4F 00
 (2.1410)  can1  8010C01   [8]  54 62 00 00 00 00 00 00
 (2.1410)  can1  8030C02   [8]  00 00 2A 68 2A 68 92 17
 (2.1420)  can1  4100208   [8]  2B 10 13 00 00 00 00 00
 (2.1420)  can1  8580C02   [8]  FF FF 00 00 00 00 00 00
 (2.1430)  can1  585FF72   [8]  03 80 60 09 60 09 FD 8A
 (2.1440)  can1  586FF72   [8]  FF 7F FF FF FF FF F1 19
 (2.1440)  can1  89A0C02   [8]  00 00 00 00 00 00 00 00
 (2.1490)  can1  595FF71   [8]  05 80 60 09 60 09 F7 5D
 (2.1500)  can1  596FF71   [8]  FE 7F FF FF FF FF F0 4D
 (2.1500)  can1  599FF71   [8]  1A E0 02 82 02 00 F4 D1
 (2.1500)  can1  4100209   [8]  AB 35 13 00 00 00 00 00
 (2.1510)  can1  4100208   [8]  2B 10 13 00 00 00 00 00
 (2.1550)  can1  8100302   [5]  01 00 0A 00 18
 (2.1600)  can1  4100209   [8]  AB 35 13 00 00 00 00 00
 (2.1610)  can1  5807202   [8]  03 80 00 00 E0 01 09 BF
 (2.1610)  can1  5817202   [8]  01 00 10 27 10 27 0C E3
 (2.1610)  can1  4100208   [8]  2B 10 13 00 00 00 00 00
 (2.1620)  can1  5907102   [8]  05 80 00 00 E0 01 09 68
 (2.1630)  can1  5827202   [8]  FA 00 00 00 00 00 09 D4
 (2.1630)  can1  585FF72   [8]  03 80 60 09 60 09 FE 8A
 (2.1640)  can1  586FF72   [8]  02 80 FF FF FF FF F2 63
 (2.1640)  can1  5837202   [8]  2C 41 06 00 00 00 09 E0
 (2.1640)  can1  587FF72   [8]  03 08 CA 0F FF FF F4 70
 (2.1650)  can1  5917102   [8]  01 00 10 27 10 27 0C E3
 (2.1650)  can1  5927102   [8]  FA 00 00 00 00 00 09 D4
 (2.1660)  can1  5847270   [8]  00 00 00 00 00 00 09 9F
 (2.1660)  can1  5937102   [8]  2C 41 06 00 00 00 09 E0
 (2.1670)  can1  8041001   [8]  01 02 70 32 04 AF 3B 00
 (2.1670)  can1  5947102   [8]  00 00 00 00 00 00 09 9F
 (2.1670)  can1  8580C02   [8]  FF FF 00 00 00 00 00 00
 (2.1680)  can1  89A0C02   [8]  00 00 00 00 00 00 00 00
 (2.1680)  can1  18800401   [8]  0C 7E 8D 38 8D 33 8D 00
 (2.1680)  can1  8030C02   [8]  00 00 2A 68 2A 68 92 17
 (2.1680)  can1  18840401   [8]  0C 97 8D 51 8D 4B 8D 00
 (2.1690)  can1  18C00401   [8]  0C B3 30 39 31 6E 30 00
 (2.1690)  can1  595FF71   [8]  05 80 60 09 60 09 F8 5D
 (2.1690)  can1  596FF71   [8]  01 80 FF FF FF FF F1 9F
 (2.1700)  can1  597FF71   [8]  0A 08 E4 0F FF FF F4 C2
 (2.1700)  can1  598FF71   [8]  40 01 78 FF FF FF F4 CA
 (2.1710)  can1  4100209   [8]  AB 35 13 00 00 00 00 00
 (2.1710)  can1  4100208   [8]  2B 10 13 00 00 00 00 00
 (2.1800)  can1  4100209   [8]  AB 35 13 00 00 00 00 00
 (2.1810)  can1  8100302   [5]  01 00 0A 00 18
 (2.1810)  can1  8580C02   [8]  00 00 01 00 00 00 00 00
 (2.1820)  can1  89A0C02   [8]  CC 0B 00 00 99 17 00 00
 (2.1820)  can1  4100208   [8]  2B 10 13 00 00 00 00 00
 (2.1830)  can1  8030C02   [8]  00 00 2A 68 2A 68 92 17
 (2.1830)  can1  585FF72   [8]  03 80 60 09 60 09 FF 8A
 (2.1840)  can1  586FF72   [8]  01 80 FF FF FF FF F3 9F
 (2.1890)  can1  595FF71   [8]  05 80 60 09 60 09 F9 5D
 (2.1900)  can1  596FF71   [8]  02 80 FF FF FF FF F2 63
 (2.1900)  can1  4100209   [8]  AB 35 13 00 00 00 00 00
 (2.1910)  can1  4100208   [8]  2B 10 13 00 00 00 00 00
 (2.2000)  can1  4100209   [8]  AB 35 13 00 00 00 00 00
 (2.2010)  can1  89A0C02   [8]  99 17 00 00 CC 0B 00 00
 (2.2010)  can1  8030C02   [8]  00 00 2A 68 2A 68 92 17
 (2.2010)  can1  8580C02   [8]  01 00 00 00 00 00 00 00
 (2.2020)  can1  4100208   [8]  2B 10 13 00 00 00 00 00
 (2.2020)  can1  585FF72   [8]  03 80 60 09 60 09 F0 8A
 (2.2020)  can1  586FF72   [8]  00 80 FF FF FF FF F4 CB
 (2.2050)  can1  8100302   [5]  01 00 0A 00 18
 (2.2090)  can1  595FF71   [8]  05 80 60 09 60 09 FA 5D
 (2.2090)  can1  596FF71   [8]  00 80 FF FF FF FF F3 CB
 (2.2100)  can1  4100209   [8]  AB 35 13 00 00 00 00 00
 (2.2110)  can1  4100208   [8]  2B 10 13 00 00 00 00 00
 (2.2150)  can1  18800401   [8]  0D 51 8D 84 8D 67 8D 00
 (2.2150)  can1  18840401   [8]  0D 6C 8D 9C 8D 80 8D 00
 (2.2160)  can1  18C00401   [8]  0D DC 30 A1 2F ED 2F 00
 (2.2170)  can1  588FF72   [8]  A0 01 54 FF FF FF F5 59
 (2.2180)  can1  589FF72   [8]  1A E0 02 82 02 00 F5 D1
 (2.2200)  can1  4100209   [8]  AB 35 13 00 00 00 00 00
 (2.2210)  can1  5807202   [8]  03 80 00 00 E0 01 0A BF
 (2.2210)  can1  5817202   [8]  01 00 10 27 10 27 0D E3
 (2.2220)  can1  4100208   [8]  2B 10 13 00 00 00 00 00
 (2.2230)  can1  5907102   [8]  05 80 00 00 E0 01 0A 68
 (2.2230)  can1  5827202   [8]  FA 00 00 00 00 00 0A D4
 (2.2240)  can1  585FF72   [8]  03 80 60 09 60 09 F1 8A
 (2.2240)  can1  586FF72   [8]  00 80 FF FF FF FF F5 CB
 (2.2240)  can1  5837202   [8]  2C 41 06 00 00 00 0A E0
 (2.2250)  can1  5917102   [8]  01 00 10 27 10 27 0D E3
 (2.2250)  can1  5927102   [8]  FA 00 00 00 00 00 0A D4
 (2.2250)  can1  5937102   [8]  2C 41 06 00 00 00 0A E0
 (2.2260)  can1  5847270   [8]  00 00 00 00 00 00 0A 9F
 (2.2260)  can1  5947102   [8]  00 00 00 00 00 00 0A 9F
 (2.2260)  can1  89A0C02   [8]  00 00 00 00 00 00 00 00
 (2.2260)  can1  8030C02   [8]  00 00 2A 68 2A 68 92 17
 (2.2270)  can1  8580C02   [8]  00 00 00 00 00 00 00 00
 (2.2300)  can1  595FF71   [8]  05 80 60 09 60 09 FB 5D
 (2.2310)  can1  596FF71   [8]  01 80 FF FF FF FF F4 9F
 (2.2310)  can1  4100209   [8]  AB 35 13 00 00 00 00 00
 (2.2320)  can1  8100302   [5]  01 00 0A 00 18
 (2.2320)  can1  4100208   [8]  2B 10 13 00 00 00 00 00
 (2.2400)  can1  4100209   [8]  AB 35 13 00 00 00 00 00
 (2.2410)  can1  89A0C02   [8]  CC 0B 00 00 00 00 00 00
 (2.2410)  can1  8030C02   [8]  00 00 2A 68 2A 68 92 17
 (2.2420)  can1  8010C01   [8]  57 62 00 00 00 00 00 00
 (2.2420)  can1  4100208   [8]  2B 10 13 00 00 00 00 00
 (2.2430)  can1  8101201   [8]  D2 62 CE 8D F7 89 5A 00
 (2.2430)  can1  585FF72   [8]  03 80 60 09 60 09 F2 8A
 (2.2430)  can1  586FF72   [8]  01 80 FF FF FF FF F6 9F
 (2.2440)  can1  8580C02   [8]  00 00 00 00 00 00 00 00
 (2.2490)  can1  595FF71   [8]  05 80 60 09 60 09 FC 5D
 (2.2500)  can1  596FF71   [8]  FF 7F FF FF FF FF F5 19
 (2.2510)  can1  599FF71   [8]  1A E0 02 82 02 00 F5 D1
 (2.2510)  can1  4100209   [8]  AB 35 13 00 00 00 00 00
 (2.2510)  can1  4100208   [8]  2B 10 13 00 00 00 00 00
 (2.2550)  can1  8100302   [5]  01 00 0A 00 18
 (2.2600)  can1  4100209   [8]  AB 35 13 00 00 00 00 00
 (2.2610)  can1  89A0C02   [8]  00 00 00 00 CC 0B 00 00
 (2.2610)  can1  8030C02   [8]  00 00 2A 68 2A 68 92 17
 (2.2620)  can1  8580C02   [8]  00 00 00 00 00 00 00 00
 (2.2620)  can1  4100208   [8]  2B 10 13 00 00 00 00 00
 (2.2620)  can1  585FF72   [8]  03 80 60 09 60 09 F3 8A
 (2.2630)  can1  586FF72   [8]  00 80 FF FF FF FF F7 CB
 (2.2640)  can1  587FF72   [8]  04 08 C8 0F FF FF F5 B6
 (2.2640)  can1  8041001   [8]  01 02 70 32 04 AF 3B 00
 (2.2650)  can1  18800401   [8]  0E 2A 8D 19 8D D3 8C 00
 (2.2650)  can1  18840401   [8]  0E 42 8D 30 8D F5 8C 00
 (2.2660)  can1  18C00401   [8]  0E 58 2F 8B 30 5F 30 00
 (2.2690)  can1  595FF71   [8]  05 80 60 09 60 09 FD 5D
 (2.2690)  can1  596FF71   [8]  FF 7F FF FF FF FF F6 19
 (2.2700)  can1  597FF71   [8]  09 08 E2 0F FF FF F5 F1
 (2.2700)  can1  598FF71   [8]  40 01 78 FF FF FF F5 CA
 (2.2710)  can1  4100209   [8]  AB 35 13 00 00 00 00 00
 (2.2710)  can1  4100208   [8]  2B 10 13 00 00 00 00 00
 (2.2800)  can1  4100209   [8]  AB 35 13 00 00 00 00 00
 (2.2810)  can1  5807202   [8]  03 80 00 00 E0 01 0B BF
 (2.2810)  can1  5817202   [8]  01 00 10 27 10 27 0E E3
 (2.2820)  can1  4100208   [8]  2B 10 13 00 00 00 00 00
 (2.2830)  can1  5907102   [8]  05 80 00 00 E0 01 0B 68
 (2.2830)  can1  5827202   [8]  FA 00 00 00 00 00 0B D4
 (2.2840)  can1  585FF72   [8]  03 80 60 09 60 09 F4 8A
 (2.2840)  can1  586FF72   [8]  00 80 FF FF FF FF F8 CB
 (2.2850)  can1  5837202   [8]  2C 41 06 00 00 00 0B E0
 (2.2850)  can1  5917102   [8]  01 00 10 27 10 27 0E E3
 (2.2850)  can1  5927102   [8]  FA 00 00 00 00 00 0B D4
 (2.2860)  can1  5937102   [8]  2C 41 06 00 00 00 0B E0
 (2.2860)  can1  5847270   [8]  00 00 00 00 00 00 0B 9F
 (2.2860)  can1  5947102   [8]  00 00 00 00 00 00 0B 9F
 (2.2870)  can1  8100302   [5]  01 00 0A 00 18
 (2.2870)  can1  8580C02   [8]  00 00 00 00 00 00 00 00
 (2.2870)  can1  89A0C02   [8]  00 00 00 00 00 00 00 00
 (2.2870)  can1  8030C02   [8]  00 00 2A 68 2A 68 92 17
 (2.2890)  can1  595FF71   [8]  05 80 60 09 60 09 FE 5D
 (2.2900)  can1  596FF71   [8]  02 80 FF FF FF FF F7 63
 (2.2900)  can1  4100209   [8]  AB 35 13 00 00 00 00 00
 (2.2910)  can1  4100208   [8]  2B 10 13 00 00 00 00 00
 (2.3000)  can1  4100209   [8]  AB 35 13 00 00 00 00 00
 (2.3010)  can1  89A0C02   [8]  99 17 00 00 00 00 00 00
 (2.3010)  can1  8030C02   [8]  00 00 2A 68 2A 68 92 17
 (2.3020)  can1  8580C02   [8]  01 00 00 00 00 00 00 00
 (2.3020)  can1  4100208   [8]  2B 10 13 00 00 00 00 00
 (2.3030)  can1  585FF72   [8]  03 80 60 09 60 09 F5 8A
 (2.3030)  can1  586FF72   [8]  01 80 FF FF FF FF F9 9F
 (2.3050)  can1  8100302   [5]  01 00 0A 00 18
 (2.3090)  can1  595FF71   [8]  05 80 60 09 60 09 FF 5D
 (2.3090)  can1  596FF71   [8]  01 80 FF FF FF FF F8 9F
 (2.3100)  can1  4100209   [8]  AB 35 13 00 00 00 00 00
 (2.3110)  can1  4100208   [8]  2B 10 13 00 00 00 00 00
 (2.3150)  can1  404FF03   [1]  00
 (2.3150)  can1  18800401   [8]  0F 91 8C 34 8D 61 8D 00
 (2.3160)  can1  18840401   [8]  0F A8 8C 49 8D 79 8D 00
 (2.3160)  can1  18C00401   [8]  0F 28 31 B0 30 73 31 00
 (2.3170)  can1  8250C03   [8]  53 00 46 01 00 00 24 00
 (2.3170)  can1  588FF72   [8]  A0 01 54 FF FF FF F6 59
 (2.3180)  can1  589FF72   [8]  1A E0 02 82 02 00 F6 D1
 (2.3180)  can1  8840C03   [8]  6C 00 13 00 21 00 07 00
 (2.3180)  can1  88D0C03   [8]  2D 00 00 00 5F 00 67 00
 (2.3190)  can1  8A00C03   [1]  0E
 (2.3190)  can1  8B50C03   [2]  BF 1F
 (2.3200)  can1  4100209   [8]  AB 35 13 00 00 00 00 00
 (2.3210)  can1  89A0C02   [8]  CC 0B 00 00 CC 0B 00 00
 (2.3210)  can1  8030C02   [8]  00 00 2A 68 2A 68 92 17
 (2.3220)  can1  8580C02   [8]  00 00 00 00 00 00 00 00
 (2.3220)  can1  4100208   [8]  2B 10 13 00 00 00 00 00
 (2.3230)  can1  585FF72   [8]  03 80 60 09 60 09 F6 8A
 (2.3230)  can1  586FF72   [8]  00 80 FF FF FF FF FA CB
 (2.3290)  can1  595FF71   [8]  05 80 60 09 60 09 F0 5D
 (2.3290)  can1  596FF71   [8]  01 80 FF FF FF FF F9 9F
 (2.3300)  can1  4100209   [8]  AB 35 13 00 00 00 00 00
 (2.3310)  can1  8100302   [5]  01 00 0A 00 18
 (2.3310)  can1  4100208   [8]  2B 10 13 00 00 00 00 00
 (2.3400)  can1  4100209   [8]  AB 35 13 00 00 00 00 00
 (2.3410)  can1  5807202   [8]  03 80 00 00 E0 01 0C BF
 (2.3410)  can1  5817202   [8]  01 00 10 27 10 27 0F E3
 (2.3420)  can1  4100208   [8]  2B 10 13 00 00 00 00 00
 (2.3430)  can1  5907102   [8]  05 80 00 00 E0 01 0C 68
 (2.3430)  can1  5827202   [8]  FA 00 00 00 00 00 0C D4
 (2.3440)  can1  585FF72   [8]  03 80 60 09 60 09 F7 8A
 (2.3440)  can1  586FF72   [8]  FF 7F FF FF FF FF FB 19
 (2.3440)  can1  5837202   [8]  2C 41 06 00 00 00 0C E0
 (2.3450)  can1  5917102   [8]  01 00 10 27 10 27 0F E3
 (2.3450)  can1  5927102   [8]  FA 00 00 00 00 00 0C D4
 (2.3460)  can1  5937102   [8]  2C 41 06 00 00 00 0C E0
 (2.3460)  can1  5847270   [8]  00 00 00 00 00 00 0C 9F
 (2.3470)  can1  5947102   [8]  00 00 00 00 00 00 0C 9F
 (2.3470)  can1  404FF07   [1]  00
 (2.3470)  can1  8010C01   [8]  56 62 00 00 00 00 00 00
 (2.3470)  can1  8030C02   [8]  00 00 2A 68 2A 68 92 17
 (2.3480)  can1  8101201   [8]  D4 62 CD 8D F6 89 60 00
 (2.3480)  can1  8580C02   [8]  00 00 00 00 00 00 00 00
 (2.3480)  can1  89A0C02   [8]  CC 0B 00 00 00 00 00 00
 (2.3490)  can1  1948FF72   [8]  00 C0 00 55 FF FF BA CD
 (2.3490)  can1  595FF71   [8]  05 80 60 09 60 09 F1 5D
 (2.3500)  can1  596FF71   [8]  00 80 FF FF FF FF FA CB
 (2.3500)  can1  599FF71   [8]  1A E0 02 82 02 00 F6 D1
 (2.3500)  can1  4100209   [8]  AB 35 13 00 00 00 00 00
 (2.3510)  can1  4100208   [8]  2B 10 13 00 00 00 00 00
 (2.3550)  can1  8100302   [5]  01 00 0A 00 18
 (2.3600)  can1  4100209   [8]  AB 35 13 00 00 00 00 00
 (2.3610)  can1  89A0C02   [8]  00 00 00 00 00 00 00 00
 (2.3610)  can1  8030C02   [8]  00 00 2A 68 2A 68 92 17
 (2.3620)  can1  8580C02   [8]  00 00 00 00 00 00 00 00
 (2.3620)  can1  4100208   [8]  2B 10 13 00 00 00 00 00
 (2.3630)  can1  585FF72   [8]  03 80 60 09 60 09 F8 8A
 (2.3630)  can1  586FF72   [8]  FF 7F FF FF FF FF FC 19
 (2.3640)  can1  587FF72   [8]  00 08 CA 0F FF FF F6 8C
 (2.3640)  can1  404FF01   [1]  00
 (2.3640)  can1  8041001   [8]  01 02 70 32 04 AF 3B 00
 (2.3650)  can1  8120C01   [8]  04 00 00 00 00 00 00 00
 (2.3660)  can1  80F1201   [4]  E6 0F 00 00
 (2.3660)  can1  18800401   [8]  10 59 8D 5D 8D 4C 8D 00
 (2.3660)  can1  18840401   [8]  10 75 8D 78 8D 66 8D 00
 (2.3670)  can1  18C00401   [8]  10 BE 30 80 31 62 30 00
 (2.3690)  can1  595FF71   [8]  05 80 60 09 60 09 F2 5D
 (2.3700)  can1  596FF71   [8]  FF 7F FF FF FF FF FB 19
 (2.3700)  can1  597FF71   [8]  0E 08 E2 0F FF FF F6 72
 (2.3710)  can1  598FF71   [8]  40 01 78 FF FF FF F6 CA
 (2.3710)  can1  4100209   [8]  AB 35 13 00 00 00 00 00
 (2.3710)  can1  4100208   [8]  2B 10 13 00 00 00 00 00
 (2.3740)  can1  1948FF71   [8]  00 C0 00 55 FF FF BA CD
 (2.3750)  can1  1949FF71   [8]  0D 80 00 0D A0 00 BB F5
 (2.3750)  can1  194AFF71   [8]  35 77 57 86 35 58 BC D2
 (2.3750)  can1  194BFF71   [8]  86 F5 FF FF FF FF BD 34
 (2.3760)  can1  194CFF71   [8]  FF FF FF FF FF FF BE B8
 (2.3800)  can1  4100209   [8]  AB 35 13 00 00 00 00 00
 (2.3810)  can1  404FF02   [1]  00
 (2.3810)  can1  8100302   [5]  01 00 0A 00 18
 (2.3810)  can1  89A0C02   [8]  00 00 00 00 00 00 00 00
 (2.3820)  can1  4100208   [8]  2B 10 13 00 00 00 00 00
 (2.3830)  can1  8030C02   [8]  00 00 2A 68 2A 68 92 17
 (2.3830)  can1  8580C02   [8]  00 00 00 00 00 00 00 00
 (2.3840)  can1  585FF72   [8]  03 80 60 09 60 09 F9 8A
 (2.3840)  can1  586FF72   [8]  00 80 FF FF FF FF FD CB
 (2.3840)  can1  1949FF72   [8]  0D 80 00 0D B0 00 BB 05
 (2.3840)  can1  194AFF72   [8]  64 37 58 80 A5 57 BC 2B
 (2.3850)  can1  194BFF72   [8]  7D F5 FF FF FF FF BD 2B
 (2.3850)  can1  194CFF72   [8]  FF FF FF FF FF FF BE B8
 (2.3890)  can1  595FF71   [8]  05 80 60 09 60 09 F3 5D
 (2.3890)  can1  596FF71   [8]  00 80 FF FF FF FF FC CB
 (2.3900)  can1  4100209   [8]  AB 35 13 00 00 00 00 00
 (2.3910)  can1  4100208   [8]  2B 10 13 00 00 00 00 00
 (2.4000)  can1  4100209   [8]  AB 35 13 00 00 00 00 00
 (2.4010)  can1  5807202   [8]  03 80 00 00 E0 01 0D BF
 (2.4010)  can1  5817202   [8]  01 00 10 27 10 27 00 E3
 (2.4020)  can1  4100208   [8]  2B 10 13 00 00 00 00 00
 (2.4030)  can1  5907102   [8]  05 80 00 00 E0 01 0D 68
 (2.4030)  can1  5827202   [8]  FA 00 00 00 00 00 0D D4
 (2.4030)  can1  585FF72   [8]  03 80 60 09 60 09 FA 8A
 (2.4040)  can1  586FF72   [8]  FD 7F FF FF FF FF FE B1
 (2.4040)  can1  5837202   [8]  2C 41 06 00 00 00 0D E0
 (2.4050)  can1  5917102   [8]  01 00 10 27 10 27 00 E3
 (2.4050)  can1  5927102   [8]  FA 00 00 00 00 00 0D D4
 (2.4060)  can1  5937102   [8]  2C 41 06 00 00 00 0D E0
 (2.4060)  can1  5847270   [8]  00 00 00 00 00 00 0D 9F
 (2.4070)  can1  5947102   [8]  00 00 00 00 00 00 0D 9F
 (2.4070)  can1  89A0C02   [8]  00 00 00 00 00 00 00 00
 (2.4070)  can1  8030C02   [8]  00 00 2A 68 2A 68 92 17
 (2.4080)  can1  8580C02   [8]  00 00 00 00 00 00 00 00
 (2.4080)  can1  8100302   [5]  01 00 0A 00 18
 (2.4090)  can1  595FF71   [8]  05 80 60 09 60 09 F4 5D
 (2.4090)  can1  596FF71   [8]  00 80 FF FF FF FF FD CB
 (2.4100)  can1  4100209   [8]  AB 35 13 00 00 00 00 00
 (2.4110)  can1  4100208   [8]  2B 10 13 00 00 00 00 00
 (2.4150)  can1  18101203   [4]  DB 2C 4A 08
 (2.4150)  can1  18800401   [8]  11 0F 8D F4 8C 2D 8D 00
 (2.4150)  can1  18840401   [8]  11 2A 8D 0F 8D 43 8D 00
 (2.4160)  can1  18C00401   [8]  11 5A 31 15 30 10 31 00
 (2.4170)  can1  588FF72   [8]  A0 01 54 FF FF FF F7 59
 (2.4170)  can1  589FF72   [8]  1A E0 02 82 02 00 F7 D1
 (2.4200)  can1  4100209   [8]  AB 35 13 00 00 00 00 00
 (2.4210)  can1  89A0C02   [8]  00 00 00 00 00 00 00 00
 (2.4210)  can1  8030C02   [8]  00 00 2A 68 2A 68 92 17
 (2.4220)  can1  8580C02   [8]  00 00 FE FF 00 00 00 00
 (2.4220)  can1  4100208   [8]  2B 10 13 00 00 00 00 00
 (2.4230)  can1  585FF72   [8]  03 80 60 09 60 09 FB 8A
 (2.4230)  can1  586FF72   [8]  00 80 FF FF FF FF FF CB
 (2.4290)  can1  595FF71   [8]  05 80 60 09 60 09 F5 5D
 (2.4380)  can1  596FF71   [8]  01 80 FF FF FF FF FE 9F
 (2.4390)  can1  4100209   [8]  AB 35 13 00 00 00 00 00
 (2.4390)  can1  8100302   [5]  01 00 0A 00 18
 (2.4400)  can1  4100208   [8]  2B 10 13 00 00 00 00 00
 (2.4410)  can1  528FF72   [8]  07 00 30 00 00 00 34 00
 (2.4410)  can1  529FF72   [8]  00 00 43 00 0A 00 03 00
 (2.4420)  can1  52AFF72   [8]  14 14 14 14 14 14 1A 00
 (2.4420)  can1  52BFF72   [8]  11 16 11 14 00 FF 00 00
 (2.4420)  can1  52CFF72   [8]  00 00 EF FF EF FF 3A 00
 (2.4430)  can1  528FF71   [8]  00 00 56 00 00 00 56 00
 (2.4430)  can1  529FF71   [8]  09 00 49 00 0B 00 05 00
 (2.4430)  can1  52AFF71   [8]  14 14 14 14 14 14 14 00
 (2.4430)  can1  52BFF71   [8]  10 14 10 14 00 FF 00 00
 (2.4440)  can1  52CFF71   [8]  00 00 EF FF EF FF 3A 00
 (2.4440)  can1  4100209   [8]  AB 35 13 00 00 00 00 00
 (2.4440)  can1  8030C02   [8]  00 00 2A 68 2A 68 92 17
 (2.4440)  can1  8580C02   [8]  00 00 00 00 00 00 00 00
 (2.4450)  can1  4100208   [8]  2B 10 13 00 00 00 00 00
 (2.4450)  can1  89A0C02   [8]  CC 0B 00 00 00 00 00 00
 (2.4450)  can1  585FF72   [8]  03 80 60 09 60 09 FC 8A
 (2.4460)  can1  586FF72   [8]  FF 7F FF FF FF FF F0 19
 (2.4460)  can1  8101201   [8]  D3 62 CE 8D F8 89 55 00
 (2.4460)  can1  8010C01   [8]  59 62 00 00 00 00 00 00
 (2.4490)  can1  595FF71   [8]  05 80 60 09 60 09 F6 5D
 (2.4500)  can1  596FF71   [8]  03 80 FF FF FF FF FF 37
 (2.4500)  can1  599FF71   [8]  1A E0 02 82 02 00 F7 D1
 (2.4510)  can1  4100209   [8]  AB 35 13 00 00 00 00 00
 (2.4510)  can1  4100208   [8]  2B 10 13 00 00 00 00 00
 (2.4550)  can1  8100302   [5]  01 00 0A 00 18
 (2.4600)  can1  4100209   [8]  AB 35 13 00 00 00 00 00
 (2.4610)  can1  5807202   [8]  03 80 00 00 E0 01 0E BF
 (2.4610)  can1  5817202   [8]  01 00 10 27 10 27 01 E3
 (2.4620)  can1  4100208   [8]  2B 10 13 00 00 00 00 00
 (2.4620)  can1  5907102   [8]  05 80 00 00 E0 01 0E 68
 (2.4620)  can1  5827202   [8]  FA 00 00 00 00 00 0E D4
 (2.4630)  can1  585FF72   [8]  03 80 60 09 60 09 FD 8A
 (2.4640)  can1  586FF72   [8]  01 80 FF FF FF FF F1 9F
 (2.4640)  can1  5837202   [8]  2C 41 06 00 00 00 0E E0
 (2.4650)  can1  587FF72   [8]  05 08 CA 0F FF FF F7 A7
 (2.4650)  can1  5917102   [8]  01 00 10 27 10 27 01 E3
 (2.4660)  can1  5927102   [8]  FA 00 00 00 00 00 0E D4
 (2.4660)  can1  5847270   [8]  00 00 00 00 00 00 0E 9F
 (2.4670)  can1  5937102   [8]  2C 41 06 00 00 00 0E E0
 (2.4670)  can1  8041001   [8]  01 02 70 32 04 AF 3B 00
 (2.4670)  can1  5947102   [8]  00 00 00 00 00 00 0E 9F
 (2.4680)  can1  8580C02   [8]  02 00 00 00 00 00 00 00
 (2.4680)  can1  89A0C02   [8]  66 23 00 00 00 00 00 00
 (2.4680)  can1  18800401   [8]  12 74 8D 62 8D 2D 8D 00
 (2.4690)  can1  8030C02   [8]  00 00 2A 68 2A 68 92 17
 (2.4690)  can1  18840401   [8]  12 8C 8D 79 8D 43 8D 00
 (2.4690)  can1  18C00401   [8]  12 61 30 7E 2F 24 2F 00
 (2.4700)  can1  595FF71   [8]  05 80 60 09 60 09 F7 5D
 (2.4700)  can1  596FF71   [8]  FC 7F FF FF FF FF F0 E5
 (2.4710)  can1  597FF71   [8]  0E 08 E2 0F FF FF F7 72
 (2.4710)  can1  598FF71   [8]  40 01 78 FF FF FF F7 CA
 (2.4710)  can1  4100209   [8]  AB 35 13 00 00 00 00 00
 (2.4710)  can1  4100208   [8]  2B 10 13 00 00 00 00 00
 (2.4800)  can1  4100209   [8]  AB 35 13 00 00 00 00 00
 (2.4810)  can1  8100302   [5]  01 00 0A 00 18
 (2.4810)  can1  8580C02   [8]  FE FF 00 00 00 00 00 00
 (2.4820)  can1  89A0C02   [8]  00 00 00 00 CC 0B 00 00
 (2.4820)  can1  4100208   [8]  2B 10 13 00 00 00 00 00
 (2.4820)  can1  8030C02   [8]  00 00 2A 68 2A 68 92 17
 (2.4830)  can1  585FF72   [8]  03 80 60 09 60 09 FE 8A
 (2.4830)  can1  586FF72   [8]  00 80 FF FF FF FF F2 CB
 (2.4890)  can1  595FF71   [8]  05 80 60 09 60 09 F8 5D
 (2.4900)  can1  596FF71   [8]  00 80 FF FF FF FF F1 CB
 (2.4910)  can1  4100209   [8]  AB 35 13 00 00 00 00 00
 (2.4910)  can1  4100208   [8]  2B 10 13 00 00 00 00 00
 (2.5000)  can1  4100209   [8]  AB 35 13 00 00 00 00 00
 (2.5010)  can1  89A0C02   [8]  00 00 00 00 00 00 00 00
 (2.5010)  can1  8030C02   [8]  00 00 2A 68 2A 68 92 17
 (2.5010)  can1  8580C02   [8]  00 00 00 00 00 00 00 00
 (2.5020)  can1  4100208   [8]  2B 10 13 00 00 00 00 00
 (2.5020)  can1  585FF72   [8]  03 80 60 09 60 09 FF 8A
 (2.5030)  can1  586FF72   [8]  FD 7F FF FF FF FF F3 B1
 (2.5050)  can1  8100302   [5]  01 00 0A 00 18
 (2.5090)  can1  595FF71   [8]  05 80 60 09 60 09 F9 5D
 (2.5100)  can1  596FF71   [8]  FF 7F FF FF FF FF F2 19
 (2.5100)  can1  4100209   [8]  AB 35 13 00 00 00 00 00
 (2.5110)  can1  4100208   [8]  2B 10 13 00 00 00 00 00
 (2.5150)  can1  18800401   [8]  13 2A 8D FE 8C 11 8D 00
 (2.5150)  can1  18840401   [8]  13 41 8D 0F 8D 29 8D 00
 (2.5160)  can1  18C00401   [8]  13 0A 30 0A 30 BF 30 00
 (2.5170)  can1  588FF72   [8]  A0 01 54 FF FF FF F8 59
 (2.5170)  can1  589FF72   [8]  1A E0 02 82 02 00 F8 D1
 (2.5200)  can1  4100209   [8]  AB 35 13 00 00 00 00 00
 (2.5210)  can1  5807202   [8]  03 80 00 00 E0 01 0F BF
 (2.5210)  can1  5817202   [8]  01 00 10 27 10 27 02 E3
 (2.5220)  can1  4100208   [8]  2B 10 13 00 00 00 00 00
 (2.5220)  can1  5907102   [8]  05 80 00 00 E0 01 0F 68
 (2.5220)  can1  5827202   [8]  FA 00 00 00 00 00 0F D4
 (2.5230)  can1  585FF72   [8]  03 80 60 09 60 09 F0 8A
 (2.5240)  can1  586FF72   [8]  FE 7F FF FF FF FF F4 4D
 (2.5240)  can1  5837202   [8]  2C 41 06 00 00 00 0F E0
 (2.5250)  can1  5917102   [8]  01 00 10 27 10 27 02 E3
 (2.5250)  can1  5927102   [8]  FA 00 00 00 00 00 0F D4
 (2.5250)  can1  5937102   [8]  2C 41 06 00 00 00 0F E0
 (2.5250)  can1  5847270   [8]  00 00 00 00 00 00 0F 9F
 (2.5260)  can1  5947102   [8]  00 00 00 00 00 00 0F 9F
 (2.5260)  can1  89A0C02   [8]  00 00 00 00 00 00 00 00
 (2.5260)  can1  8030C02   [8]  00 00 2A 68 2A 68 92 17
 (2.5270)  can1  8580C02   [8]  00 00 FE FF 00 00 00 00
 (2.5290)  can1  595FF71   [8]  05 80 60 09 60 09 FA 5D
 (2.5290)  can1  596FF71   [8]  FF 7F FF FF FF FF F3 19
 (2.5300)  can1  4100209   [8]  AB 35 13 00 00 00 00 00
 (2.5310)  can1  8100302   [5]  01 00 0A 00 18
 (2.5310)  can1  4100208   [8]  2B 10 13 00 00 00 00 00
 (2.5400)  can1  4100209   [8]  AB 35 13 00 00 00 00 00
 (2.5410)  can1  89A0C02   [8]  00 00 00 00 00 00 00 00
 (2.5420)  can1  8030C02   [8]  00 00 2A 68 2A 68 92 17
 (2.5420)  can1  8580C02   [8]  00 00 FF FF 00 00 00 00
 (2.5420)  can1  4100208   [8]  2B 10 13 00 00 00 00 00
 (2.5430)  can1  585FF72   [8]  03 80 60 09 60 09 F1 8A
 (2.5430)  can1  586FF72   [8]  FE 7F FF FF FF FF F5 4D
 (2.5460)  can1  8101201   [8]  D3 62 D0 8D F8 89 6F 00
 (2.5460)  can1  8010C01   [8]  56 62 00 00 00 00 00 00
 (2.5490)  can1  595FF71   [8]  05 80 60 09 60 09 FB 5D
 (2.5500)  can1  596FF71   [8]  01 80 FF FF FF FF F4 9F
 (2.5500)  can1  599FF71   [8]  1A E0 02 82 02 00 F8 D1
 (2.5500)  can1  4100209   [8]  AB 35 13 00 00 00 00 00
 (2.5510)  can1  4100208   [8]  2B 10 13 00 00 00 00 00
 (2.5550)  can1  8100302   [5]  01 00 0A 00 18
 (2.5600)  can1  4100209   [8]  AB 35 13 00 00 00 00 00
 (2.5610)  can1  89A0C02   [8]  CC 0B 00 00 00 00 00 00
 (2.5610)  can1  8030C02   [8]  00 00 2A 68 2A 68 92 17
 (2.5620)  can1  8580C02   [8]  00 00 FF FF 00 00 00 00
 (2.5620)  can1  4100208   [8]  2B 10 13 00 00 00 00 00
 (2.5620)  can1  585FF72   [8]  03 80 60 09 60 09 F2 8A
 (2.5630)  can1  586FF72   [8]  00 80 FF FF FF FF F6 CB
 (2.5630)  can1  587FF72   [8]  FF 07 CA 0F FF FF F8 25
 (2.5630)  can1  8041001   [8]  01 02 70 32 04 AF 3B 00
 (2.5650)  can1  18800401   [8]  14 4A 8D 60 8D 5C 8D 00
 (2.5650)  can1  18840401   [8]  14 5D 8D 7B 8D 77 8D 00
 (2.5660)  can1  18C00401   [8]  14 3C 30 DE 30 43 30 00
 (2.5690)  can1  595FF71   [8]  05 80 60 09 60 09 FC 5D
 (2.5700)  can1  596FF71   [8]  FE 7F FF FF FF FF F5 4D
 (2.5710)  can1  597FF71   [8]  0D 08 E2 0F FF FF F8 8E
 (2.5710)  can1  598FF71   [8]  40 01 78 FF FF FF F8 CA
 (2.5710)  can1  4100209   [8]  AB 35 13 00 00 00 00 00
 (2.5710)  can1  4100208   [8]  2B 10 13 00 00 00 00 00
 (2.5800)  can1  4100209   [8]  AB 35 13 00 00 00 00 00
 (2.5810)  can1  5807202   [8]  03 80 00 00 E0 01 00 BF
 (2.5820)  can1  5817202   [8]  01 00 10 27 10 27 03 E3
 (2.5820)  can1  4100208   [8]  2B 10 13 00 00 00 00 00
 (2.5820)  can1  5907102   [8]  05 80 00 00 E0 01 00 68
 (2.5830)  can1  5827202   [8]  FA 00 00 00 00 00 00 D4
 (2.5840)  can1  585FF72   [8]  03 80 60 09 60 09 F3 8A
 (2.5840)  can1  586FF72   [8]  00 80 FF FF FF FF F7 CB
 (2.5850)  can1  5837202   [8]  2C 41 06 00 00 00 00 E0
 (2.5850)  can1  5917102   [8]  01 00 10 27 10 27 03 E3
 (2.5860)  can1  5927102   [8]  FA 00 00 00 00 00 00 D4
 (2.5860)  can1  5937102   [8]  2C 41 06 00 00 00 00 E0
 (2.5860)  can1  5847270   [8]  00 00 00 00 00 00 00 9F
 (2.5860)  can1  5947102   [8]  00 00 00 00 00 00 00 9F
 (2.5870)  can1  8100302   [5]  01 00 0A 00 18
 (2.5870)  can1  8580C02   [8]  FF FF 00 00 00 00 00 00
 (2.5870)  can1  89A0C02   [8]  00 00 00 00 00 00 00 00
 (2.5870)  can1  8030C02   [8]  00 00 2A 68 2A 68 92 17
 (2.5890)  can1  595FF71   [8]  05 80 60 09 60 09 FD 5D
 (2.5890)  can1  596FF71   [8]  FD 7F FF FF FF FF F6 B1
 (2.5900)  can1  4100209   [8]  AB 35 13 00 00 00 00 00
 (2.5910)  can1  4100208   [8]  2B 10 13 00 00 00 00 00
 (2.6000)  can1  4100209   [8]  AB 35 13 00 00 00 00 00
 (2.6010)  can1  89A0C02   [8]  00 00 00 00 00 00 00 00
 (2.6020)  can1  8030C02   [8]  00 00 2A 68 2A 68 92 17
 (2.6020)  can1  8580C02   [8]  FE FF 00 00 00 00 00 00
 (2.6030)  can1  4100208   [8]  2B 10 13 00 00 00 00 00
 (2.6030)  can1  585FF72   [8]  03 80 60 09 60 09 F4 8A
 (2.6030)  can1  586FF72   [8]  00 80 FF FF FF FF F8 CB
 (2.6040)  can1  1948FF72   [8]  00 C0 00 55 FF FF BF D2
 (2.6050)  can1  8100302   [5]  01 00 0A 00 18
 (2.6090)  can1  595FF71   [8]  05 80 60 09 60 09 FE 5D
 (2.6100)  can1  596FF71   [8]  FE 7F FF FF FF FF F7 4D
 (2.6100)  can1  4100209   [8]  AB 35 13 00 00 00 00 00
 (2.6110)  can1  4100208   [8]  2B 10 13 00 00 00 00 00
 (2.6150)  can1  18800401   [8]  15 84 8D 67 8D 29 8D 00
 (2.6160)  can1  18840401   [8]  15 9D 8D 80 8D 43 8D 00
 (2.6160)  can1  18C00401   [8]  15 F4 30 F6 2F C4 30 00
 (2.6170)  can1  588FF72   [8]  A0 01 54 FF FF FF F9 59
 (2.6170)  can1  589FF72   [8]  1A E0 02 82 02 00 F9 D1
 (2.6200)  can1  4100209   [8]  AB 35 13 00 00 00 00 00
 (2.6210)  can1  89A0C02   [8]  00 00 00 00 00 00 00 00
 (2.6210)  can1  8030C02   [8]  00 00 2A 68 2A 68 92 17
 (2.6220)  can1  8580C02   [8]  FF FF 00 00 00 00 00 00
 (2.6220)  can1  4100208   [8]  2B 10 13 00 00 00 00 00
 (2.6220)  can1  585FF72   [8]  03 80 60 09 60 09 F5 8A
 (2.6230)  can1  586FF72   [8]  FF 7F FF FF FF FF F9 19
 (2.6290)  can1  595FF71   [8]  05 80 60 09 60 09 FF 5D
 (2.6290)  can1  596FF71   [8]  00 80 FF FF FF FF F8 CB
 (2.6300)  can1  1948FF71   [8]  00 C0 00 55 FF FF BF D2
 (2.6310)  can1  1949FF71   [8]  0D 90 00 0D A0 00 C0 0A
 (2.6310)  can1  4100209   [8]  AB 35 13 00 00 00 00 00
 (2.6320)  can1  194AFF71   [8]  36 67 58 86 85 58 C1 19
 (2.6320)  can1  8100302   [5]  01 00 0A 00 18
 (2.6320)  can1  194BFF71   [8]  8B F5 FF FF FF FF C2 3E
 (2.6330)  can1  4100208   [8]  2B 10 13 00 00 00 00 00
 (2.6330)  can1  194CFF71   [8]  FF FF FF FF FF FF C3 BD
 (2.6370)  can1  1949FF72   [8]  0D 80 00 0D 90 00 C0 EA
 (2.6380)  can1  194AFF72   [8]  64 67 58 7A A5 57 C1 5A
 (2.6380)  can1  194BFF72   [8]  7A F5 FF FF FF FF C2 2D
 (2.6380)  can1  194CFF72   [8]  FF FF FF FF FF FF C3 BD
 (2.6400)  can1  4100209   [8]  AB 35 13 00 00 00 00 00
 (2.6410)  can1  5807202   [8]  03 80 00 00 E0 01 01 BF
 (2.6410)  can1  5817202   [8]  01 00 10 27 10 27 04 E3
 (2.6420)  can1  5907102   [8]  05 80 00 00 E0 01 01 68
 (2.6430)  can1  4100208   [8]  2B 10 13 00 00 00 00 00
 (2.6430)  can1  5827202   [8]  FA 00 00 00 00 00 01 D4
 (2.6430)  can1  585FF72   [8]  03 80 60 09 60 09 F6 8A
 (2.6440)  can1  586FF72   [8]  01 80 FF FF FF FF FA 9F
 (2.6440)  can1  5837202   [8]  2C 41 06 00 00 00 01 E0
 (2.6450)  can1  5917102   [8]  01 00 10 27 10 27 04 E3
 (2.6450)  can1  5927102   [8]  FA 00 00 00 00 00 01 D4
 (2.6450)  can1  5937102   [8]  2C 41 06 00 00 00 01 E0
 (2.6460)  can1  5847270   [8]  00 00 00 00 00 00 01 9F
 (2.6460)  can1  5947102   [8]  00 00 00 00 00 00 01 9F
 (2.6460)  can1  89A0C02   [8]  00 00 00 00 00 00 00 00
 (2.6460)  can1  8030C02   [8]  00 00 2A 68 2A 68 92 17
 (2.6470)  can1  8580C02   [8]  00 00 00 00 00 00 00 00
 (2.6470)  can1  8101201   [8]  D5 62 D0 8D F7 89 54 00
 (2.6480)  can1  8010C01   [8]  57 62 00 00 00 00 00 00
 (2.6490)  can1  595FF71   [8]  05 80 60 09 60 09 F0 5D
 (2.6490)  can1  596FF71   [8]  01 80 FF FF FF FF F9 9F
 (2.6500)  can1  599FF71   [8]  1A E0 02 82 02 00 F9 D1
 (2.6500)  can1  4100209   [8]  AB 35 13 00 00 00 00 00
 (2.6510)  can1  4100208   [8]  2B 10 13 00 00 00 00 00
 (2.6550)  can1  8100302   [5]  01 00 0A 00 18
 (2.6600)  can1  4100209   [8]  AB 35 13 00 00 00 00 00
 (2.6610)  can1  89A0C02   [8]  CC 0B 00 00 CC 0B 00 00
 (2.6610)  can1  8030C02   [8]  00 00 2A 68 2A 68 92 17
 (2.6620)  can1  8580C02   [8]  00 00 00 00 00 00 00 00
 (2.6620)  can1  4100208   [8]  2B 10 13 00 00 00 00 00
 (2.6630)  can1  585FF72   [8]  03 80 60 09 60 09 F7 8A
 (2.6630)  can1  586FF72   [8]  FE 7F FF FF FF FF FB 4D
 (2.6640)  can1  587FF72   [8]  01 08 C8 0F FF FF F9 9D
 (2.6640)  can1  8041001   [8]  01 02 70 32 04 AF 3B 00
 (2.6650)  can1  18800401   [8]  16 0C 8D 4D 8D 80 8D 00
 (2.6650)  can1  18840401   [8]  16 24 8D 68 8D 98 8D 00
 (2.6660)  can1  18C00401   [8]  16 E6 2F 75 30 6A 2F 00
 (2.6690)  can1  595FF71   [8]  05 80 60 09 60 09 F1 5D
 (2.6700)  can1  596FF71   [8]  00 80 FF FF FF FF FA CB
 (2.6700)  can1  597FF71   [8]  05 08 E2 0F FF FF F9 70
 (2.6700)  can1  598FF71   [8]  40 01 78 FF FF FF F9 CA
 (2.6710)  can1  4100209   [8]  AB 35 13 00 00 00 00 00
 (2.6710)  can1  4100208   [8]  2B 10 13 00 00 00 00 00
 (2.6800)  can1  4100209   [8]  AB 35 13 00 00 00 00 00
 (2.6810)  can1  8100302   [5]  01 00 0A 00 18
 (2.6810)  can1  8580C02   [8]  00 00 FF FF 00 00 00 00
 (2.6820)  can1  89A0C02   [8]  00 00 00 00 00 00 00 00
 (2.6830)  can1  4100208   [8]  2B 10 13 00 00 00 00 00
 (2.6830)  can1  8030C02   [8]  00 00 2A 68 2A 68 92 17
 (2.6830)  can1  585FF72   [8]  03 80 60 09 60 09 F8 8A
 (2.6830)  can1  586FF72   [8]  01 80 FF FF FF FF FC 9F
 (2.6890)  can1  595FF71   [8]  05 80 60 09 60 09 F2 5D
 (2.6900)  can1  596FF71   [8]  FF 7F FF FF FF FF FB 19
 (2.6900)  can1  4100209   [8]  AB 35 13 00 00 00 00 00
 (2.6910)  can1  4100208   [8]  2B 10 13 00 00 00 00 00
 (2.7000)  can1  4100209   [8]  AB 35 13 00 00 00 00 00
 (2.7010)  can1  5807202   [8]  03 80 00 00 E0 01 02 BF
 (2.7010)  can1  5817202   [8]  01 00 10 27 10 27 05 E3
 (2.7020)  can1  5907102   [8]  05 80 00 00 E0 01 02 68
 (2.7030)  can1  4100208   [8]  2B 10 13 00 00 00 00 00
 (2.7030)  can1  5827202   [8]  FA 00 00 00 00 00 02 D4
 (2.7040)  can1  585FF72   [8]  03 80 60 09 60 09 F9 8A
 (2.7040)  can1  586FF72   [8]  FE 7F FF FF FF FF FD 4D
 (2.7040)  can1  5837202   [8]  2C 41 06 00 00 00 02 E0
 (2.7050)  can1  5917102   [8]  01 00 10 27 10 27 05 E3
 (2.7050)  can1  5927102   [8]  FA 00 00 00 00 00 02 D4
 (2.7050)  can1  5937102   [8]  2C 41 06 00 00 00 02 E0
 (2.7060)  can1  5847270   [8]  00 00 00 00 00 00 02 9F
 (2.7060)  can1  5947102   [8]  00 00 00 00 00 00 02 9F
 (2.7060)  can1  89A0C02   [8]  00 00 00 00 CC 0B 00 00
 (2.7070)  can1  8030C02   [8]  00 00 2A 68 2A 68 92 17
 (2.7070)  can1  8580C02   [8]  00 00 00 00 00 00 00 00
 (2.7070)  can1  8100302   [5]  01 00 0A 00 18
 (2.7090)  can1  595FF71   [8]  05 80 60 09 60 09 F3 5D
 (2.7100)  can1  596FF71   [8]  FF 7F FF FF FF FF FC 19
 (2.7100)  can1  4100209   [8]  AB 35 13 00 00 00 00 00
 (2.7110)  can1  4100208   [8]  2B 10 13 00 00 00 00 00
 (2.7150)  can1  18800401   [8]  17 6C 8D 00 00 00 00 00
 (2.7150)  can1  18840401   [8]  17 84 8D 00 00 00 00 00
 (2.7160)  can1  18C00401   [8]  17 A9 2F 10 27 10 27 00
 (2.7170)  can1  588FF72   [8]  A0 01 54 FF FF FF FA 59
 (2.7170)  can1  589FF72   [8]  1A E0 02 82 02 00 FA D1
 (2.7200)  can1  4100209   [8]  AB 35 13 00 00 00 00 00
 (2.7210)  can1  89A0C02   [8]  00 00 00 00 00 00 00 00
 (2.7210)  can1  8030C02   [8]  00 00 2A 68 2A 68 92 17
 (2.7210)  can1  8580C02   [8]  00 00 FF FF 00 00 00 00
 (2.7220)  can1  4100208   [8]  2B 10 13 00 00 00 00 00
 (2.7220)  can1  585FF72   [8]  03 80 60 09 60 09 FA 8A
 (2.7230)  can1  586FF72   [8]  FD 7F FF FF FF FF FE B1
 (2.7290)  can1  595FF71   [8]  05 80 60 09 60 09 F4 5D
 (2.7300)  can1  596FF71   [8]  FE 7F FF FF FF FF FD 4D
 (2.7300)  can1  4100209   [8]  AB 35 13 00 00 00 00 00
 (2.7310)  can1  8100302   [5]  01 00 0A 00 18
 (2.7310)  can1  4100208   [8]  2B 10 13 00 00 00 00 00
 (2.7400)  can1  4100209   [8]  AB 35 13 00 00 00 00 00
 (2.7410)  can1  89A0C02   [8]  00 00 00 00 00 00 00 00
 (2.7410)  can1  8030C02   [8]  00 00 2A 68 2A 68 92 17
 (2.7410)  can1  8580C02   [8]  FF FF FE FF 00 00 00 00
 (2.7420)  can1  4100208   [8]  2B 10 13 00 00 00 00 00
 (2.7420)  can1  585FF72   [8]  03 80 60 09 60 09 FB 8A
 (2.7430)  can1  586FF72   [8]  FF 7F FF FF FF FF FF 19
 (2.7480)  can1  8101201   [8]  D1 62 D0 8D F8 89 58 00
 (2.7490)  can1  8010C01   [8]  57 62 00 00 00 00 00 00
 (2.7490)  can1  595FF71   [8]  05 80 60 09 60 09 F5 5D
 (2.7500)  can1  596FF71   [8]  FF 7F FF FF FF FF FE 19
 (2.7500)  can1  599FF71   [8]  1A E0 02 82 02 00 FA D1
 (2.7500)  can1  4100209   [8]  AB 35 13 00 00 00 00 00
 (2.7510)  can1  4100208   [8]  2B 10 13 00 00 00 00 00
 (2.7550)  can1  8100302   [5]  01 00 0A 00 18
 (2.7600)  can1  4100209   [8]  AB 35 13 00 00 00 00 00
 (2.7610)  can1  5807202   [8]  03 80 00 00 E0 01 03 BF
 (2.7610)  can1  5817202   [8]  01 00 10 27 10 27 06 E3
 (2.7620)  can1  5907102   [8]  05 80 00 00 E0 01 03 68
 (2.7620)  can1  4100208   [8]  2B 10 13 00 00 00 00 00
 (2.7630)  can1  5827202   [8]  FA 00 00 00 00 00 03 D4
 (2.7640)  can1  585FF72   [8]  03 80 60 09 60 09 FC 8A
 (2.7640)  can1  586FF72   [8]  01 80 FF FF FF FF F0 9F
 (2.7640)  can1  5837202   [8]  2C 41 06 00 00 00 03 E0
 (2.7650)  can1  587FF72   [8]  03 08 C8 0F FF FF FA 35
 (2.7650)  can1  5917102   [8]  01 00 10 27 10 27 06 E3
 (2.7660)  can1  5927102   [8]  FA 00 00 00 00 00 03 D4
 (2.7660)  can1  5847270   [8]  00 00 00 00 00 00 03 9F
 (2.7660)  can1  5937102   [8]  2C 41 06 00 00 00 03 E0
 (2.7670)  can1  8041001   [8]  01 02 70 32 04 AF 3B 00
 (2.7670)  can1  5947102   [8]  00 00 00 00 00 00 03 9F
 (2.7670)  can1  8580C02   [8]  00 00 00 00 00 00 00 00
 (2.7680)  can1  89A0C02   [8]  00 00 00 00 00 00 00 00
 (2.7680)  can1  18800401   [8]  00 CA 8D E6 8C BB 8C 00
 (2.7680)  can1  8030C02   [8]  00 00 2A 68 2A 68 92 17
 (2.7680)  can1  18840401   [8]  00 E7 8D FE 8C C2 8C 00
 (2.7690)  can1  18C00401   [8]  00 40 30 44 2F D0 30 00
 (2.7690)  can1  595FF71   [8]  05 80 60 09 60 09 F6 5D
 (2.7700)  can1  596FF71   [8]  FE 7F FF FF FF FF FF 4D
 (2.7700)  can1  597FF71   [8]  0D 08 E4 0F FF FF FA 41
 (2.7700)  can1  598FF71   [8]  40 01 78 FF FF FF FA CA
 (2.7710)  can1  4100209   [8]  AB 35 13 00 00 00 00 00
 (2.7710)  can1  4100208   [8]  2B 10 13 00 00 00 00 00
 (2.7800)  can1  4100209   [8]  AB 35 13 00 00 00 00 00
 (2.7810)  can1  8100302   [5]  01 00 0A 00 18
 (2.7810)  can1  8580C02   [8]  FF FF 00 00 00 00 00 00
 (2.7810)  can1  89A0C02   [8]  00 00 00 00 CC 0B 00 00
 (2.7820)  can1  4100208   [8]  2B 10 13 00 00 00 00 00
 (2.7820)  can1  8030C02   [8]  00 00 2A 68 2A 68 92 17
 (2.7830)  can1  585FF72   [8]  03 80 60 09 60 09 FD 8A
 (2.7830)  can1  586FF72   [8]  00 80 FF FF FF FF F1 CB
 (2.7890)  can1  595FF71   [8]  05 80 60 09 60 09 F7 5D
 (2.7900)  can1  596FF71   [8]  01 80 FF FF FF FF F0 9F
 (2.7900)  can1  4100209   [8]  AB 35 13 00 00 00 00 00
 (2.7910)  can1  4100208   [8]  2B 10 13 00 00 00 00 00
 (2.8000)  can1  4100209   [8]  AB 35 13 00 00 00 00 00
 (2.8010)  can1  89A0C02   [8]  CC 0B 00 00 00 00 00 00
 (2.8010)  can1  8030C02   [8]  00 00 2A 68 2A 68 92 17
 (2.8020)  can1  8580C02   [8]  00 00 00 00 00 00 00 00
 (2.8020)  can1  4100208   [8]  2B 10 13 00 00 00 00 00
 (2.8020)  can1  585FF72   [8]  03 80 60 09 60 09 FE 8A
 (2.8020)  can1  586FF72   [8]  FF 7F FF FF FF FF F2 19
 (2.8050)  can1  8100302   [5]  01 00 0A 00 18
 (2.8090)  can1  595FF71   [8]  05 80 60 09 60 09 F8 5D
 (2.8100)  can1  596FF71   [8]  00 80 FF FF FF FF F1 CB
 (2.8100)  can1  4100209   [8]  AB 35 13 00 00 00 00 00
 (2.8110)  can1  4100208   [8]  2B 10 13 00 00 00 00 00
 (2.8150)  can1  18800401   [8]  01 C5 8C 04 8D FA 8C 00
 (2.8150)  can1  18840401   [8]  01 E0 8C 1C 8D 11 8D 00
 (2.8160)  can1  18C00401   [8]  01 20 30 06 31 63 30 00
 (2.8170)  can1  588FF72   [8]  A0 01 54 FF FF FF FB 59
 (2.8170)  can1  589FF72   [8]  1A E0 02 82 02 00 FB D1
 (2.8200)  can1  4100209   [8]  AB 35 13 00 00 00 00 00
 (2.8210)  can1  5807202   [8]  03 80 00 00 E0 01 04 BF
 (2.8220)  can1  5817202   [8]  01 00 10 27 10 27 07 E3
 (2.8220)  can1  5907102   [8]  05 80 00 00 E0 01 04 68
 (2.8230)  can1  4100208   [8]  2B 10 13 00 00 00 00 00
 (2.8240)  can1  5827202   [8]  FA 00 00 00 00 00 04 D4
 (2.8240)  can1  585FF72   [8]  03 80 60 09 60 09 FF 8A
 (2.8240)  can1  586FF72   [8]  FF 7F FF FF FF FF F3 19
 (2.8250)  can1  5837202   [8]  2C 41 06 00 00 00 04 E0
 (2.8250)  can1  5917102   [8]  01 00 10 27 10 27 07 E3
 (2.8260)  can1  5927102   [8]  FA 00 00 00 00 00 04 D4
 (2.8260)  can1  5937102   [8]  2C 41 06 00 00 00 04 E0
 (2.8260)  can1  5847270   [8]  00 00 00 00 00 00 04 9F
 (2.8260)  can1  5947102   [8]  00 00 00 00 00 00 04 9F
 (2.8270)  can1  89A0C02   [8]  00 00 00 00 00 00 00 00
 (2.8270)  can1  8030C02   [8]  00 00 2A 68 2A 68 92 17
 (2.8270)  can1  8580C02   [8]  00 00 00 00 00 00 00 00
 (2.8290)  can1  595FF71   [8]  05 80 60 09 60 09 F9 5D
 (2.8300)  can1  596FF71   [8]  FD 7F FF FF FF FF F2 B1
 (2.8300)  can1  4100209   [8]  AB 35 13 00 00 00 00 00
 (2.8310)  can1  8100302   [5]  01 00 0A 00 18
 (2.8310)  can1  4100208   [8]  2B 10 13 00 00 00 00 00
 (2.8400)  can1  4100209   [8]  AB 35 13 00 00 00 00 00
 (2.8410)  can1  89A0C02   [8]  00 00 00 00 00 00 00 00
 (2.8410)  can1  8030C02   [8]  00 00 2A 68 2A 68 92 17
 (2.8420)  can1  8580C02   [8]  FE FF 00 00 00 00 00 00
 (2.8420)  can1  4100208   [8]  2B 10 13 00 00 00 00 00
 (2.8430)  can1  585FF72   [8]  03 80 60 09 60 09 F0 8A
 (2.8430)  can1  586FF72   [8]  FD 7F FF FF FF FF F4 B1
 (2.8490)  can1  8101201   [8]  D3 62 CA 8D F7 89 5D 00
 (2.8490)  can1  595FF71   [8]  05 80 60 09 60 09 FA 5D
 (2.8500)  can1  596FF71   [8]  01 80 FF FF FF FF F3 9F
 (2.8500)  can1  599FF71   [8]  1A E0 02 82 02 00 FB D1
 (2.8510)  can1  8010C01   [8]  55 62 00 00 00 00 00 00
 (2.8510)  can1  4100209   [8]  AB 35 13 00 00 00 00 00
 (2.8520)  can1  4100208   [8]  2B 10 13 00 00 00 00 00
 (2.8560)  can1  8100302   [5]  01 00 0A 00 18
 (2.8570)  can1  1948FF72   [8]  00 C0 00 55 FF FF C4 D7
 (2.8600)  can1  4100209   [8]  AB 35 13 00 00 00 00 00
 (2.8610)  can1  89A0C02   [8]  CC 0B 00 00 00 00 00 00
 (2.8610)  can1  8030C02   [8]  00 00 2A 68 2A 68 92 17
 (2.8620)  can1  8580C02   [8]  00 00 FE FF 00 00 00 00
 (2.8620)  can1  4100208   [8]  2B 10 13 00 00 00 00 00
 (2.8620)  can1  585FF72   [8]  03 80 60 09 60 09 F1 8A
 (2.8630)  can1  586FF72   [8]  FF 7F FF FF FF FF F5 19
 (2.8630)  can1  587FF72   [8]  FE 07 CA 0F FF FF FB 71
 (2.8630)  can1  8041001   [8]  01 02 70 32 04 AF 3B 00
 (2.8650)  can1  18800401   [8]  02 13 8D 82 8D 67 8D 00
 (2.8660)  can1  18840401   [8]  02 2B 8D 9B 8D 7E 8D 00
 (2.8660)  can1  18C00401   [8]  02 E2 30 55 30 BB 30 00
 (2.8690)  can1  595FF71   [8]  05 80 60 09 60 09 FB 5D
 (2.8700)  can1  596FF71   [8]  FE 7F FF FF FF FF F4 4D
 (2.8700)  can1  597FF71   [8]  09 08 E2 0F FF FF FB F1
 (2.8700)  can1  598FF71   [8]  40 01 78 FF FF FF FB CA
 (2.8710)  can1  4100209   [8]  AB 35 13 00 00 00 00 00
 (2.8710)  can1  4100208   [8]  2B 10 13 00 00 00 00 00
 (2.8800)  can1  4100209   [8]  AB 35 13 00 00 00 00 00
 (2.8810)  can1  5807202   [8]  03 80 00 00 E0 01 05 BF
 (2.8810)  can1  5817202   [8]  01 00 10 27 10 27 08 E3
 (2.8820)  can1  5907102   [8]  05 80 00 00 E0 01 05 68
 (2.8830)  can1  4100208   [8]  2B 10 13 00 00 00 00 00
 (2.8830)  can1  5827202   [8]  FA 00 00 00 00 00 05 D4
 (2.8840)  can1  585FF72   [8]  03 80 60 09 60 09 F2 8A
 (2.8840)  can1  586FF72   [8]  00 80 FF FF FF FF F6 CB
 (2.8850)  can1  5837202   [8]  2C 41 06 00 00 00 05 E0
 (2.8850)  can1  5917102   [8]  01 00 10 27 10 27 08 E3
 (2.8850)  can1  5927102   [8]  FA 00 00 00 00 00 05 D4
 (2.8860)  can1  5937102   [8]  2C 41 06 00 00 00 05 E0
 (2.8870)  can1  5847270   [8]  00 00 00 00 00 00 05 9F
 (2.8870)  can1  5947102   [8]  00 00 00 00 00 00 05 9F
 (2.8870)  can1  1948FF71   [8]  00 C0 00 55 FF FF C4 D7
 (2.8880)  can1  8100302   [5]  01 00 0A 00 18
 (2.8880)  can1  8580C02   [8]  FF FF 00 00 00 00 00 00
 (2.8880)  can1  89A0C02   [8]  00 00 00 00 00 00 00 00
 (2.8880)  can1  8030C02   [8]  00 00 2A 68 2A 68 92 17
 (2.8890)  can1  1949FF71   [8]  0D 80 00 0E 90 00 C5 F0
 (2.8890)  can1  194AFF71   [8]  36 67 58 86 65 58 C6 FE
 (2.8890)  can1  194BFF71   [8]  86 F5 FF FF FF FF C7 3E
 (2.8900)  can1  194CFF71   [8]  FF FF FF FF FF FF C8 C2
 (2.8900)  can1  595FF71   [8]  05 80 60 09 60 09 FC 5D
 (2.8900)  can1  596FF71   [8]  00 80 FF FF FF FF F5 CB
 (2.8910)  can1  4100209   [8]  AB 35 13 00 00 00 00 00
 (2.8910)  can1  4100208   [8]  2B 10 13 00 00 00 00 00
 (2.8920)  can1  1949FF72   [8]  0D 80 00 0C 80 00 C5 DE
 (2.8920)  can1  194AFF72   [8]  65 77 57 77 75 57 C6 3C
 (2.8930)  can1  194BFF72   [8]  77 F5 FF FF FF FF C7 2F
 (2.8930)  can1  194CFF72   [8]  FF FF FF FF FF FF C8 C2
 (2.9000)  can1  4100209   [8]  AB 35 13 00 00 00 00 00
 (2.9010)  can1  89A0C02   [8]  00 00 00 00 00 00 00 00
 (2.9020)  can1  8030C02   [8]  00 00 2A 68 2A 68 92 17
 (2.9020)  can1  8580C02   [8]  00 00 00 00 00 00 00 00
 (2.9030)  can1  4100208   [8]  2B 10 13 00 00 00 00 00
 (2.9030)  can1  585FF72   [8]  03 80 60 09 60 09 F3 8A
 (2.9030)  can1  586FF72   [8]  01 80 FF FF FF FF F7 9F
 (2.9050)  can1  8100302   [5]  01 00 0A 00 18
 (2.9090)  can1  595FF71   [8]  05 80 60 09 60 09 FD 5D
 (2.9100)  can1  596FF71   [8]  FD 7F FF FF FF FF F6 B1
 (2.9100)  can1  4100209   [8]  AB 35 13 00 00 00 00 00
 (2.9110)  can1  4100208   [8]  2B 10 13 00 00 00 00 00
 (2.9150)  can1  18101203   [4]  D6 2C E0 07
 (2.9150)  can1  18800401   [8]  03 33 8D 19 8D 4C 8D 00
 (2.9160)  can1  18840401   [8]  03 4D 8D 33 8D 65 8D 00
 (2.9160)  can1  18C00401   [8]  03 4B 30 7D 30 FA 2F 00
 (2.9170)  can1  588FF72   [8]  A0 01 54 FF FF FF FC 59
 (2.9180)  can1  589FF72   [8]  1A E0 02 82 02 00 FC D1
 (2.9200)  can1  4100209   [8]  AB 35 13 00 00 00 00 00
 (2.9210)  can1  89A0C02   [8]  00 00 00 00 CC 0B 00 00
 (2.9210)  can1  8030C02   [8]  00 00 2A 68 2A 68 92 17
 (2.9220)  can1  8580C02   [8]  FE FF 00 00 00 00 00 00
 (2.9220)  can1  4100208   [8]  2B 10 13 00 00 00 00 00
 (2.9220)  can1  585FF72   [8]  03 80 60 09 60 09 F4 8A
 (2.9230)  can1  586FF72   [8]  FF 7F FF FF FF FF F8 19
 (2.9290)  can1  595FF71   [8]  05 80 60 09 60 09 FE 5D
 (2.9290)  can1  596FF71   [8]  FE 7F FF FF FF FF F7 4D
 (2.9300)  can1  4100209   [8]  AB 35 13 00 00 00 00 00
 (2.9310)  can1  8100302   [5]  01 00 0A 00 18
 (2.9310)  can1  4100208   [8]  2B 10 13 00 00 00 00 00
 (2.9320)  can1  528FF72   [8]  00 00 36 00 00 00 34 00
 (2.9330)  can1  529FF72   [8]  01 00 43 00 0A 00 03 00
 (2.9330)  can1  52CFF72   [8]  00 00 EF FF EF FF 3A 00
 (2.9390)  can1  528FF71   [8]  04 00 56 00 00 00 56 00
 (2.9400)  can1  529FF71   [8]  08 00 49 00 0B 00 05 00
 (2.9400)  can1  52CFF71   [8]  00 00 EF FF EF FF 3A 00
 (2.9410)  can1  4100209   [8]  AB 35 13 00 00 00 00 00
 (2.9410)  can1  5807202   [8]  03 80 00 00 E0 01 06 BF
 (2.9420)  can1  5817202   [8]  01 00 10 27 10 27 09 E3
 (2.9420)  can1  5907102   [8]  05 80 00 00 E0 01 06 68
 (2.9420)  can1  4100208   [8]  2B 10 13 00 00 00 00 00
 (2.9430)  can1  5827202   [8]  FA 00 00 00 00 00 06 D4
 (2.9440)  can1  585FF72   [8]  03 80 60 09 60 09 F5 8A
 (2.9440)  can1  586FF72   [8]  FE 7F FF FF FF FF F9 4D
 (2.9450)  can1  5837202   [8]  2C 41 06 00 00 00 06 E0
 (2.9450)  can1  5917102   [8]  01 00 10 27 10 27 09 E3
 (2.9460)  can1  5927102   [8]  FA 00 00 00 00 00 06 D4
 (2.9460)  can1  5937102   [8]  2C 41 06 00 00 00 06 E0
 (2.9460)  can1  5847270   [8]  00 00 00 00 00 00 06 9F
 (2.9460)  can1  5947102   [8]  00 00 00 00 00 00 06 9F
 (2.9460)  can1  89A0C02   [8]  00 00 00 00 00 00 00 00
 (2.9470)  can1  8030C02   [8]  00 00 2A 68 2A 68 92 17
 (2.9470)  can1  8580C02   [8]  FF FF 00 00 00 00 00 00
 (2.9490)  can1  8101201   [8]  D5 62 CC 8D F7 89 5A 00
 (2.9500)  can1  595FF71   [8]  05 80 60 09 60 09 FF 5D
 (2.9500)  can1  596FF71   [8]  FD 7F FF FF FF FF F8 B1
 (2.9510)  can1  599FF71   [8]  1A E0 02 82 02 00 FC D1
 (2.9510)  can1  4100209   [8]  AB 35 13 00 00 00 00 00
 (2.9520)  can1  8010C01   [8]  55 62 00 00 00 00 00 00
 (2.9520)  can1  4100208   [8]  2B 10 13 00 00 00 00 00
 (2.9550)  can1  8100302   [5]  01 00 0A 00 18
 (2.9600)  can1  4100209   [8]  AB 35 13 00 00 00 00 00
 (2.9610)  can1  89A0C02   [8]  00 00 00 00 00 00 00 00
 (2.9610)  can1  8030C02   [8]  00 00 2A 68 2A 68 92 17
 (2.9620)  can1  8580C02   [8]  FE FF FF FF 00 00 00 00
 (2.9620)  can1  4100208   [8]  2B 10 13 00 00 00 00 00
 (2.9620)  can1  585FF72   [8]  03 80 60 09 60 09 F6 8A
 (2.9630)  can1  586FF72   [8]  FE 7F FF FF FF FF FA 4D
 (2.9630)  can1  587FF72   [8]  00 08 C8 0F FF FF FC C9
 (2.9630)  can1  8041001   [8]  01 02 70 32 04 AF 3B 00
 (2.9650)  can1  18800401   [8]  04 68 8D 53 8D DD 89 00
 (2.9650)  can1  18840401   [8]  04 84 8D 6E 8D F7 89 00
 (2.9660)  can1  18C00401   [8]  04 96 2F 3B 2F 4F 30 00
 (2.9690)  can1  595FF71   [8]  05 80 60 09 60 09 F0 5D
 (2.9700)  can1  596FF71   [8]  00 80 FF FF FF FF F9 CB
 (2.9700)  can1  597FF71   [8]  06 08 E2 0F FF FF FC 8C
 (2.9710)  can1  598FF71   [8]  40 01 78 FF FF FF FC CA
 (2.9710)  can1  4100209   [8]  AB 35 13 00 00 00 00 00
 (2.9710)  can1  4100208   [8]  2B 10 13 00 00 00 00 00
 (2.9800)  can1  4100209   [8]  AB 35 13 00 00 00 00 00
 (2.9810)  can1  8100302   [5]  01 00 0A 00 18
 (2.9810)  can1  8580C02   [8]  00 00 FF FF 00 00 00 00
 (2.9810)  can1  89A0C02   [8]  00 00 00 00 00 00 00 00
 (2.9820)  can1  4100208   [8]  2B 10 13 00 00 00 00 00
 (2.9820)  can1  8030C02   [8]  00 00 2A 68 2A 68 92 17
 (2.9830)  can1  585FF72   [8]  03 80 60 09 60 09 F7 8A
 (2.9830)  can1  586FF72   [8]  FF 7F FF FF FF FF FB 19
 (2.9890)  can1  595FF71   [8]  05 80 60 09 60 09 F1 5D
 (2.9900)  can1  596FF71   [8]  01 80 FF FF FF FF FA 9F
 (2.9900)  can1  4100209   [8]  AB 35 13 00 00 00 00 00
 (2.9910)  can1  4100208   [8]  2B 10 13 00 00 00 00 00
 (3.0000)  can1  4100209   [8]  AB 35 13 00 00 00 00 00
 (3.0010)  can1  5807202   [8]  03 80 00 00 E0 01 07 BF
 (3.0010)  can1  5817202   [8]  01 00 10 27 10 27 0A E3
 (3.0020)  can1  5907102   [8]  05 80 00 00 E0 01 07 68
 (3.0020)  can1  4100208   [8]  2B 10 13 00 00 00 00 00
 (3.0030)  can1  5827202   [8]  FA 00 00 00 00 00 07 D4
 (3.0030)  can1  5917102   [8]  01 00 10 27 10 27 0A E3
 (3.0040)  can1  585FF72   [8]  03 80 60 09 60 09 F8 8A
 (3.0040)  can1  5837202   [8]  2C 41 06 00 00 00 07 E0
 (3.0050)  can1  586FF72   [8]  FD 7F FF FF FF FF FC B1
 (3.0050)  can1  5927102   [8]  FA 00 00 00 00 00 07 D4
 (3.0060)  can1  5937102   [8]  2C 41 06 00 00 00 07 E0
 (3.0060)  can1  5847270   [8]  00 00 00 00 00 00 07 9F
 (3.0070)  can1  5947102   [8]  00 00 00 00 00 00 07 9F
 (3.0070)  can1  89A0C02   [8]  CC 0B 00 00 00 00 00 00
 (3.0070)  can1  8030C02   [8]  00 00 2A 68 2A 68 92 17
 (3.0070)  can1  8580C02   [8]  00 00 00 00 00 00 00 00
 (3.0080)  can1  8100302   [5]  01 00 0A 00 18
 (3.0090)  can1  595FF71   [8]  05 80 60 09 60 09 F2 5D
 (3.0100)  can1  596FF71   [8]  00 80 FF FF FF FF FB CB
 (3.0100)  can1  4100209   [8]  AB 35 13 00 00 00 00 00
 (3.0110)  can1  4100208   [8]  2B 10 13 00 00 00 00 00
 (3.0150)  can1  18800401   [8]  05 47 8D 24 8D 2E 8D 00
 (3.0150)  can1  18840401   [8]  05 61 8D 3C 8D 4A 8D 00
 (3.0160)  can1  18C00401   [8]  05 A4 30 B7 30 2F 31 00
 (3.0170)  can1  588FF72   [8]  A0 01 54 FF FF FF FD 59
 (3.0180)  can1  589FF72   [8]  1A E0 02 82 02 00 FD D1
 (3.0200)  can1  4100209   [8]  AB 35 13 00 00 00 00 00
 (3.0210)  can1  89A0C02   [8]  00 00 00 00 00 00 00 00
 (3.0210)  can1  8030C02   [8]  00 00 2A 68 2A 68 92 17
 (3.0210)  can1  8580C02   [8]  00 00 FE FF 00 00 00 00
 (3.0220)  can1  4100208   [8]  2B 10 13 00 00 00 00 00
 (3.0220)  can1  585FF72   [8]  03 80 60 09 60 09 F9 8A
 (3.0230)  can1  586FF72   [8]  02 80 FF FF FF FF FD 63
 (3.0290)  can1  595FF71   [8]  05 80 60 09 60 09 F3 5D
 (3.0300)  can1  596FF71   [8]  00 80 FF FF FF FF FC CB
 (3.0300)  can1  4100209   [8]  AB 35 13 00 00 00 00 00
 (3.0310)  can1  8100302   [5]  01 00 0A 00 18
 (3.0320)  can1  4100208   [8]  2B 10 13 00 00 00 00 00
 (3.0400)  can1  4100209   [8]  AB 35 13 00 00 00 00 00
 (3.0410)  can1  89A0C02   [8]  00 00 00 00 99 17 00 00
 (3.0410)  can1  8030C02   [8]  00 00 2A 68 2A 68 92 17
 (3.0420)  can1  8580C02   [8]  00 00 01 00 00 00 00 00
 (3.0500)  can1  4100208   [8]  2B 10 13 00 00 00 00 00
 (3.0520)  can1  585FF72   [8]  03 80 60 09 60 09 FA 8A
 (3.0520)  can1  586FF72   [8]  01 80 FF FF FF FF FE 9F
 (3.0520)  can1  595FF71   [8]  05 80 60 09 60 09 F4 5D
 (3.0530)  can1  596FF71   [8]  01 80 FF FF FF FF FD 9F
 (3.0530)  can1  599FF71   [8]  1A E0 02 82 02 00 FD D1
 (3.0530)  can1  8101201   [8]  D6 62 CC 8D F7 89 50 00
 (3.0530)  can1  4100209   [8]  AB 35 13 00 00 00 00 00
 (3.0540)  can1  8010C01   [8]  56 62 00 00 00 00 00 00
 (3.0540)  can1  4100208   [8]  2B 10 13 00 00 00 00 00
 (3.0560)  can1  8100302   [5]  01 00 0A 00 18
 (3.0600)  can1  4100209   [8]  AB 35 13 00 00 00 00 00
 (3.0610)  can1  5807202   [8]  03 80 00 00 E0 01 08 BF
 (3.0610)  can1  5817202   [8]  01 00 10 27 10 27 0B E3
 (3.0610)  can1  5907102   [8]  05 80 00 00 E0 01 08 68
 (3.0620)  can1  4100208   [8]  2B 10 13 00 00 00 00 00
 (3.0620)  can1  5827202   [8]  FA 00 00 00 00 00 08 D4
 (3.0630)  can1  585FF72   [8]  03 80 60 09 60 09 FB 8A
 (3.0630)  can1  586FF72   [8]  FE 7F FF FF FF FF FF 4D
 (3.0640)  can1  5837202   [8]  2C 41 06 00 00 00 08 E0
 (3.0640)  can1  587FF72   [8]  02 08 CA 0F FF FF FD 24
 (3.0650)  can1  5917102   [8]  01 00 10 27 10 27 0B E3
 (3.0650)  can1  5927102   [8]  FA 00 00 00 00 00 08 D4
 (3.0660)  can1  5847270   [8]  00 00 00 00 00 00 08 9F
 (3.0670)  can1  5937102   [8]  2C 41 06 00 00 00 08 E0
 (3.0670)  can1  8041001   [8]  01 02 70 32 04 AF 3B 00
 (3.0670)  can1  5947102   [8]  00 00 00 00 00 00 08 9F
 (3.0670)  can1  8580C02   [8]  00 00 00 00 00 00 00 00
 (3.0670)  can1  89A0C02   [8]  CC 0B 00 00 CC 0B 00 00
