 (1.4430)  can1  4100208   [8]  6F 10 13 00 00 00 00 00
 (1.4520)  can1  595FF71   [8]  05 80 60 09 60 09 F9 5D
 (1.4530)  can1  596FF71   [8]  FE 7F FF FF FF FF F2 4D
 (1.4530)  can1  8100302   [5]  01 00 0A 00 18
 (1.4540)  can1  4100209   [8]  E9 35 13 00 00 00 00 00
 (1.4540)  can1  8030C02   [8]  00 00 2A 68 2A 68 92 17
 (1.4540)  can1  4100208   [8]  6F 10 13 00 00 00 00 00
 (1.4540)  can1  595FF71   [8]  05 80 60 09 60 09 FB 5D
 (1.4550)  can1  596FF71   [8]  FF 7F FF FF FF FF F4 19
 (1.4550)  can1  8100302   [5]  01 00 0A 00 18
 (1.4550)  can1  4100209   [8]  E9 35 13 00 00 00 00 00
 (1.4560)  can1  4100208   [8]  6F 10 13 00 00 00 00 00
 (1.4560)  can1  585FF72   [8]  03 80 60 09 60 09 F2 8A
 (1.4570)  can1  586FF72   [8]  FE 7F FF FF FF FF F7 4D
 (1.4590)  can1  89A0C02   [8]  00 00 00 00 00 00 00 00
 (1.4600)  can1  8030C02   [8]  00 00 2A 68 2A 68 92 17
 (1.4600)  can1  8580C02   [8]  00 00 FF FF 00 00 00 00
 (1.4620)  can1  4100209   [8]  E9 35 13 00 00 00 00 00
 (1.4630)  can1  4100208   [8]  6F 10 13 00 00 00 00 00
 (1.4640)  can1  595FF71   [8]  05 80 60 09 60 09 FC 5D
 (1.4640)  can1  596FF71   [8]  FF 7F FF FF FF FF F5 19
 (1.4720)  can1  4100209   [8]  E9 35 13 00 00 00 00 00
 (1.4730)  can1  4100208   [8]  6F 10 13 00 00 00 00 00
 (1.4740)  can1  8100302   [5]  01 00 0A 00 18
 (1.4760)  can1  8101201   [8]  F2 62 FC 8D 14 8A 48 00
 (1.4770)  can1  585FF72   [8]  03 80 60 09 60 09 F3 8A
 (1.4770)  can1  586FF72   [8]  00 80 FF FF FF FF F8 CB
 (1.4780)  can1  8010C01   [8]  77 62 00 00 00 00 00 00
 (1.4790)  can1  89A0C02   [8]  00 00 00 00 00 00 00 00
 (1.4800)  can1  8030C02   [8]  00 00 2A 68 2A 68 92 17
 (1.4800)  can1  8580C02   [8]  00 00 00 00 00 00 00 00
 (1.4810)  can1  8041001   [8]  01 02 50 33 03 A7 3B 00
 (1.4820)  can1  4100209   [8]  E9 35 13 00 00 00 00 00
 (1.4830)  can1  4100208   [8]  6F 10 13 00 00 00 00 00
 (1.4830)  can1  18800401   [8]  0E 5D 8D 4B 8D 25 8D 00
 (1.4840)  can1  18840401   [8]  0E 74 8D 62 8D 2F 8D 00
 (1.4840)  can1  18C00401   [8]  0E 2C 2F 7A 30 35 30 00
 (1.4850)  can1  595FF71   [8]  05 80 60 09 60 09 FD 5D
 (1.4850)  can1  596FF71   [8]  00 80 FF FF FF FF F6 CB
 (1.4920)  can1  4100209   [8]  E9 35 13 00 00 00 00 00
 (1.4930)  can1  4100208   [8]  6F 10 13 00 00 00 00 00
 (1.4940)  can1  599FF71   [8]  1A E0 02 82 02 00 FC D1
 (1.4960)  can1  585FF72   [8]  03 80 60 09 60 09 F4 8A
 (1.4970)  can1  586FF72   [8]  01 80 FF FF FF FF F9 9F
 (1.4990)  can1  5807202   [8]  03 80 00 00 E0 01 03 BF
 (1.4990)  can1  5817202   [8]  01 00 10 27 10 27 06 E3
 (1.5000)  can1  5907102   [8]  05 80 00 00 E0 01 03 68
 (1.5000)  can1  597FF71   [8]  02 08 E9 0F FF FF FC 38
 (1.5010)  can1  5827202   [8]  FA 00 00 00 00 00 03 D4
 (1.5010)  can1  5917102   [8]  01 00 10 27 10 27 06 E3
 (1.5020)  can1  5927102   [8]  FA 00 00 00 00 00 03 D4
 (1.5020)  can1  5837202   [8]  2C 41 06 00 00 00 03 E0
 (1.5020)  can1  5937102   [8]  2C 41 06 00 00 00 03 E0
 (1.5030)  can1  598FF71   [8]  40 01 78 FF FF FF FC CA
 (1.5040)  can1  5847270   [8]  00 00 00 00 00 00 03 9F
 (1.5040)  can1  5947102   [8]  00 00 00 00 00 00 03 9F
 (1.5050)  can1  4100209   [8]  E9 35 13 00 00 00 00 00
 (1.5060)  can1  8100302   [5]  01 00 0A 00 18
 (1.5060)  can1  8580C02   [8]  00 00 00 00 00 00 00 00
 (1.5060)  can1  89A0C02   [8]  00 00 00 00 CC 0B 00 00
 (1.5060)  can1  4100208   [8]  6F 10 13 00 00 00 00 00
 (1.5070)  can1  8030C02   [8]  00 00 2A 68 2A 68 92 17
 (1.5070)  can1  595FF71   [8]  05 80 60 09 60 09 FE 5D
 (1.5070)  can1  596FF71   [8]  00 80 FF FF FF FF F7 CB
 (1.5080)  can1  587FF72   [8]  02 08 CD 0F FF FF FC 5E
 (1.5120)  can1  4100209   [8]  E9 35 13 00 00 00 00 00
 (1.5130)  can1  4100208   [8]  6F 10 13 00 00 00 00 00
 (1.5170)  can1  585FF72   [8]  03 80 60 09 60 09 F5 8A
 (1.5170)  can1  586FF72   [8]  01 80 FF FF FF FF FA 9F
 (1.5190)  can1  89A0C02   [8]  00 00 00 00 CC 0B 00 00
 (1.5200)  can1  8030C02   [8]  00 00 2A 68 2A 68 92 17
 (1.5200)  can1  8580C02   [8]  00 00 00 00 00 00 00 00
 (1.5220)  can1  4100209   [8]  E9 35 13 00 00 00 00 00
 (1.5230)  can1  4100208   [8]  6F 10 13 00 00 00 00 00
 (1.5240)  can1  8100302   [5]  01 00 0A 00 18
 (1.5240)  can1  595FF71   [8]  05 80 60 09 60 09 FF 5D
 (1.5240)  can1  596FF71   [8]  FE 7F FF FF FF FF F8 4D
 (1.5320)  can1  4100209   [8]  E9 35 13 00 00 00 00 00
 (1.5330)  can1  4100208   [8]  6F 10 13 00 00 00 00 00
 (1.5340)  can1  18800401   [8]  0F C5 8C 5D 8D 90 8D 00
 (1.5340)  can1  18840401   [8]  0F DA 8C 75 8D A8 8D 00
 (1.5340)  can1  18C00401   [8]  0F 18 31 8A 30 69 31 00
 (1.5360)  can1  585FF72   [8]  03 80 60 09 60 09 F6 8A
 (1.5370)  can1  586FF72   [8]  FE 7F FF FF FF FF FB 4D
 (1.5380)  can1  588FF72   [8]  80 01 56 FF FF FF FD 95
 (1.5380)  can1  589FF72   [8]  1A D0 02 81 02 00 FD 87
 (1.5390)  can1  89A0C02   [8]  00 00 00 00 00 00 00 00
 (1.5390)  can1  8030C02   [8]  00 00 2A 68 2A 68 92 17
 (1.5400)  can1  8580C02   [8]  FF FF FF FF 00 00 00 00
 (1.5420)  can1  4100209   [8]  E9 35 13 00 00 00 00 00
 (1.5430)  can1  4100208   [8]  6F 10 13 00 00 00 00 00
 (1.5440)  can1  595FF71   [8]  05 80 60 09 60 09 F0 5D
 (1.5440)  can1  596FF71   [8]  01 80 FF FF FF FF F9 9F
 (1.5490)  can1  8100302   [5]  01 00 0A 00 18
 (1.5520)  can1  4100209   [8]  E9 35 13 00 00 00 00 00
 (1.5530)  can1  4100208   [8]  6F 10 13 00 00 00 00 00
 (1.5560)  can1  585FF72   [8]  03 80 60 09 60 09 F7 8A
 (1.5570)  can1  586FF72   [8]  FF 7F FF FF FF FF FC 19
 (1.5590)  can1  5807202   [8]  03 80 00 00 E0 01 04 BF
 (1.5600)  can1  5817202   [8]  01 00 10 27 10 27 07 E3
 (1.5600)  can1  5907102   [8]  05 80 00 00 E0 01 04 68
 (1.5600)  can1  5917102   [8]  01 00 10 27 10 27 07 E3
 (1.5610)  can1  5827202   [8]  FA 00 00 00 00 00 04 D4
 (1.5610)  can1  5927102   [8]  FA 00 00 00 00 00 04 D4
 (1.5620)  can1  5837202   [8]  2C 41 06 00 00 00 04 E0
 (1.5620)  can1  5847270   [8]  00 00 00 00 00 00 04 9F
 (1.5620)  can1  5937102   [8]  2C 41 06 00 00 00 04 E0
 (1.5630)  can1  5947102   [8]  00 00 00 00 00 00 04 9F
 (1.5630)  can1  8580C02   [8]  00 00 00 00 00 00 00 00
 (1.5640)  can1  4100209   [8]  E9 35 13 00 00 00 00 00
 (1.5640)  can1  89A0C02   [8]  CC 0B 00 00 00 00 00 00
 (1.5650)  can1  8030C02   [8]  00 00 2A 68 2A 68 92 17
 (1.5650)  can1  4100208   [8]  6F 10 13 00 00 00 00 00
 (1.5650)  can1  595FF71   [8]  05 80 60 09 60 09 F1 5D
 (1.5650)  can1  596FF71   [8]  FF 7F FF FF FF FF FA 19
 (1.5720)  can1  4100209   [8]  E9 35 13 00 00 00 00 00
 (1.5730)  can1  4100208   [8]  6F 10 13 00 00 00 00 00
 (1.5740)  can1  8100302   [5]  01 00 0A 00 18
 (1.5770)  can1  585FF72   [8]  03 80 60 09 60 09 F8 8A
 (1.5770)  can1  586FF72   [8]  FF 7F FF FF FF FF FD 19
 (1.5780)  can1  8101201   [8]  F8 62 00 8E 13 8A 4D 00
 (1.5780)  can1  8010C01   [8]  76 62 00 00 00 00 00 00
 (1.5790)  can1  89A0C02   [8]  00 00 00 00 00 00 00 00
 (1.5790)  can1  8030C02   [8]  00 00 2A 68 2A 68 92 17
 (1.5800)  can1  8580C02   [8]  00 00 00 00 00 00 00 00
 (1.5810)  can1  8041001   [8]  01 02 50 33 03 A7 3B 00
 (1.5820)  can1  4100209   [8]  E9 35 13 00 00 00 00 00
 (1.5830)  can1  4100208   [8]  6F 10 13 00 00 00 00 00
 (1.5840)  can1  18800401   [8]  10 8C 8D 8C 8D 7C 8D 00
 (1.5840)  can1  18840401   [8]  10 A0 8D A2 8D 92 8D 00
 (1.5850)  can1  595FF71   [8]  05 80 60 09 60 09 F2 5D
 (1.5850)  can1  596FF71   [8]  FE 7F FF FF FF FF FB 4D
 (1.5850)  can1  18C00401   [8]  10 9B 30 73 31 38 30 00
 (1.5920)  can1  4100209   [8]  E9 35 13 00 00 00 00 00
 (1.5930)  can1  4100208   [8]  6F 10 13 00 00 00 00 00
 (1.5940)  can1  599FF71   [8]  1A E0 02 82 02 00 FD D1
 (1.5960)  can1  585FF72   [8]  03 80 60 09 60 09 F9 8A
 (1.5970)  can1  586FF72   [8]  00 80 FF FF FF FF FE CB
 (1.5990)  can1  8100302   [5]  01 00 0A 00 18
 (1.5990)  can1  8580C02   [8]  FF FF 00 00 00 00 00 00
 (1.6000)  can1  597FF71   [8]  08 08 E9 0F FF FF FD 6E
 (1.6010)  can1  598FF71   [8]  40 01 78 FF FF FF FD CA
 (1.6010)  can1  8030C02   [8]  00 00 2A 68 2A 68 92 17
 (1.6010)  can1  89A0C02   [8]  00 00 00 00 00 00 00 00
 (1.6020)  can1  4100209   [8]  E9 35 13 00 00 00 00 00
 (1.6030)  can1  4100208   [8]  6F 10 13 00 00 00 00 00
 (1.6040)  can1  595FF71   [8]  05 80 60 09 60 09 F3 5D
 (1.6040)  can1  596FF71   [8]  FD 7F FF FF FF FF FC B1
 (1.6060)  can1  587FF72   [8]  FE 07 CF 0F FF FF FD 4E
 (1.6120)  can1  1948FF72   [8]  00 C0 00 55 FF FF 98 AB
 (1.6120)  can1  4100209   [8]  E9 35 13 00 00 00 00 00
 (1.6130)  can1  4100208   [8]  6F 10 13 00 00 00 00 00
 (1.6170)  can1  585FF72   [8]  03 80 60 09 60 09 FA 8A
 (1.6170)  can1  586FF72   [8]  00 80 FF FF FF FF FF CB
 (1.6190)  can1  5807202   [8]  03 80 00 00 E0 01 05 BF
 (1.6200)  can1  5817202   [8]  01 00 10 27 10 27 08 E3
 (1.6210)  can1  5907102   [8]  05 80 00 00 E0 01 05 68
 (1.6210)  can1  5827202   [8]  FA 00 00 00 00 00 05 D4
 (1.6220)  can1  5917102   [8]  01 00 10 27 10 27 08 E3
 (1.6220)  can1  5837202   [8]  2C 41 06 00 00 00 05 E0
 (1.6230)  can1  5927102   [8]  FA 00 00 00 00 00 05 D4
 (1.6230)  can1  5937102   [8]  2C 41 06 00 00 00 05 E0
 (1.6240)  can1  5847270   [8]  00 00 00 00 00 00 05 9F
 (1.6250)  can1  5947102   [8]  00 00 00 00 00 00 05 9F
 (1.6250)  can1  4100209   [8]  E9 35 13 00 00 00 00 00
 (1.6250)  can1  89A0C02   [8]  00 00 00 00 00 00 00 00
 (1.6260)  can1  8030C02   [8]  00 00 2A 68 2A 68 92 17
 (1.6260)  can1  8580C02   [8]  FE FF 00 00 00 00 00 00
 (1.6260)  can1  4100208   [8]  6F 10 13 00 00 00 00 00
 (1.6270)  can1  8100302   [5]  01 00 0A 00 18
 (1.6270)  can1  595FF71   [8]  05 80 60 09 60 09 F4 5D
 (1.6270)  can1  596FF71   [8]  FF 7F FF FF FF FF FD 19
 (1.6320)  can1  4100209   [8]  E9 35 13 00 00 00 00 00
 (1.6330)  can1  4100208   [8]  6F 10 13 00 00 00 00 00
 (1.6330)  can1  18800401   [8]  11 45 8D 29 8D 5C 8D 00
 (1.6340)  can1  18840401   [8]  11 5A 8D 3E 8D 71 8D 00
 (1.6340)  can1  18C00401   [8]  11 4D 31 ED 2F 02 31 00
 (1.6360)  can1  585FF72   [8]  03 80 60 09 60 09 FB 8A
 (1.6370)  can1  586FF72   [8]  01 80 FF FF FF FF F0 9F
 (1.6380)  can1  588FF72   [8]  80 01 56 FF FF FF FE 95
 (1.6380)  can1  589FF72   [8]  1A D0 02 81 02 00 FE 87
 (1.6390)  can1  89A0C02   [8]  00 00 00 00 CC 0B 00 00
 (1.6400)  can1  8030C02   [8]  00 00 2A 68 2A 68 92 17
 (1.6400)  can1  8580C02   [8]  00 00 00 00 00 00 00 00
 (1.6420)  can1  4100209   [8]  E9 35 13 00 00 00 00 00
 (1.6430)  can1  4100208   [8]  6F 10 13 00 00 00 00 00
 (1.6440)  can1  595FF71   [8]  05 80 60 09 60 09 F5 5D
 (1.6440)  can1  596FF71   [8]  FE 7F FF FF FF FF FE 4D
 (1.6490)  can1  8100302   [5]  01 00 0A 00 18
 (1.6520)  can1  4100209   [8]  E9 35 13 00 00 00 00 00
 (1.6530)  can1  4100208   [8]  6F 10 13 00 00 00 00 00
 (1.6560)  can1  585FF72   [8]  03 80 60 09 60 09 FC 8A
 (1.6570)  can1  586FF72   [8]  FF 7F FF FF FF FF F1 19
 (1.6590)  can1  89A0C02   [8]  00 00 00 00 00 00 00 00
 (1.6590)  can1  8030C02   [8]  00 00 2A 68 2A 68 92 17
 (1.6600)  can1  8580C02   [8]  FF FF 00 00 00 00 00 00
 (1.6610)  can1  1948FF71   [8]  00 C0 00 55 FF FF 98 AB
 (1.6610)  can1  1949FF71   [8]  0C 80 00 0D C0 00 99 F2
 (1.6610)  can1  194AFF71   [8]  32 67 58 86 65 58 9A CE
 (1.6620)  can1  194BFF71   [8]  88 F5 FF FF FF FF 9B 14
 (1.6620)  can1  194CFF71   [8]  FF FF FF FF FF FF 9C 96
 (1.6630)  can1  4100209   [8]  E9 35 13 00 00 00 00 00
 (1.6630)  can1  4100208   [8]  6F 10 13 00 00 00 00 00
 (1.6640)  can1  595FF71   [8]  05 80 60 09 60 09 F6 5D
 (1.6640)  can1  596FF71   [8]  FD 7F FF FF FF FF FF B1
 (1.6720)  can1  1949FF72   [8]  0D 80 00 0D B0 00 99 E3
 (1.6720)  can1  194AFF72   [8]  55 67 58 86 D5 57 9A 60
 (1.6730)  can1  4100209   [8]  E9 35 13 00 00 00 00 00
 (1.6740)  can1  194BFF72   [8]  80 F5 FF FF FF FF 9B 0C
 (1.6740)  can1  194CFF72   [8]  FF FF FF FF FF FF 9C 96
 (1.6750)  can1  4100208   [8]  6F 10 13 00 00 00 00 00
 (1.6750)  can1  8100302   [5]  01 00 0A 00 18
 (1.6760)  can1  585FF72   [8]  03 80 60 09 60 09 FD 8A
 (1.6770)  can1  586FF72   [8]  FF 7F FF FF FF FF F2 19
 (1.6780)  can1  8101201   [8]  F5 62 FC 8D 13 8A 61 00
 (1.6790)  can1  8010C01   [8]  79 62 00 00 00 00 00 00
 (1.6790)  can1  5807202   [8]  03 80 00 00 E0 01 06 BF
 (1.6800)  can1  5817202   [8]  01 00 10 27 10 27 09 E3
 (1.6800)  can1  5907102   [8]  05 80 00 00 E0 01 06 68
 (1.6810)  can1  5827202   [8]  FA 00 00 00 00 00 06 D4
 (1.6810)  can1  5917102   [8]  01 00 10 27 10 27 09 E3
 (1.6820)  can1  5927102   [8]  FA 00 00 00 00 00 06 D4
 (1.6830)  can1  5837202   [8]  2C 41 06 00 00 00 06 E0
 (1.6830)  can1  5937102   [8]  2C 41 06 00 00 00 06 E0
 (1.6840)  can1  8041001   [8]  01 02 50 33 03 A7 3B 00
 (1.6840)  can1  5847270   [8]  00 00 00 00 00 00 06 9F
 (1.6850)  can1  5947102   [8]  00 00 00 00 00 00 06 9F
 (1.6850)  can1  4100209   [8]  E9 35 13 00 00 00 00 00
 (1.6860)  can1  8580C02   [8]  FE FF 00 00 00 00 00 00
 (1.6860)  can1  8030C02   [8]  00 00 2A 68 2A 68 92 17
 (1.6860)  can1  4100208   [8]  6F 10 13 00 00 00 00 00
 (1.6860)  can1  89A0C02   [8]  00 00 00 00 00 00 00 00
 (1.6870)  can1  18800401   [8]  12 A4 8D 90 8D 61 8D 00
 (1.6870)  can1  18840401   [8]  12 BA 8D A8 8D 77 8D 00
 (1.6870)  can1  595FF71   [8]  05 80 60 09 60 09 F7 5D
 (1.6880)  can1  596FF71   [8]  01 80 FF FF FF FF F0 9F
 (1.6880)  can1  18C00401   [8]  12 51 30 5A 2F F7 2E 00
 (1.6920)  can1  4100209   [8]  E9 35 13 00 00 00 00 00
 (1.6930)  can1  4100208   [8]  6F 10 13 00 00 00 00 00
 (1.6940)  can1  599FF71   [8]  1A E0 02 82 02 00 FE D1
 (1.6970)  can1  585FF72   [8]  03 80 60 09 60 09 FE 8A
 (1.6970)  can1  586FF72   [8]  FE 7F FF FF FF FF F3 4D
 (1.6990)  can1  8100302   [5]  01 00 0A 00 18
 (1.6990)  can1  8580C02   [8]  00 00 FF FF 00 00 00 00
 (1.7000)  can1  89A0C02   [8]  CC 0B 00 00 00 00 00 00
 (1.7000)  can1  8030C02   [8]  00 00 2A 68 2A 68 92 17
 (1.7010)  can1  597FF71   [8]  0C 08 E9 0F FF FF FE 11
 (1.7010)  can1  598FF71   [8]  40 01 78 FF FF FF FE CA
 (1.7020)  can1  4100209   [8]  E9 35 13 00 00 00 00 00
 (1.7030)  can1  4100208   [8]  6F 10 13 00 00 00 00 00
 (1.7040)  can1  595FF71   [8]  05 80 60 09 60 09 F8 5D
 (1.7040)  can1  596FF71   [8]  00 80 FF FF FF FF F1 CB
 (1.7070)  can1  587FF72   [8]  03 08 CF 0F FF FF FE 4F
 (1.7120)  can1  4100209   [8]  E9 35 13 00 00 00 00 00
 (1.7130)  can1  4100208   [8]  6F 10 13 00 00 00 00 00
 (1.7170)  can1  585FF72   [8]  03 80 60 09 60 09 FF 8A
 (1.7170)  can1  586FF72   [8]  FD 7F FF FF FF FF F4 B1
 (1.7190)  can1  89A0C02   [8]  00 00 00 00 00 00 00 00
 (1.7190)  can1  8030C02   [8]  00 00 2A 68 2A 68 92 17
 (1.7200)  can1  8580C02   [8]  00 00 FE FF 00 00 00 00
 (1.7220)  can1  4100209   [8]  E9 35 13 00 00 00 00 00
 (1.7230)  can1  4100208   [8]  6F 10 13 00 00 00 00 00
 (1.7240)  can1  8100302   [5]  01 00 0A 00 18
 (1.7240)  can1  595FF71   [8]  05 80 60 09 60 09 F9 5D
 (1.7250)  can1  596FF71   [8]  FF 7F FF FF FF FF F2 19
 (1.7320)  can1  4100209   [8]  E9 35 13 00 00 00 00 00
 (1.7330)  can1  4100208   [8]  6F 10 13 00 00 00 00 00
 (1.7340)  can1  18800401   [8]  13 5E 8D 10 8D 44 8D 00
 (1.7350)  can1  18101203   [4]  22 2D F0 06
 (1.7350)  can1  18840401   [8]  13 73 8D 3A 8D 5C 8D 00
 (1.7350)  can1  18C00401   [8]  13 F4 2F E1 2F AE 30 00
 (1.7360)  can1  585FF72   [8]  03 80 60 09 60 09 F0 8A
 (1.7370)  can1  586FF72   [8]  FF 7F FF FF FF FF F5 19
 (1.7370)  can1  588FF72   [8]  80 01 56 FF FF FF FF 95
 (1.7380)  can1  589FF72   [8]  1A D0 02 81 02 00 FF 87
 (1.7390)  can1  5807202   [8]  03 80 00 00 E0 01 07 BF
 (1.7390)  can1  5817202   [8]  01 00 10 27 10 27 0A E3
 (1.7400)  can1  5907102   [8]  05 80 00 00 E0 01 07 68
 (1.7400)  can1  5827202   [8]  FA 00 00 00 00 00 07 D4
 (1.7410)  can1  5917102   [8]  01 00 10 27 10 27 0A E3
 (1.7420)  can1  5927102   [8]  FA 00 00 00 00 00 07 D4
 (1.7430)  can1  5837202   [8]  2C 41 06 00 00 00 07 E0
 (1.7430)  can1  5847270   [8]  00 00 00 00 00 00 07 9F
 (1.7440)  can1  5937102   [8]  2C 41 06 00 00 00 07 E0
 (1.7440)  can1  5947102   [8]  00 00 00 00 00 00 07 9F
 (1.7440)  can1  8580C02   [8]  00 00 00 00 00 00 00 00
 (1.7440)  can1  4100209   [8]  E9 35 13 00 00 00 00 00
 (1.7450)  can1  89A0C02   [8]  00 00 00 00 00 00 00 00
 (1.7450)  can1  8030C02   [8]  00 00 2A 68 2A 68 92 17
 (1.7460)  can1  4100208   [8]  6F 10 13 00 00 00 00 00
 (1.7460)  can1  595FF71   [8]  05 80 60 09 60 09 FA 5D
 (1.7460)  can1  596FF71   [8]  FD 7F FF FF FF FF F3 B1
 (1.7470)  can1  528FF72   [8]  FF FF 35 00 00 00 34 00
 (1.7470)  can1  529FF72   [8]  03 00 43 00 0A 00 03 00
 (1.7480)  can1  52CFF72   [8]  00 00 EF FF EF FF 3A 00
 (1.7490)  can1  8100302   [5]  01 00 0A 00 18
 (1.7520)  can1  4100209   [8]  E9 35 13 00 00 00 00 00
 (1.7530)  can1  4100208   [8]  6F 10 13 00 00 00 00 00
 (1.7540)  can1  528FF71   [8]  FC FF 58 00 00 00 56 00
 (1.7540)  can1  529FF71   [8]  08 00 51 00 0C 00 05 00
 (1.7550)  can1  52CFF71   [8]  00 00 EF FF EF FF 3A 00
 (1.7570)  can1  585FF72   [8]  03 80 60 09 60 09 F1 8A
 (1.7570)  can1  586FF72   [8]  FE 7F FF FF FF FF F6 4D
 (1.7590)  can1  89A0C02   [8]  00 00 00 00 00 00 00 00
 (1.7590)  can1  8030C02   [8]  00 00 2A 68 2A 68 92 17
 (1.7600)  can1  8580C02   [8]  FE FF FF FF 00 00 00 00
 (1.7620)  can1  4100209   [8]  E9 35 13 00 00 00 00 00
 (1.7630)  can1  4100208   [8]  6F 10 13 00 00 00 00 00
 (1.7640)  can1  595FF71   [8]  05 80 60 09 60 09 FB 5D
 (1.7650)  can1  596FF71   [8]  FF 7F FF FF FF FF F4 19
 (1.7720)  can1  4100209   [8]  E9 35 13 00 00 00 00 00
 (1.7730)  can1  4100208   [8]  6F 10 13 00 00 00 00 00
 (1.7740)  can1  8100302   [5]  01 00 0A 00 18
 (1.7770)  can1  585FF72   [8]  03 80 60 09 60 09 F2 8A
 (1.7770)  can1  586FF72   [8]  FF 7F FF FF FF FF F7 19
 (1.7790)  can1  89A0C02   [8]  00 00 00 00 00 00 00 00
 (1.7790)  can1  8030C02   [8]  00 00 2A 68 2A 68 92 17
 (1.7800)  can1  8010C01   [8]  78 62 00 00 00 00 00 00
 (1.7810)  can1  8101201   [8]  F7 62 00 8E 15 8A 51 00
 (1.7810)  can1  8580C02   [8]  00 00 00 00 00 00 00 00
 (1.7810)  can1  8041001   [8]  01 02 50 33 03 A7 3B 00
 (1.7820)  can1  4100209   [8]  E9 35 13 00 00 00 00 00
 (1.7830)  can1  4100208   [8]  6F 10 13 00 00 00 00 00
 (1.7840)  can1  18800401   [8]  14 7B 8D 96 8D 88 8D 00
 (1.7850)  can1  18840401   [8]  14 91 8D AB 8D A2 8D 00
 (1.7850)  can1  18C00401   [8]  14 17 30 D0 30 26 30 00
 (1.7850)  can1  595FF71   [8]  05 80 60 09 60 09 FC 5D
 (1.7860)  can1  596FF71   [8]  01 80 FF FF FF FF F5 9F
 (1.7920)  can1  4100209   [8]  E9 35 13 00 00 00 00 00
 (1.7930)  can1  4100208   [8]  6F 10 13 00 00 00 00 00
 (1.7940)  can1  599FF71   [8]  1A E0 02 82 02 00 FF D1
 (1.7960)  can1  585FF72   [8]  03 80 60 09 60 09 F3 8A
 (1.7970)  can1  586FF72   [8]  FF 7F FF FF FF FF F8 19
 (1.7990)  can1  5807202   [8]  03 80 00 00 E0 01 08 BF
 (1.7990)  can1  5817202   [8]  01 00 10 27 10 27 0B E3
 (1.8000)  can1  5907102   [8]  05 80 00 00 E0 01 08 68
 (1.8010)  can1  597FF71   [8]  08 08 EB 0F FF FF FF 2B
 (1.8020)  can1  5827202   [8]  FA 00 00 00 00 00 08 D4
 (1.8020)  can1  5917102   [8]  01 00 10 27 10 27 0B E3
 (1.8030)  can1  5927102   [8]  FA 00 00 00 00 00 08 D4
 (1.8030)  can1  5837202   [8]  2C 41 06 00 00 00 08 E0
 (1.8040)  can1  5937102   [8]  2C 41 06 00 00 00 08 E0
 (1.8050)  can1  598FF71   [8]  40 01 78 FF FF FF FF CA
 (1.8050)  can1  5847270   [8]  00 00 00 00 00 00 08 9F
 (1.8050)  can1  5947102   [8]  00 00 00 00 00 00 08 9F
 (1.8060)  can1  4100209   [8]  E9 35 13 00 00 00 00 00
 (1.8060)  can1  8100302   [5]  01 00 0A 00 18
 (1.8060)  can1  8580C02   [8]  00 00 00 00 00 00 00 00
 (1.8070)  can1  89A0C02   [8]  CC 0B 00 00 00 00 00 00
 (1.8070)  can1  4100208   [8]  6F 10 13 00 00 00 00 00
 (1.8070)  can1  8030C02   [8]  00 00 2A 68 2A 68 92 17
 (1.8080)  can1  595FF71   [8]  05 80 60 09 60 09 FD 5D
 (1.8080)  can1  596FF71   [8]  02 80 FF FF FF FF F6 63
 (1.8080)  can1  587FF72   [8]  02 08 CD 0F FF FF FF 5E
 (1.8120)  can1  4100209   [8]  E9 35 13 00 00 00 00 00
 (1.8130)  can1  4100208   [8]  6F 10 13 00 00 00 00 00
 (1.8170)  can1  585FF72   [8]  03 80 60 09 60 09 F4 8A
 (1.8170)  can1  586FF72   [8]  FE 7F FF FF FF FF F9 4D
 (1.8190)  can1  89A0C02   [8]  99 17 00 00 00 00 00 00
 (1.8190)  can1  8030C02   [8]  00 00 2A 68 2A 68 92 17
 (1.8200)  can1  8580C02   [8]  01 00 FF FF 00 00 00 00
 (1.8220)  can1  4100209   [8]  E9 35 13 00 00 00 00 00
 (1.8230)  can1  4100208   [8]  6F 10 13 00 00 00 00 00
 (1.8240)  can1  8100302   [5]  01 00 0A 00 18
 (1.8240)  can1  595FF71   [8]  05 80 60 09 60 09 FE 5D
 (1.8250)  can1  596FF71   [8]  00 80 FF FF FF FF F7 CB
 (1.8320)  can1  4100209   [8]  E9 35 13 00 00 00 00 00
 (1.8330)  can1  4100208   [8]  6F 10 13 00 00 00 00 00
 (1.8340)  can1  18800401   [8]  15 B4 8D 98 8D 5E 8D 00
 (1.8340)  can1  18840401   [8]  15 C9 8D AE 8D 74 8D 00
 (1.8350)  can1  18C00401   [8]  15 E7 30 D2 2F B6 30 00
 (1.8370)  can1  585FF72   [8]  03 80 60 09 60 09 F5 8A
 (1.8370)  can1  586FF72   [8]  01 80 FF FF FF FF FA 9F
 (1.8380)  can1  588FF72   [8]  80 01 56 FF FF FF F0 95
 (1.8380)  can1  589FF72   [8]  1A D0 02 81 02 00 F0 87
 (1.8390)  can1  89A0C02   [8]  00 00 00 00 CC 0B 00 00
 (1.8390)  can1  8030C02   [8]  00 00 2A 68 2A 68 92 17
 (1.8400)  can1  8580C02   [8]  00 00 00 00 00 00 00 00
 (1.8420)  can1  4100209   [8]  E9 35 13 00 00 00 00 00
 (1.8430)  can1  4100208   [8]  6F 10 13 00 00 00 00 00
 (1.8440)  can1  595FF71   [8]  05 80 60 09 60 09 FF 5D
 (1.8440)  can1  596FF71   [8]  01 80 FF FF FF FF F8 9F
 (1.8490)  can1  8100302   [5]  01 00 0A 00 18
 (1.8520)  can1  4100209   [8]  E9 35 13 00 00 00 00 00
 (1.8530)  can1  4100208   [8]  6F 10 13 00 00 00 00 00
 (1.8560)  can1  585FF72   [8]  03 80 60 09 60 09 F6 8A
 (1.8570)  can1  586FF72   [8]  03 80 FF FF FF FF FB 37
 (1.8590)  can1  5807202   [8]  03 80 00 00 E0 01 09 BF
 (1.8590)  can1  5817202   [8]  01 00 10 27 10 27 0C E3
 (1.8600)  can1  5907102   [8]  05 80 00 00 E0 01 09 68
 (1.8600)  can1  5827202   [8]  FA 00 00 00 00 00 09 D4
 (1.8610)  can1  5917102   [8]  01 00 10 27 10 27 0C E3
 (1.8620)  can1  5927102   [8]  FA 00 00 00 00 00 09 D4
 (1.8630)  can1  5837202   [8]  2C 41 06 00 00 00 09 E0
 (1.8630)  can1  5937102   [8]  2C 41 06 00 00 00 09 E0
 (1.8640)  can1  5847270   [8]  00 00 00 00 00 00 09 9F
 (1.8640)  can1  5947102   [8]  00 00 00 00 00 00 09 9F
 (1.8650)  can1  4100209   [8]  E9 35 13 00 00 00 00 00
 (1.8650)  can1  89A0C02   [8]  CC 0B 00 00 66 23 00 00
 (1.8650)  can1  8030C02   [8]  00 00 2A 68 2A 68 92 17
 (1.8650)  can1  8580C02   [8]  00 00 02 00 00 00 00 00
 (1.8660)  can1  4100208   [8]  6F 10 13 00 00 00 00 00
 (1.8660)  can1  595FF71   [8]  05 80 60 09 60 09 F0 5D
 (1.8660)  can1  596FF71   [8]  00 80 FF FF FF FF F9 CB
 (1.8670)  can1  1948FF72   [8]  00 C0 00 55 FF FF 9D B0
 (1.8720)  can1  4100209   [8]  E9 35 13 00 00 00 00 00
 (1.8730)  can1  4100208   [8]  6F 10 13 00 00 00 00 00
 (1.8740)  can1  8100302   [5]  01 00 0A 00 18
 (1.8770)  can1  585FF72   [8]  03 80 60 09 60 09 F7 8A
 (1.8770)  can1  586FF72   [8]  FF 7F FF FF FF FF FC 19
 (1.8790)  can1  89A0C02   [8]  00 00 00 00 00 00 00 00
 (1.8790)  can1  8030C02   [8]  00 00 2A 68 2A 68 92 17
 (1.8790)  can1  8580C02   [8]  00 00 00 00 00 00 00 00
 (1.8800)  can1  8101201   [8]  F2 62 FF 8D 15 8A 40 00
 (1.8810)  can1  8010C01   [8]  75 62 00 00 00 00 00 00
 (1.8810)  can1  8041001   [8]  01 02 50 33 03 A7 3B 00
 (1.8820)  can1  4100209   [8]  E9 35 13 00 00 00 00 00
 (1.8830)  can1  4100208   [8]  6F 10 13 00 00 00 00 00
 (1.8840)  can1  18800401   [8]  16 3F 8D 78 8D AE 8D 00
 (1.8840)  can1  18840401   [8]  16 55 8D 91 8D C4 8D 00
 (1.8850)  can1  595FF71   [8]  05 80 60 09 60 09 F1 5D
 (1.8850)  can1  596FF71   [8]  00 80 FF FF FF FF FA CB
 (1.8860)  can1  18C00401   [8]  16 C0 2F 64 30 49 2F 00
 (1.8920)  can1  4100209   [8]  E9 35 13 00 00 00 00 00
 (1.8930)  can1  4100208   [8]  6F 10 13 00 00 00 00 00
 (1.8940)  can1  599FF71   [8]  1A E0 02 82 02 00 F0 D1
 (1.8970)  can1  585FF72   [8]  03 80 60 09 60 09 F8 8A
 (1.8970)  can1  586FF72   [8]  01 80 FF FF FF FF FD 9F
 (1.8990)  can1  8100302   [5]  01 00 0A 00 18
 (1.8990)  can1  8580C02   [8]  00 00 00 00 00 00 00 00
 (1.9000)  can1  597FF71   [8]  09 08 E9 0F FF FF F0 3A
 (1.9000)  can1  598FF71   [8]  30 01 79 FF FF FF F0 18
 (1.9000)  can1  8030C02   [8]  00 00 2A 68 2A 68 92 17
 (1.9010)  can1  89A0C02   [8]  00 00 00 00 CC 0B 00 00
 (1.9020)  can1  4100209   [8]  E9 35 13 00 00 00 00 00
 (1.9030)  can1  4100208   [8]  6F 10 13 00 00 00 00 00
 (1.9040)  can1  595FF71   [8]  05 80 60 09 60 09 F2 5D
 (1.9040)  can1  596FF71   [8]  FF 7F FF FF FF FF FB 19
 (1.9070)  can1  587FF72   [8]  FE 07 CD 0F FF FF F0 0B
 (1.9120)  can1  4100209   [8]  E9 35 13 00 00 00 00 00
 (1.9130)  can1  4100208   [8]  6F 10 13 00 00 00 00 00
 (1.9140)  can1  1948FF71   [8]  00 C0 00 55 FF FF 9D B0
 (1.9140)  can1  1949FF71   [8]  0D 80 00 0D A0 00 9E D8
 (1.9150)  can1  194AFF71   [8]  32 67 58 86 B5 58 9F 23
 (1.9150)  can1  194BFF71   [8]  8E F5 FF FF FF FF A0 1F
 (1.9160)  can1  194CFF71   [8]  FF FF FF FF FF FF A1 9B
 (1.9170)  can1  585FF72   [8]  03 80 60 09 60 09 F9 8A
 (1.9170)  can1  586FF72   [8]  00 80 FF FF FF FF FE CB
 (1.9190)  can1  5807202   [8]  03 80 00 00 E0 01 0A BF
 (1.9200)  can1  5817202   [8]  01 00 10 27 10 27 0D E3
 (1.9200)  can1  5907102   [8]  05 80 00 00 E0 01 0A 68
 (1.9210)  can1  5917102   [8]  01 00 10 27 10 27 0D E3
 (1.9220)  can1  5827202   [8]  FA 00 00 00 00 00 0A D4
 (1.9220)  can1  5927102   [8]  FA 00 00 00 00 00 0A D4
 (1.9230)  can1  5837202   [8]  2C 41 06 00 00 00 0A E0
 (1.9240)  can1  5847270   [8]  00 00 00 00 00 00 0A 9F
 (1.9240)  can1  5937102   [8]  2C 41 06 00 00 00 0A E0
 (1.9240)  can1  5947102   [8]  00 00 00 00 00 00 0A 9F
 (1.9250)  can1  8580C02   [8]  00 00 00 00 00 00 00 00
 (1.9250)  can1  4100209   [8]  E9 35 13 00 00 00 00 00
 (1.9250)  can1  89A0C02   [8]  00 00 00 00 00 00 00 00
 (1.9260)  can1  8030C02   [8]  00 00 2A 68 2A 68 92 17
 (1.9270)  can1  4100208   [8]  6F 10 13 00 00 00 00 00
 (1.9270)  can1  8100302   [5]  01 00 0A 00 18
 (1.9270)  can1  1949FF72   [8]  0D 80 00 0D 90 00 9E C8
 (1.9280)  can1  194AFF72   [8]  55 A7 57 7D 75 57 9F 3B
 (1.9280)  can1  194BFF72   [8]  7A F5 FF FF FF FF A0 0B
 (1.9280)  can1  194CFF72   [8]  FF FF FF FF FF FF A1 9B
 (1.9290)  can1  595FF71   [8]  05 80 60 09 60 09 F3 5D
 (1.9290)  can1  596FF71   [8]  00 80 FF FF FF FF FC CB
 (1.9320)  can1  4100209   [8]  E9 35 13 00 00 00 00 00
 (1.9330)  can1  4100208   [8]  6F 10 13 00 00 00 00 00
 (1.9340)  can1  18800401   [8]  17 9C 8D 00 00 00 00 00
 (1.9340)  can1  18840401   [8]  17 B1 8D 00 00 00 00 00
 (1.9340)  can1  18C00401   [8]  17 98 2F 10 27 10 27 00
 (1.9360)  can1  585FF72   [8]  03 80 60 09 60 09 FA 8A
 (1.9370)  can1  586FF72   [8]  FF 7F FF FF FF FF FF 19
 (1.9380)  can1  588FF72   [8]  80 01 56 FF FF FF F1 95
 (1.9380)  can1  589FF72   [8]  1A D0 02 81 02 00 F1 87
 (1.9390)  can1  8580C02   [8]  00 00 00 00 00 00 00 00
 (1.9400)  can1  8030C02   [8]  00 00 2A 68 2A 68 92 17
 (1.9400)  can1  89A0C02   [8]  00 00 00 00 00 00 00 00
 (1.9420)  can1  4100209   [8]  E9 35 13 00 00 00 00 00
 (1.9430)  can1  4100208   [8]  6F 10 13 00 00 00 00 00
 (1.9490)  can1  8100302   [5]  01 00 0A 00 18
 (1.9490)  can1  595FF71   [8]  05 80 60 09 60 09 F4 5D
 (1.9500)  can1  596FF71   [8]  FD 7F FF FF FF FF FD B1
 (1.9520)  can1  4100209   [8]  E9 35 13 00 00 00 00 00
 (1.9530)  can1  4100208   [8]  6F 10 13 00 00 00 00 00
 (1.9570)  can1  585FF72   [8]  03 80 60 09 60 09 FB 8A
 (1.9570)  can1  586FF72   [8]  FD 7F FF FF FF FF F0 B1
 (1.9590)  can1  89A0C02   [8]  00 00 00 00 00 00 00 00
 (1.9590)  can1  8030C02   [8]  00 00 2A 68 2A 68 92 17
 (1.9600)  can1  8580C02   [8]  FE FF FE FF 00 00 00 00
 (1.9620)  can1  4100209   [8]  E9 35 13 00 00 00 00 00
 (1.9630)  can1  4100208   [8]  6F 10 13 00 00 00 00 00
 (1.9690)  can1  595FF71   [8]  05 80 60 09 60 09 F5 5D
 (1.9690)  can1  596FF71   [8]  00 80 FF FF FF FF FE CB
 (1.9720)  can1  4100209   [8]  E9 35 13 00 00 00 00 00
 (1.9730)  can1  4100208   [8]  6F 10 13 00 00 00 00 00
 (1.9740)  can1  8100302   [5]  01 00 0A 00 18
 (1.9770)  can1  585FF72   [8]  03 80 60 09 60 09 FC 8A
 (1.9770)  can1  586FF72   [8]  FE 7F FF FF FF FF F1 4D
 (1.9790)  can1  5807202   [8]  03 80 00 00 E0 01 0B BF
 (1.9800)  can1  5817202   [8]  01 00 10 27 10 27 0E E3
 (1.9800)  can1  5907102   [8]  05 80 00 00 E0 01 0B 68
 (1.9810)  can1  5917102   [8]  01 00 10 27 10 27 0E E3
 (1.9820)  can1  5827202   [8]  FA 00 00 00 00 00 0B D4
 (1.9820)  can1  5927102   [8]  FA 00 00 00 00 00 0B D4
 (1.9830)  can1  5837202   [8]  2C 41 06 00 00 00 0B E0
 (1.9830)  can1  5847270   [8]  00 00 00 00 00 00 0B 9F
 (1.9840)  can1  5937102   [8]  2C 41 06 00 00 00 0B E0
 (1.9850)  can1  8010C01   [8]  7A 62 00 00 00 00 00 00
 (1.9850)  can1  5947102   [8]  00 00 00 00 00 00 0B 9F
 (1.9850)  can1  8041001   [8]  01 02 50 33 03 A7 3B 00
 (1.9860)  can1  4100209   [8]  E9 35 13 00 00 00 00 00
 (1.9860)  can1  8030C02   [8]  00 00 2A 68 2A 68 92 17
 (1.9860)  can1  8101201   [8]  F5 62 00 8E 13 8A 53 00
 (1.9870)  can1  4100208   [8]  6F 10 13 00 00 00 00 00
 (1.9870)  can1  8580C02   [8]  00 00 FF FF 00 00 00 00
 (1.9870)  can1  89A0C02   [8]  00 00 00 00 00 00 00 00
 (1.9870)  can1  18800401   [8]  00 FB 8D 19 8D CD 8C 00
 (1.9880)  can1  18840401   [8]  00 13 8E 2E 8D E8 8C 00
 (1.9880)  can1  18C00401   [8]  00 2C 30 14 2F BF 30 00
 (1.9890)  can1  595FF71   [8]  05 80 60 09 60 09 F6 5D
 (1.9890)  can1  596FF71   [8]  00 80 FF FF FF FF FF CB
 (1.9920)  can1  4100209   [8]  E9 35 13 00 00 00 00 00
 (1.9930)  can1  4100208   [8]  6F 10 13 00 00 00 00 00
 (1.9960)  can1  585FF72   [8]  03 80 60 09 60 09 FD 8A
 (1.9970)  can1  586FF72   [8]  00 80 FF FF FF FF F2 CB
 (1.9990)  can1  8100302   [5]  01 00 0A 00 18
 (1.9990)  can1  599FF71   [8]  1A E0 02 82 02 00 F1 D1
 (2.0000)  can1  8580C02   [8]  00 00 00 00 00 00 00 00
 (2.0010)  can1  89A0C02   [8]  00 00 00 00 00 00 00 00
 (2.0010)  can1  8030C02   [8]  00 00 2A 68 2A 68 92 17
 (2.0020)  can1  4100209   [8]  E9 35 13 00 00 00 00 00
 (2.0030)  can1  4100208   [8]  6F 10 13 00 00 00 00 00
 (2.0040)  can1  597FF71   [8]  06 08 E9 0F FF FF F1 47
 (2.0040)  can1  598FF71   [8]  40 01 78 FF FF FF F1 CA
 (2.0120)  can1  587FF72   [8]  03 08 CF 0F FF FF F1 4F
 (2.0120)  can1  4100209   [8]  E9 35 13 00 00 00 00 00
 (2.0130)  can1  4100208   [8]  6F 10 13 00 00 00 00 00
 (2.0140)  can1  595FF71   [8]  05 80 60 09 60 09 F7 5D
 (2.0140)  can1  596FF71   [8]  FE 7F FF FF FF FF F0 4D
 (2.0170)  can1  585FF72   [8]  03 80 60 09 60 09 FE 8A
 (2.0170)  can1  586FF72   [8]  FF 7F FF FF FF FF F3 19
 (2.0190)  can1  8580C02   [8]  FF FF 00 00 00 00 00 00
 (2.0190)  can1  8030C02   [8]  00 00 2A 68 2A 68 92 17
 (2.0200)  can1  89A0C02   [8]  00 00 00 00 00 00 00 00
 (2.0220)  can1  4100209   [8]  E9 35 13 00 00 00 00 00
 (2.0230)  can1  4100208   [8]  6F 10 13 00 00 00 00 00
 (2.0240)  can1  8100302   [5]  01 00 0A 00 18
 (2.0320)  can1  4100209   [8]  E9 35 13 00 00 00 00 00
 (2.0330)  can1  4100208   [8]  6F 10 13 00 00 00 00 00
 (2.0340)  can1  18800401   [8]  01 FB 8C 35 8D 2D 8D 00
 (2.0340)  can1  595FF71   [8]  05 80 60 09 60 09 F8 5D
 (2.0350)  can1  596FF71   [8]  FF 7F FF FF FF FF F1 19
 (2.0360)  can1  18840401   [8]  01 0F 8D 48 8D 40 8D 00
 (2.0360)  can1  18C00401   [8]  01 F8 2F F9 30 41 30 00
 (2.0360)  can1  585FF72   [8]  03 80 60 09 60 09 FF 8A
 (2.0370)  can1  586FF72   [8]  01 80 FF FF FF FF F4 9F
 (2.0380)  can1  588FF72   [8]  80 01 56 FF FF FF F2 95
 (2.0380)  can1  589FF72   [8]  1A D0 02 81 02 00 F2 87
 (2.0390)  can1  5807202   [8]  03 80 00 00 E0 01 0C BF
 (2.0390)  can1  5817202   [8]  01 00 10 27 10 27 0F E3
 (2.0400)  can1  5907102   [8]  05 80 00 00 E0 01 0C 68
 (2.0410)  can1  5917102   [8]  01 00 10 27 10 27 0F E3
 (2.0410)  can1  5827202   [8]  FA 00 00 00 00 00 0C D4
 (2.0420)  can1  5927102   [8]  FA 00 00 00 00 00 0C D4
 (2.0420)  can1  5837202   [8]  2C 41 06 00 00 00 0C E0
 (2.0430)  can1  5847270   [8]  00 00 00 00 00 00 0C 9F
 (2.0440)  can1  5937102   [8]  2C 41 06 00 00 00 0C E0
 (2.0440)  can1  5947102   [8]  00 00 00 00 00 00 0C 9F
 (2.0440)  can1  8580C02   [8]  00 00 00 00 00 00 00 00
 (2.0450)  can1  4100209   [8]  E9 35 13 00 00 00 00 00
 (2.0450)  can1  89A0C02   [8]  00 00 00 00 CC 0B 00 00
 (2.0450)  can1  8030C02   [8]  00 00 2A 68 2A 68 92 17
 (2.0450)  can1  4100208   [8]  6F 10 13 00 00 00 00 00
 (2.0490)  can1  8100302   [5]  01 00 0A 00 18
 (2.0520)  can1  4100209   [8]  E9 35 13 00 00 00 00 00
 (2.0530)  can1  4100208   [8]  6F 10 13 00 00 00 00 00
 (2.0540)  can1  595FF71   [8]  05 80 60 09 60 09 F9 5D
 (2.0540)  can1  596FF71   [8]  FE 7F FF FF FF FF F2 4D
 (2.0560)  can1  585FF72   [8]  03 80 60 09 60 09 F0 8A
 (2.0570)  can1  586FF72   [8]  01 80 FF FF FF FF F5 9F
 (2.0590)  can1  89A0C02   [8]  00 00 00 00 CC 0B 00 00
 (2.0590)  can1  8030C02   [8]  00 00 2A 68 2A 68 92 17
 (2.0590)  can1  8580C02   [8]  FF FF 00 00 00 00 00 00
 (2.0620)  can1  4100209   [8]  E9 35 13 00 00 00 00 00
 (2.0710)  can1  4100208   [8]  6F 10 13 00 00 00 00 00
 (2.0720)  can1  4100209   [8]  E9 35 13 00 00 00 00 00
 (2.0730)  can1  4100208   [8]  6F 10 13 00 00 00 00 00
 (2.0740)  can1  8100302   [5]  01 00 0A 00 18
 (2.0740)  can1  595FF71   [8]  05 80 60 09 60 09 FA 5D
 (2.0750)  can1  596FF71   [8]  00 80 FF FF FF FF F3 CB
 (2.0760)  can1  585FF72   [8]  03 80 60 09 60 09 F1 8A
 (2.0770)  can1  586FF72   [8]  02 80 FF FF FF FF F6 63
 (2.0790)  can1  89A0C02   [8]  00 00 00 00 99 17 00 00
 (2.0790)  can1  8030C02   [8]  00 00 2A 68 2A 68 92 17
 (2.0790)  can1  8580C02   [8]  00 00 01 00 00 00 00 00
 (2.0810)  can1  8041001   [8]  01 02 50 33 03 A7 3B 00
 (2.0810)  can1  8101201   [8]  F8 62 FB 8D 13 8A 53 00
 (2.0820)  can1  8010C01   [8]  77 62 00 00 00 00 00 00
 (2.0830)  can1  4100209   [8]  E9 35 13 00 00 00 00 00
 (2.0830)  can1  4100208   [8]  6F 10 13 00 00 00 00 00
 (2.0840)  can1  18800401   [8]  02 43 8D B1 8D 94 8D 00
 (2.0840)  can1  18840401   [8]  02 5D 8D C7 8D AB 8D 00
 (2.0850)  can1  18C00401   [8]  02 D6 30 35 30 B1 30 00
 (2.0920)  can1  4100209   [8]  E9 35 13 00 00 00 00 00
 (2.0930)  can1  4100208   [8]  6F 10 13 00 00 00 00 00
 (2.0940)  can1  595FF71   [8]  05 80 60 09 60 09 FB 5D
 (2.0950)  can1  596FF71   [8]  00 80 FF FF FF FF F4 CB
 (2.0970)  can1  585FF72   [8]  03 80 60 09 60 09 F2 8A
 (2.0970)  can1  586FF72   [8]  FE 7F FF FF FF FF F7 4D
 (2.0990)  can1  5807202   [8]  03 80 00 00 E0 01 0D BF
 (2.0990)  can1  5817202   [8]  01 00 10 27 10 27 00 E3
 (2.1000)  can1  5907102   [8]  05 80 00 00 E0 01 0D 68
 (2.1010)  can1  5827202   [8]  FA 00 00 00 00 00 0D D4
 (2.1020)  can1  5917102   [8]  01 00 10 27 10 27 00 E3
 (2.1020)  can1  599FF71   [8]  1A E0 02 82 02 00 F2 D1
 (2.1030)  can1  5837202   [8]  2C 41 06 00 00 00 0D E0
 (2.1030)  can1  5927102   [8]  FA 00 00 00 00 00 0D D4
 (2.1040)  can1  5937102   [8]  2C 41 06 00 00 00 0D E0
 (2.1050)  can1  5847270   [8]  00 00 00 00 00 00 0D 9F
 (2.1050)  can1  5947102   [8]  00 00 00 00 00 00 0D 9F
 (2.1050)  can1  4100209   [8]  E9 35 13 00 00 00 00 00
 (2.1060)  can1  8100302   [5]  01 00 0A 00 18
 (2.1060)  can1  8580C02   [8]  00 00 FF FF 00 00 00 00
 (2.1060)  can1  89A0C02   [8]  00 00 00 00 00 00 00 00
 (2.1070)  can1  4100208   [8]  6F 10 13 00 00 00 00 00
 (2.1070)  can1  597FF71   [8]  06 08 EB 0F FF FF F2 02
 (2.1070)  can1  598FF71   [8]  40 01 78 FF FF FF F2 CA
 (2.1070)  can1  8030C02   [8]  00 00 2A 68 2A 68 92 17
 (2.1120)  can1  587FF72   [8]  00 08 CD 0F FF FF F2 F6
 (2.1120)  can1  4100209   [8]  E9 35 13 00 00 00 00 00
 (2.1130)  can1  4100208   [8]  6F 10 13 00 00 00 00 00
 (2.1140)  can1  595FF71   [8]  05 80 60 09 60 09 FC 5D
 (2.1140)  can1  596FF71   [8]  00 80 FF FF FF FF F5 CB
 (2.1190)  can1  89A0C02   [8]  00 00 00 00 00 00 00 00
 (2.1190)  can1  8030C02   [8]  00 00 2A 68 2A 68 92 17
 (2.1200)  can1  8580C02   [8]  00 00 FF FF 00 00 00 00
 (2.1210)  can1  585FF72   [8]  03 80 60 09 60 09 F3 8A
 (2.1220)  can1  586FF72   [8]  FE 7F FF FF FF FF F8 4D
 (2.1230)  can1  1948FF72   [8]  00 C0 00 55 FF FF A2 B5
 (2.1230)  can1  4100209   [8]  E9 35 13 00 00 00 00 00
 (2.1240)  can1  4100208   [8]  6F 10 13 00 00 00 00 00
 (2.1240)  can1  8100302   [5]  01 00 0A 00 18
 (2.1320)  can1  4100209   [8]  E9 35 13 00 00 00 00 00
 (2.1330)  can1  4100208   [8]  6F 10 13 00 00 00 00 00
 (2.1340)  can1  18800401   [8]  03 65 8D 4E 8D 78 8D 00
 (2.1340)  can1  404FF03   [1]  00
 (2.1350)  can1  595FF71   [8]  05 80 60 09 60 09 FD 5D
 (2.1350)  can1  596FF71   [8]  FE 7F FF FF FF FF F6 4D
 (2.1350)  can1  18840401   [8]  03 7D 8D 65 8D 93 8D 00
 (2.1360)  can1  18C00401   [8]  03 26 30 6E 30 D2 2F 00
 (2.1360)  can1  8250C03   [8]  22 00 5D 01 00 00 26 00
 (2.1370)  can1  8840C03   [8]  39 00 12 00 23 00 07 00
 (2.1370)  can1  88D0C03   [8]  11 00 00 00 5C 00 75 00
 (2.1390)  can1  8030C02   [8]  00 00 2A 68 2A 68 92 17
 (2.1400)  can1  8580C02   [8]  FF FF FF FF 00 00 00 00
 (2.1400)  can1  89A0C02   [8]  00 00 00 00 00 00 00 00
 (2.1410)  can1  585FF72   [8]  03 80 60 09 60 09 F4 8A
 (2.1420)  can1  586FF72   [8]  FE 7F FF FF FF FF F9 4D
 (2.1420)  can1  588FF72   [8]  80 01 56 FF FF FF F3 95
 (2.1430)  can1  4100209   [8]  E9 35 13 00 00 00 00 00
 (2.1430)  can1  589FF72   [8]  1A D0 02 81 02 00 F3 87
 (2.1440)  can1  4100208   [8]  6F 10 13 00 00 00 00 00
 (2.1490)  can1  8100302   [5]  01 00 0A 00 18
 (2.1520)  can1  4100209   [8]  E9 35 13 00 00 00 00 00
 (2.1530)  can1  4100208   [8]  6F 10 13 00 00 00 00 00
 (2.1540)  can1  595FF71   [8]  05 80 60 09 60 09 FE 5D
 (2.1540)  can1  596FF71   [8]  02 80 FF FF FF FF F7 63
 (2.1590)  can1  5807202   [8]  03 80 00 00 E0 01 0E BF
 (2.1600)  can1  5817202   [8]  01 00 10 27 10 27 01 E3
 (2.1600)  can1  5907102   [8]  05 80 00 00 E0 01 0E 68
 (2.1610)  can1  5917102   [8]  01 00 10 27 10 27 01 E3
 (2.1620)  can1  5827202   [8]  FA 00 00 00 00 00 0E D4
 (2.1620)  can1  5927102   [8]  FA 00 00 00 00 00 0E D4
 (2.1630)  can1  5837202   [8]  2C 41 06 00 00 00 0E E0
 (2.1640)  can1  5847270   [8]  00 00 00 00 00 00 0E 9F
 (2.1640)  can1  5937102   [8]  2C 41 06 00 00 00 0E E0
 (2.1640)  can1  5947102   [8]  00 00 00 00 00 00 0E 9F
 (2.1650)  can1  585FF72   [8]  03 80 60 09 60 09 F5 8A
 (2.1650)  can1  4100209   [8]  E9 35 13 00 00 00 00 00
 (2.1650)  can1  586FF72   [8]  01 80 FF FF FF FF FA 9F
 (2.1660)  can1  8030C02   [8]  00 00 2A 68 2A 68 92 17
 (2.1660)  can1  8580C02   [8]  01 00 FF FF 00 00 00 00
 (2.1660)  can1  4100208   [8]  6F 10 13 00 00 00 00 00
 (2.1670)  can1  89A0C02   [8]  99 17 00 00 00 00 00 00
 (2.1670)  can1  404FF07   [1]  00
 (2.1690)  can1  1948FF71   [8]  00 C0 00 55 FF FF A2 B5
 (2.1700)  can1  1949FF71   [8]  0D 90 00 0D A0 00 A3 ED
 (2.1700)  can1  194AFF71   [8]  32 67 58 86 85 58 A4 F8
 (2.1700)  can1  194BFF71   [8]  88 F5 FF FF FF FF A5 1E
 (2.1710)  can1  194CFF71   [8]  FF FF FF FF FF FF A6 A0
 (2.1720)  can1  4100209   [8]  E9 35 13 00 00 00 00 00
 (2.1730)  can1  4100208   [8]  6F 10 13 00 00 00 00 00
 (2.1740)  can1  8100302   [5]  01 00 0A 00 18
 (2.1740)  can1  595FF71   [8]  05 80 60 09 60 09 FF 5D
 (2.1750)  can1  596FF71   [8]  FE 7F FF FF FF FF F8 4D
 (2.1790)  can1  89A0C02   [8]  00 00 00 00 CC 0B 00 00
 (2.1800)  can1  8030C02   [8]  00 00 2A 68 2A 68 92 17
 (2.1800)  can1  8580C02   [8]  FF FF 00 00 00 00 00 00
 (2.1810)  can1  404FF01   [1]  00
 (2.1810)  can1  8041001   [8]  01 02 50 33 03 A7 3B 00
 (2.1820)  can1  1949FF72   [8]  0D 80 00 0D 90 00 A3 CD
 (2.1820)  can1  194AFF72   [8]  55 77 57 77 55 57 A4 EA
 (2.1830)  can1  4100209   [8]  E9 35 13 00 00 00 00 00
 (2.1830)  can1  8010C01   [8]  75 62 00 00 00 00 00 00
 (2.1840)  can1  8101201   [8]  F4 62 FF 8D 13 8A 52 00
 (2.1840)  can1  194BFF72   [8]  77 F5 FF FF FF FF A5 0D
 (2.1850)  can1  4100208   [8]  6F 10 13 00 00 00 00 00
 (2.1860)  can1  80F1201   [4]  9C 0E 00 00
 (2.1860)  can1  8120C01   [8]  09 00 00 00 00 00 00 00
 (2.1860)  can1  18800401   [8]  04 9D 8D 8A 8D FD 89 00
 (2.1870)  can1  18840401   [8]  04 B4 8D 9F 8D 13 8A 00
 (2.1870)  can1  18C00401   [8]  04 89 2F 1F 2F 1C 30 00
 (2.1880)  can1  194CFF72   [8]  FF FF FF FF FF FF A6 A0
 (2.1880)  can1  585FF72   [8]  03 80 60 09 60 09 F6 8A
 (2.1880)  can1  586FF72   [8]  00 80 FF FF FF FF FB CB
 (2.1920)  can1  4100209   [8]  E9 35 13 00 00 00 00 00
 (2.1930)  can1  4100208   [8]  6F 10 13 00 00 00 00 00
 (2.1940)  can1  595FF71   [8]  05 80 60 09 60 09 F0 5D
 (2.1940)  can1  596FF71   [8]  00 80 FF FF FF FF F9 CB
 (2.1980)  can1  404FF02   [1]  00
 (2.1990)  can1  8100302   [5]  01 00 0A 00 18
 (2.1990)  can1  89A0C02   [8]  00 00 00 00 00 00 00 00
 (2.2000)  can1  8580C02   [8]  00 00 00 00 00 00 00 00
 (2.2010)  can1  8030C02   [8]  00 00 2A 68 2A 68 92 17
 (2.2020)  can1  4100209   [8]  E9 35 13 00 00 00 00 00
 (2.2030)  can1  4100208   [8]  6F 10 13 00 00 00 00 00
 (2.2040)  can1  597FF71   [8]  08 08 EB 0F FF FF F3 2B
 (2.2040)  can1  598FF71   [8]  40 01 78 FF FF FF F3 CA
 (2.2050)  can1  599FF71   [8]  1A E0 02 82 02 00 F3 D1
 (2.2060)  can1  585FF72   [8]  03 80 60 09 60 09 F7 8A
 (2.2070)  can1  586FF72   [8]  00 80 FF FF FF FF FC CB
 (2.2120)  can1  587FF72   [8]  FD 07 CF 0F FF FF F3 B2
 (2.2120)  can1  4100209   [8]  E9 35 13 00 00 00 00 00
 (2.2130)  can1  4100208   [8]  6F 10 13 00 00 00 00 00
 (2.2140)  can1  595FF71   [8]  05 80 60 09 60 09 F1 5D
 (2.2140)  can1  596FF71   [8]  FF 7F FF FF FF FF FA 19
 (2.2190)  can1  5807202   [8]  03 80 00 00 E0 01 0F BF
 (2.2190)  can1  5817202   [8]  01 00 10 27 10 27 02 E3
 (2.2200)  can1  5907102   [8]  05 80 00 00 E0 01 0F 68
 (2.2210)  can1  5917102   [8]  01 00 10 27 10 27 02 E3
 (2.2210)  can1  5827202   [8]  FA 00 00 00 00 00 0F D4
 (2.2220)  can1  5927102   [8]  FA 00 00 00 00 00 0F D4
 (2.2220)  can1  5837202   [8]  2C 41 06 00 00 00 0F E0
 (2.2230)  can1  5847270   [8]  00 00 00 00 00 00 0F 9F
 (2.2240)  can1  5937102   [8]  2C 41 06 00 00 00 0F E0
 (2.2240)  can1  5947102   [8]  00 00 00 00 00 00 0F 9F
 (2.2250)  can1  8580C02   [8]  00 00 00 00 00 00 00 00
 (2.2250)  can1  4100209   [8]  E9 35 13 00 00 00 00 00
 (2.2250)  can1  89A0C02   [8]  00 00 00 00 00 00 00 00
 (2.2260)  can1  8030C02   [8]  00 00 2A 68 2A 68 92 17
 (2.2260)  can1  4100208   [8]  6F 10 13 00 00 00 00 00
 (2.2270)  can1  8100302   [5]  01 00 0A 00 18
 (2.2270)  can1  585FF72   [8]  03 80 60 09 60 09 F8 8A
 (2.2270)  can1  586FF72   [8]  01 80 FF FF FF FF FD 9F
 (2.2320)  can1  4100209   [8]  E9 35 13 00 00 00 00 00
 (2.2330)  can1  4100208   [8]  6F 10 13 00 00 00 00 00
 (2.2340)  can1  18800401   [8]  05 79 8D 57 8D 62 8D 00
 (2.2340)  can1  595FF71   [8]  05 80 60 09 60 09 F2 5D
 (2.2350)  can1  596FF71   [8]  00 80 FF FF FF FF FB CB
 (2.2350)  can1  18101203   [4]  27 2D B8 07
 (2.2350)  can1  18840401   [8]  05 8F 8D 67 8D 79 8D 00
 (2.2360)  can1  18C00401   [8]  05 95 30 88 30 23 31 00
 (2.2390)  can1  89A0C02   [8]  00 00 00 00 CC 0B 00 00
 (2.2390)  can1  8030C02   [8]  00 00 2A 68 2A 68 92 17
 (2.2400)  can1  8580C02   [8]  00 00 00 00 00 00 00 00
 (2.2410)  can1  588FF72   [8]  80 01 56 FF FF FF F4 95
 (2.2420)  can1  589FF72   [8]  1A D0 02 81 02 00 F4 87
 (2.2430)  can1  4100209   [8]  E9 35 13 00 00 00 00 00
 (2.2430)  can1  4100208   [8]  6F 10 13 00 00 00 00 00
 (2.2460)  can1  585FF72   [8]  03 80 60 09 60 09 F9 8A
 (2.2470)  can1  586FF72   [8]  FF 7F FF FF FF FF FE 19
 (2.2470)  can1  528FF72   [8]  F1 FF 39 00 00 00 34 00
 (2.2480)  can1  529FF72   [8]  03 00 42 00 0A 00 03 00
 (2.2480)  can1  52AFF72   [8]  13 13 13 13 13 13 18 00
 (2.2490)  can1  52BFF72   [8]  11 16 11 13 00 FF 00 00
 (2.2490)  can1  52CFF72   [8]  00 00 EF FF EF FF 3A 00
 (2.2490)  can1  8100302   [5]  01 00 0A 00 18
 (2.2520)  can1  4100209   [8]  E9 35 13 00 00 00 00 00
 (2.2530)  can1  4100208   [8]  6F 10 13 00 00 00 00 00
 (2.2540)  can1  595FF71   [8]  05 80 60 09 60 09 F3 5D
 (2.2550)  can1  528FF71   [8]  05 00 57 00 00 00 56 00
 (2.2550)  can1  529FF71   [8]  07 00 51 00 0C 00 05 00
 (2.2560)  can1  52AFF71   [8]  14 14 14 14 14 14 14 00
 (2.2560)  can1  52BFF71   [8]  10 14 10 14 00 FF 00 00
 (2.2560)  can1  52CFF71   [8]  00 00 EF FF EF FF 3A 00
 (2.2570)  can1  596FF71   [8]  00 80 FF FF FF FF FC CB
 (2.2590)  can1  89A0C02   [8]  00 00 00 00 00 00 00 00
 (2.2590)  can1  8030C02   [8]  00 00 2A 68 2A 68 92 17
 (2.2600)  can1  8580C02   [8]  00 00 00 00 00 00 00 00
 (2.2620)  can1  4100209   [8]  E9 35 13 00 00 00 00 00
 (2.2630)  can1  4100208   [8]  6F 10 13 00 00 00 00 00
 (2.2660)  can1  585FF72   [8]  03 80 60 09 60 09 FA 8A
 (2.2670)  can1  586FF72   [8]  FC 7F FF FF FF FF FF E5
 (2.2720)  can1  4100209   [8]  E9 35 13 00 00 00 00 00
 (2.2730)  can1  4100208   [8]  6F 10 13 00 00 00 00 00
 (2.2740)  can1  8100302   [5]  01 00 0A 00 18
 (2.2740)  can1  595FF71   [8]  05 80 60 09 60 09 F4 5D
 (2.2750)  can1  596FF71   [8]  FE 7F FF FF FF FF FD 4D
 (2.2790)  can1  5807202   [8]  03 80 00 00 E0 01 00 BF
 (2.2790)  can1  5817202   [8]  01 00 10 27 10 27 03 E3
 (2.2800)  can1  5907102   [8]  05 80 00 00 E0 01 00 68
 (2.2800)  can1  5917102   [8]  01 00 10 27 10 27 03 E3
 (2.2810)  can1  5827202   [8]  FA 00 00 00 00 00 00 D4
 (2.2810)  can1  5927102   [8]  FA 00 00 00 00 00 00 D4
 (2.2810)  can1  5837202   [8]  2C 41 06 00 00 00 00 E0
 (2.2820)  can1  5847270   [8]  00 00 00 00 00 00 00 9F
 (2.2830)  can1  5937102   [8]  2C 41 06 00 00 00 00 E0
 (2.2840)  can1  8041001   [8]  01 02 50 33 03 A7 3B 00
 (2.2840)  can1  5947102   [8]  00 00 00 00 00 00 00 9F
 (2.2850)  can1  8580C02   [8]  FF FF FE FF 00 00 00 00
 (2.2850)  can1  4100209   [8]  E9 35 13 00 00 00 00 00
 (2.2850)  can1  8030C02   [8]  00 00 2A 68 2A 68 92 17
 (2.2860)  can1  89A0C02   [8]  00 00 00 00 00 00 00 00
 (2.2860)  can1  4100208   [8]  6F 10 13 00 00 00 00 00
 (2.2860)  can1  8010C01   [8]  78 62 00 00 00 00 00 00
 (2.2870)  can1  8101201   [8]  F6 62 00 8E 14 8A 58 00
 (2.2870)  can1  18800401   [8]  06 68 8D B2 8D BE 8D 00
 (2.2870)  can1  18840401   [8]  06 89 8D CB 8D D6 8D 00
 (2.2870)  can1  18C00401   [8]  06 8A 30 5C 31 85 30 00
 (2.2880)  can1  585FF72   [8]  03 80 60 09 60 09 FB 8A
 (2.2880)  can1  586FF72   [8]  FF 7F FF FF FF FF F0 19
 (2.2920)  can1  4100209   [8]  E9 35 13 00 00 00 00 00
 (2.2930)  can1  4100208   [8]  6F 10 13 00 00 00 00 00
 (2.2940)  can1  595FF71   [8]  05 80 60 09 60 09 F5 5D
 (2.2940)  can1  596FF71   [8]  FF 7F FF FF FF FF FE 19
 (2.2990)  can1  8100302   [5]  01 00 0A 00 18
 (2.2990)  can1  8580C02   [8]  00 00 00 00 00 00 00 00
 (2.3000)  can1  89A0C02   [8]  00 00 00 00 00 00 00 00
 (2.3000)  can1  8030C02   [8]  00 00 2A 68 2A 68 92 17
 (2.3020)  can1  4100209   [8]  E9 35 13 00 00 00 00 00
 (2.3030)  can1  4100208   [8]  6F 10 13 00 00 00 00 00
 (2.3040)  can1  597FF71   [8]  06 08 E9 0F FF FF F4 47
 (2.3040)  can1  598FF71   [8]  40 01 78 FF FF FF F4 CA
 (2.3050)  can1  599FF71   [8]  1A E0 02 82 02 00 F4 D1
 (2.3060)  can1  585FF72   [8]  03 80 60 09 60 09 FC 8A
 (2.3070)  can1  586FF72   [8]  FE 7F FF FF FF FF F1 4D
 (2.3120)  can1  587FF72   [8]  02 08 CF 0F FF FF F4 1B
 (2.3120)  can1  4100209   [8]  E9 35 13 00 00 00 00 00
 (2.3130)  can1  4100208   [8]  6F 10 13 00 00 00 00 00
 (2.3140)  can1  595FF71   [8]  05 80 60 09 60 09 F6 5D
 (2.3140)  can1  596FF71   [8]  FF 7F FF FF FF FF FF 19
 (2.3190)  can1  89A0C02   [8]  00 00 00 00 00 00 00 00
 (2.3190)  can1  8030C02   [8]  00 00 2A 68 2A 68 92 17
 (2.3200)  can1  8580C02   [8]  00 00 FF FF 00 00 00 00
 (2.3220)  can1  4100209   [8]  E9 35 13 00 00 00 00 00
 (2.3230)  can1  4100208   [8]  6F 10 13 00 00 00 00 00
 (2.3240)  can1  8100302   [5]  01 00 0A 00 18
 (2.3260)  can1  585FF72   [8]  03 80 60 09 60 09 FD 8A
 (2.3270)  can1  586FF72   [8]  FD 7F FF FF FF FF F2 B1
 (2.3320)  can1  4100209   [8]  E9 35 13 00 00 00 00 00
 (2.3330)  can1  4100208   [8]  6F 10 13 00 00 00 00 00
 (2.3340)  can1  18800401   [8]  07 BE 8D A5 8D 68 8D 00
 (2.3340)  can1  18840401   [8]  07 D6 8D BC 8D 80 8D 00
 (2.3340)  can1  595FF71   [8]  05 80 60 09 60 09 F7 5D
 (2.3350)  can1  596FF71   [8]  FF 7F FF FF FF FF F0 19
 (2.3350)  can1  18C00401   [8]  07 68 31 6C 30 5E 31 00
 (2.3390)  can1  5807202   [8]  03 80 00 00 E0 01 01 BF
 (2.3390)  can1  5817202   [8]  01 00 10 27 10 27 04 E3
 (2.3400)  can1  5907102   [8]  05 80 00 00 E0 01 01 68
 (2.3400)  can1  5827202   [8]  FA 00 00 00 00 00 01 D4
 (2.3410)  can1  5917102   [8]  01 00 10 27 10 27 04 E3
 (2.3420)  can1  5837202   [8]  2C 41 06 00 00 00 01 E0
 (2.3420)  can1  5927102   [8]  FA 00 00 00 00 00 01 D4
 (2.3430)  can1  5937102   [8]  2C 41 06 00 00 00 01 E0
 (2.3430)  can1  5847270   [8]  00 00 00 00 00 00 01 9F
 (2.3440)  can1  588FF72   [8]  80 01 56 FF FF FF F5 95
 (2.3440)  can1  4100209   [8]  E9 35 13 00 00 00 00 00
 (2.3450)  can1  589FF72   [8]  1A D0 02 81 02 00 F5 87
 (2.3450)  can1  5947102   [8]  00 00 00 00 00 00 01 9F
 (2.3450)  can1  8580C02   [8]  00 00 FE FF 00 00 00 00
 (2.3450)  can1  4100208   [8]  6F 10 13 00 00 00 00 00
 (2.3460)  can1  8030C02   [8]  00 00 2A 68 2A 68 92 17
 (2.3460)  can1  89A0C02   [8]  00 00 00 00 00 00 00 00
 (2.3460)  can1  585FF72   [8]  03 80 60 09 60 09 FE 8A
 (2.3470)  can1  586FF72   [8]  01 80 FF FF FF FF F3 9F
 (2.3490)  can1  8100302   [5]  01 00 0A 00 18
 (2.3520)  can1  4100209   [8]  E9 35 13 00 00 00 00 00
 (2.3530)  can1  4100208   [8]  6F 10 13 00 00 00 00 00
 (2.3540)  can1  595FF71   [8]  05 80 60 09 60 09 F8 5D
 (2.3550)  can1  596FF71   [8]  00 80 FF FF FF FF F1 CB
 (2.3590)  can1  89A0C02   [8]  00 00 00 00 CC 0B 00 00
 (2.3590)  can1  8030C02   [8]  00 00 2A 68 2A 68 92 17
 (2.3600)  can1  8580C02   [8]  00 00 00 00 00 00 00 00
 (2.3620)  can1  4100209   [8]  E9 35 13 00 00 00 00 00
 (2.3630)  can1  4100208   [8]  6F 10 13 00 00 00 00 00
 (2.3660)  can1  585FF72   [8]  03 80 60 09 60 09 FF 8A
 (2.3670)  can1  586FF72   [8]  00 80 FF FF FF FF F4 CB
 (2.3720)  can1  4100209   [8]  E9 35 13 00 00 00 00 00
 (2.3730)  can1  4100208   [8]  6F 10 13 00 00 00 00 00
 (2.3740)  can1  8100302   [5]  01 00 0A 00 18
 (2.3740)  can1  595FF71   [8]  05 80 60 09 60 09 F9 5D
 (2.3740)  can1  596FF71   [8]  01 80 FF FF FF FF F2 9F
 (2.3760)  can1  1948FF72   [8]  00 C0 00 55 FF FF A7 BA
 (2.3790)  can1  89A0C02   [8]  CC 0B 00 00 00 00 00 00
 (2.3790)  can1  8030C02   [8]  00 00 2A 68 2A 68 92 17
 (2.3800)  can1  8580C02   [8]  00 00 00 00 00 00 00 00
 (2.3810)  can1  8041001   [8]  01 02 50 33 03 A7 3B 00
 (2.3820)  can1  4100209   [8]  E9 35 13 00 00 00 00 00
 (2.3830)  can1  4100208   [8]  6F 10 13 00 00 00 00 00
 (2.3840)  can1  18800401   [8]  08 50 8D 20 8A D2 8D 00
 (2.3840)  can1  18840401   [8]  08 69 8D 38 8A EA 8D 00
 (2.3850)  can1  18C00401   [8]  08 20 30 46 31 D3 2F 00
 (2.3850)  can1  8101201   [8]  F7 62 FC 8D 15 8A 59 00
 (2.3850)  can1  8010C01   [8]  77 62 00 00 00 00 00 00
 (2.3860)  can1  585FF72   [8]  03 80 60 09 60 09 F0 8A
 (2.3870)  can1  586FF72   [8]  00 80 FF FF FF FF F5 CB
 (2.3920)  can1  4100209   [8]  E9 35 13 00 00 00 00 00
 (2.3930)  can1  4100208   [8]  6F 10 13 00 00 00 00 00
 (2.3940)  can1  595FF71   [8]  05 80 60 09 60 09 FA 5D
 (2.3940)  can1  596FF71   [8]  01 80 FF FF FF FF F3 9F
 (2.3990)  can1  5807202   [8]  00 80 00 00 E0 01 02 43
 (2.3990)  can1  5817202   [8]  01 00 10 27 10 27 05 E3
 (2.4000)  can1  5907102   [8]  00 80 00 00 E0 01 02 43
 (2.4000)  can1  5917102   [8]  01 00 10 27 10 27 05 E3
 (2.4010)  can1  5827202   [8]  FA 00 00 00 00 00 02 D4
 (2.4010)  can1  5927102   [8]  FA 00 00 00 00 00 02 D4
 (2.4020)  can1  5837202   [8]  2C 41 06 00 00 00 02 E0
 (2.4030)  can1  5847270   [8]  00 00 00 00 00 00 02 9F
 (2.4040)  can1  5937102   [8]  2C 41 06 00 00 00 02 E0
 (2.4040)  can1  5947102   [8]  00 00 00 00 00 00 02 9F
 (2.4040)  can1  8100302   [5]  00 00 0A 00 18
 (2.4050)  can1  4100209   [8]  E9 35 13 00 00 00 00 00
 (2.4050)  can1  89A0C02   [8]  CC 0B 00 00 00 00 00 00
 (2.4050)  can1  8030C02   [8]  00 00 2A 68 2A 68 92 17
 (2.4060)  can1  8580C02   [8]  00 00 00 00 00 00 00 00
 (2.4060)  can1  4100208   [8]  6F 10 13 00 00 00 00 00
 (2.4060)  can1  597FF71   [8]  06 08 E9 0F FF FF F5 47
 (2.4070)  can1  598FF71   [8]  40 01 78 FF FF FF F5 CA
 (2.4080)  can1  599FF71   [8]  1A E0 02 82 02 00 F5 D1
 (2.4080)  can1  585FF72   [8]  03 80 60 09 60 09 F1 8A
 (2.4080)  can1  586FF72   [8]  FF 7F FF FF FF FF F6 19
 (2.4120)  can1  587FF72   [8]  00 08 CF 0F FF FF F5 B3
 (2.4120)  can1  4100209   [8]  E9 35 13 00 00 00 00 00
 (2.4130)  can1  4100208   [8]  6F 10 13 00 00 00 00 00
 (2.4140)  can1  595FF71   [8]  05 80 60 09 60 09 FB 5D
 (2.4150)  can1  596FF71   [8]  FE 7F FF FF FF FF F4 4D
 (2.4190)  can1  89A0C02   [8]  00 00 00 00 00 00 00 00
 (2.4190)  can1  8030C02   [8]  00 00 2A 68 2A 68 92 17
 (2.4200)  can1  8580C02   [8]  FF FF 00 00 00 00 00 00
 (2.4220)  can1  4100209   [8]  E9 35 13 00 00 00 00 00
 (2.4230)  can1  4100208   [8]  6F 10 13 00 00 00 00 00
 (2.4240)  can1  8100302   [5]  00 00 0A 00 18
 (2.4240)  can1  1948FF71   [8]  00 C0 00 55 FF FF A7 BA
 (2.4250)  can1  1949FF71   [8]  0D 80 00 0D A0 00 A8 E2
 (2.4250)  can1  194AFF71   [8]  32 67 58 86 85 58 A9 FD
 (2.4260)  can1  194BFF71   [8]  94 F5 FF FF FF FF AA 2F
 (2.4260)  can1  194CFF71   [8]  FF FF FF FF FF FF AB A5
 (2.4260)  can1  585FF72   [8]  00 80 60 09 60 09 F2 76
 (2.4270)  can1  586FF72   [8]  FE 7F FF FF FF FF F7 4D
 (2.4320)  can1  4100209   [8]  E9 35 13 00 00 00 00 00
 (2.4330)  can1  4100208   [8]  6F 10 13 00 00 00 00 00
 (2.4340)  can1  18800401   [8]  09 BE 8D 8C 8D 72 8D 00
 (2.4340)  can1  18840401   [8]  09 D5 8D A5 8D 8A 8D 00
 (2.4350)  can1  595FF71   [8]  00 80 60 09 60 09 FC 76
 (2.4350)  can1  596FF71   [8]  FE 7F FF FF FF FF F5 4D
 (2.4350)  can1  18C00401   [8]  09 BD 30 8A 2F 9F 30 00
 (2.4360)  can1  1949FF72   [8]  0D 80 00 0D 80 00 A8 C2
 (2.4370)  can1  194AFF72   [8]  55 77 57 7A 75 57 A9 12
 (2.4370)  can1  194BFF72   [8]  80 F5 FF FF FF FF AA 1B
 (2.4380)  can1  194CFF72   [8]  FF FF FF FF FF FF AB A5
 (2.4390)  can1  89A0C02   [8]  00 00 00 00 00 00 00 00
 (2.4390)  can1  8030C02   [8]  00 00 2A 68 2A 68 92 17
 (2.4400)  can1  8580C02   [8]  FF FF FF FF 00 00 00 00
 (2.4420)  can1  4100209   [8]  E9 35 13 00 00 00 00 00
 (2.4440)  can1  4100208   [8]  6F 10 13 00 00 00 00 00
 (2.4460)  can1  585FF72   [8]  00 80 60 09 60 09 F3 76
 (2.4470)  can1  586FF72   [8]  00 80 FF FF FF FF F8 CB
 (2.4470)  can1  588FF72   [8]  80 01 56 FF FF FF F6 95
 (2.4480)  can1  589FF72   [8]  1A D0 02 81 02 00 F6 87
 (2.4490)  can1  8100302   [5]  00 00 0A 00 18
 (2.4520)  can1  4100209   [8]  E9 35 13 00 00 00 00 00
 (2.4530)  can1  4100208   [8]  6F 10 13 00 00 00 00 00
 (2.4540)  can1  595FF71   [8]  00 80 60 09 60 09 FD 76
 (2.4540)  can1  596FF71   [8]  FD 7F FF FF FF FF F6 B1
 (2.4590)  can1  5807202   [8]  03 80 00 00 E0 01 03 BF
 (2.4590)  can1  5817202   [8]  01 00 10 27 10 27 06 E3
 (2.4600)  can1  5907102   [8]  05 80 00 00 E0 01 03 68
 (2.4610)  can1  5917102   [8]  01 00 10 27 10 27 06 E3
 (2.4620)  can1  5827202   [8]  FA 00 00 00 00 00 03 D4
 (2.4620)  can1  5927102   [8]  FA 00 00 00 00 00 03 D4
 (2.4620)  can1  5837202   [8]  2C 41 06 00 00 00 03 E0
 (2.4620)  can1  5847270   [8]  00 00 00 00 00 00 03 9F
 (2.4630)  can1  5937102   [8]  2C 41 06 00 00 00 03 E0
 (2.4630)  can1  5947102   [8]  00 00 00 00 00 00 03 9F
 (2.4640)  can1  8580C02   [8]  FE FF 00 00 00 00 00 00
 (2.4640)  can1  4100209   [8]  E9 35 13 00 00 00 00 00
 (2.4640)  can1  89A0C02   [8]  00 00 00 00 00 00 00 00
 (2.4650)  can1  8030C02   [8]  00 00 2A 68 2A 68 92 17
 (2.4650)  can1  4100208   [8]  6F 10 13 00 00 00 00 00
 (2.4660)  can1  585FF72   [8]  00 80 60 09 60 09 F4 76
 (2.4670)  can1  586FF72   [8]  00 80 FF FF FF FF F9 CB
 (2.4720)  can1  4100209   [8]  E9 35 13 00 00 00 00 00
 (2.4730)  can1  4100208   [8]  6F 10 13 00 00 00 00 00
 (2.4740)  can1  8100302   [5]  01 00 0A 00 18
 (2.4740)  can1  595FF71   [8]  00 80 60 09 60 09 FE 76
 (2.4740)  can1  596FF71   [8]  FE 7F FF FF FF FF F7 4D
 (2.4790)  can1  89A0C02   [8]  00 00 00 00 00 00 00 00
 (2.4790)  can1  8030C02   [8]  00 00 2A 68 2A 68 92 17
 (2.4800)  can1  8580C02   [8]  FF FF 00 00 00 00 00 00
 (2.4810)  can1  8041001   [8]  01 02 50 33 03 A7 3B 00
 (2.4820)  can1  4100209   [8]  E9 35 13 00 00 00 00 00
 (2.4830)  can1  4100208   [8]  6F 10 13 00 00 00 00 00
 (2.4840)  can1  18800401   [8]  0A 1C 8D 62 8D 8C 8D 00
 (2.4840)  can1  18840401   [8]  0A 3E 8D 76 8D 9D 8D 00
 (2.4850)  can1  18C00401   [8]  0A 73 30 44 31 B6 30 00
 (2.4850)  can1  8101201   [8]  F9 62 00 8E 17 8A 42 00
 (2.4860)  can1  8010C01   [8]  77 62 00 00 00 00 00 00
 (2.4860)  can1  585FF72   [8]  03 80 60 09 60 09 F5 8A
 (2.4870)  can1  586FF72   [8]  FE 7F FF FF FF FF FA 4D
 (2.4920)  can1  4100209   [8]  E9 35 13 00 00 00 00 00
 (2.4930)  can1  4100208   [8]  6F 10 13 00 00 00 00 00
 (2.4940)  can1  595FF71   [8]  05 80 60 09 60 09 FF 5D
 (2.4940)  can1  596FF71   [8]  FE 7F FF FF FF FF F8 4D
 (2.4990)  can1  8100302   [5]  01 00 0A 00 18
 (2.4990)  can1  8580C02   [8]  FF FF FF FF 00 00 00 00
 (2.4990)  can1  89A0C02   [8]  00 00 00 00 00 00 00 00
 (2.5000)  can1  8030C02   [8]  00 00 2A 68 2A 68 92 17
 (2.5020)  can1  4100209   [8]  E9 35 13 00 00 00 00 00
 (2.5030)  can1  4100208   [8]  6F 10 13 00 00 00 00 00
 (2.5040)  can1  597FF71   [8]  06 08 EB 0F FF FF F6 02
 (2.5040)  can1  598FF71   [8]  40 01 78 FF FF FF F6 CA
 (2.5050)  can1  599FF71   [8]  1A E0 02 82 02 00 F6 D1
 (2.5060)  can1  585FF72   [8]  03 80 60 09 60 09 F6 8A
 (2.5070)  can1  586FF72   [8]  FF 7F FF FF FF FF FB 19
 (2.5120)  can1  4100209   [8]  E9 35 13 00 00 00 00 00
 (2.5130)  can1  4100208   [8]  6F 10 13 00 00 00 00 00
 (2.5140)  can1  595FF71   [8]  05 80 60 09 60 09 F0 5D
 (2.5140)  can1  596FF71   [8]  00 80 FF FF FF FF F9 CB
 (2.5160)  can1  587FF72   [8]  01 08 CF 0F FF FF F6 E7
 (2.5190)  can1  5807202   [8]  03 80 00 00 E0 01 04 BF
 (2.5190)  can1  5817202   [8]  01 00 10 27 10 27 07 E3
 (2.5200)  can1  5907102   [8]  05 80 00 00 E0 01 04 68
 (2.5210)  can1  5917102   [8]  01 00 10 27 10 27 07 E3
 (2.5210)  can1  5827202   [8]  FA 00 00 00 00 00 04 D4
 (2.5220)  can1  5927102   [8]  FA 00 00 00 00 00 04 D4
 (2.5220)  can1  5837202   [8]  2C 41 06 00 00 00 04 E0
 (2.5230)  can1  5847270   [8]  00 00 00 00 00 00 04 9F
 (2.5230)  can1  5937102   [8]  2C 41 06 00 00 00 04 E0
 (2.5240)  can1  5947102   [8]  00 00 00 00 00 00 04 9F
 (2.5240)  can1  8580C02   [8]  00 00 00 00 00 00 00 00
 (2.5240)  can1  4100209   [8]  E9 35 13 00 00 00 00 00
 (2.5250)  can1  89A0C02   [8]  00 00 00 00 00 00 00 00
 (2.5250)  can1  8030C02   [8]  00 00 2A 68 2A 68 92 17
 (2.5250)  can1  4100208   [8]  6F 10 13 00 00 00 00 00
 (2.5260)  can1  8100302   [5]  01 00 0A 00 18
 (2.5260)  can1  585FF72   [8]  03 80 60 09 60 09 F7 8A
 (2.5270)  can1  586FF72   [8]  FF 7F FF FF FF FF FC 19
 (2.5320)  can1  4100209   [8]  E9 35 13 00 00 00 00 00
 (2.5330)  can1  4100208   [8]  6F 10 13 00 00 00 00 00
 (2.5340)  can1  18800401   [8]  0B AF 8D B0 8D B9 8D 00
 (2.5340)  can1  18840401   [8]  0B C5 8D C3 8D CF 8D 00
 (2.5350)  can1  595FF71   [8]  05 80 60 09 60 09 F1 5D
 (2.5350)  can1  596FF71   [8]  03 80 FF FF FF FF FA 37
 (2.5360)  can1  18C00401   [8]  0B 7F 31 C0 30 74 31 00
 (2.5390)  can1  89A0C02   [8]  66 23 00 00 00 00 00 00
 (2.5390)  can1  8030C02   [8]  00 00 2A 68 2A 68 92 17
 (2.5400)  can1  8580C02   [8]  02 00 00 00 00 00 00 00
 (2.5420)  can1  4100209   [8]  E9 35 13 00 00 00 00 00
 (2.5430)  can1  4100208   [8]  6F 10 13 00 00 00 00 00
 (2.5460)  can1  585FF72   [8]  03 80 60 09 60 09 F8 8A
 (2.5470)  can1  586FF72   [8]  FE 7F FF FF FF FF FD 4D
 (2.5480)  can1  588FF72   [8]  80 01 56 FF FF FF F7 95
 (2.5480)  can1  589FF72   [8]  1A D0 02 81 02 00 F7 87
 (2.5490)  can1  8100302   [5]  01 00 0A 00 18
 (2.5520)  can1  4100209   [8]  E9 35 13 00 00 00 00 00
 (2.5530)  can1  4100208   [8]  6F 10 13 00 00 00 00 00
 (2.5540)  can1  595FF71   [8]  05 80 60 09 60 09 F2 5D
 (2.5540)  can1  596FF71   [8]  FE 7F FF FF FF FF FB 4D
 (2.5590)  can1  89A0C02   [8]  00 00 00 00 00 00 00 00
 (2.5590)  can1  8030C02   [8]  00 00 2A 68 2A 68 92 17
 (2.5590)  can1  8580C02   [8]  FF FF FF FF 00 00 00 00
 (2.5620)  can1  4100209   [8]  E9 35 13 00 00 00 00 00
 (2.5630)  can1  4100208   [8]  6F 10 13 00 00 00 00 00
 (2.5660)  can1  585FF72   [8]  03 80 60 09 60 09 F9 8A
 (2.5670)  can1  586FF72   [8]  00 80 FF FF FF FF FE CB
 (2.5720)  can1  4100209   [8]  E9 35 13 00 00 00 00 00
 (2.5730)  can1  4100208   [8]  6F 10 13 00 00 00 00 00
 (2.5730)  can1  8100302   [5]  01 00 0A 00 18
 (2.5740)  can1  595FF71   [8]  05 80 60 09 60 09 F3 5D
 (2.5740)  can1  596FF71   [8]  00 80 FF FF FF FF FC CB
 (2.5790)  can1  5807202   [8]  03 80 00 00 E0 01 05 BF
 (2.5790)  can1  5817202   [8]  01 00 10 27 10 27 08 E3
 (2.5800)  can1  5907102   [8]  05 80 00 00 E0 01 05 68
 (2.5800)  can1  5827202   [8]  FA 00 00 00 00 00 05 D4
 (2.5810)  can1  5917102   [8]  01 00 10 27 10 27 08 E3
 (2.5810)  can1  5837202   [8]  2C 41 06 00 00 00 05 E0
 (2.5820)  can1  5927102   [8]  FA 00 00 00 00 00 05 D4
 (2.5830)  can1  5937102   [8]  2C 41 06 00 00 00 05 E0
 (2.5830)  can1  8041001   [8]  01 02 50 33 03 A7 3B 00
 (2.5840)  can1  5847270   [8]  00 00 00 00 00 00 05 9F
 (2.5840)  can1  5947102   [8]  00 00 00 00 00 00 05 9F
 (2.5850)  can1  4100209   [8]  E9 35 13 00 00 00 00 00
 (2.5850)  can1  8030C02   [8]  00 00 2A 68 2A 68 92 17
 (2.5850)  can1  8580C02   [8]  00 00 00 00 00 00 00 00
 (2.5860)  can1  4100208   [8]  6F 10 13 00 00 00 00 00
 (2.5860)  can1  89A0C02   [8]  00 00 00 00 00 00 00 00
 (2.5860)  can1  18800401   [8]  0C AD 8D 6D 8D 69 8D 00
 (2.5870)  can1  18840401   [8]  0C C4 8D 84 8D 80 8D 00
 (2.5870)  can1  18C00401   [8]  0C 8F 30 2B 31 4A 30 00
 (2.5880)  can1  585FF72   [8]  03 80 60 09 60 09 FA 8A
 (2.5880)  can1  586FF72   [8]  FF 7F FF FF FF FF FF 19
 (2.5890)  can1  8010C01   [8]  76 62 00 00 00 00 00 00
 (2.5890)  can1  8101201   [8]  F5 62 FF 8D 17 8A 5A 00
 (2.5920)  can1  4100209   [8]  E9 35 13 00 00 00 00 00
 (2.5930)  can1  4100208   [8]  6F 10 13 00 00 00 00 00
 (2.5940)  can1  595FF71   [8]  05 80 60 09 60 09 F4 5D
 (2.5940)  can1  596FF71   [8]  01 80 FF FF FF FF FD 9F
 (2.5990)  can1  8100302   [5]  01 00 0A 00 18
 (2.5990)  can1  8580C02   [8]  00 00 00 00 00 00 00 00
 (2.5990)  can1  89A0C02   [8]  CC 0B 00 00 00 00 00 00
 (2.6000)  can1  8030C02   [8]  00 00 2A 68 2A 68 92 17
 (2.6020)  can1  4100209   [8]  E9 35 13 00 00 00 00 00
 (2.6030)  can1  4100208   [8]  6F 10 13 00 00 00 00 00
 (2.6040)  can1  597FF71   [8]  12 08 E9 0F FF FF F7 EB
 (2.6040)  can1  598FF71   [8]  40 01 78 FF FF FF F7 CA
 (2.6050)  can1  599FF71   [8]  1A E0 02 82 02 00 F7 D1
 (2.6060)  can1  585FF72   [8]  03 80 60 09 60 09 FB 8A
 (2.6070)  can1  586FF72   [8]  01 80 FF FF FF FF F0 9F
 (2.6120)  can1  4100209   [8]  E9 35 13 00 00 00 00 00
 (2.6130)  can1  4100208   [8]  6F 10 13 00 00 00 00 00
 (2.6140)  can1  595FF71   [8]  05 80 60 09 60 09 F5 5D
 (2.6140)  can1  596FF71   [8]  02 80 FF FF FF FF FE 63
 (2.6160)  can1  587FF72   [8]  00 08 CF 0F FF FF F7 B3
 (2.6190)  can1  89A0C02   [8]  99 17 00 00 CC 0B 00 00
 (2.6190)  can1  8030C02   [8]  00 00 2A 68 2A 68 92 17
 (2.6190)  can1  8580C02   [8]  01 00 00 00 00 00 00 00
 (2.6220)  can1  4100209   [8]  E9 35 13 00 00 00 00 00
 (2.6230)  can1  4100208   [8]  6F 10 13 00 00 00 00 00
 (2.6240)  can1  8100302   [5]  01 00 0A 00 18
 (2.6260)  can1  585FF72   [8]  03 80 60 09 60 09 FC 8A
 (2.6270)  can1  586FF72   [8]  01 80 FF FF FF FF F1 9F
 (2.6280)  can1  1948FF72   [8]  00 C0 00 55 FF FF AC BF
 (2.6320)  can1  4100209   [8]  E9 35 13 00 00 00 00 00
 (2.6330)  can1  4100208   [8]  6F 10 13 00 00 00 00 00
 (2.6340)  can1  18800401   [8]  0D 88 8D B5 8D 9C 8D 00
 (2.6340)  can1  18840401   [8]  0D 9F 8D CD 8D B3 8D 00
 (2.6340)  can1  595FF71   [8]  05 80 60 09 60 09 F6 5D
 (2.6350)  can1  596FF71   [8]  01 80 FF FF FF FF FF 9F
 (2.6350)  can1  18C00401   [8]  0D CA 30 84 2F DB 2F 00
 (2.6390)  can1  5807202   [8]  03 80 00 00 E0 01 06 BF
 (2.6390)  can1  5817202   [8]  01 00 10 27 10 27 09 E3
 (2.6400)  can1  5907102   [8]  05 80 00 00 E0 01 06 68
 (2.6400)  can1  5827202   [8]  FA 00 00 00 00 00 06 D4
 (2.6410)  can1  5917102   [8]  01 00 10 27 10 27 09 E3
 (2.6420)  can1  5927102   [8]  FA 00 00 00 00 00 06 D4
 (2.6420)  can1  5837202   [8]  2C 41 06 00 00 00 06 E0
 (2.6430)  can1  5937102   [8]  2C 41 06 00 00 00 06 E0
 (2.6430)  can1  5847270   [8]  00 00 00 00 00 00 06 9F
 (2.6440)  can1  5947102   [8]  00 00 00 00 00 00 06 9F
 (2.6440)  can1  4100209   [8]  E9 35 13 00 00 00 00 00
 (2.6450)  can1  89A0C02   [8]  CC 0B 00 00 CC 0B 00 00
 (2.6450)  can1  8030C02   [8]  00 00 2A 68 2A 68 92 17
 (2.6450)  can1  8580C02   [8]  00 00 00 00 00 00 00 00
 (2.6450)  can1  4100208   [8]  6F 10 13 00 00 00 00 00
 (2.6460)  can1  585FF72   [8]  03 80 60 09 60 09 FD 8A
 (2.6470)  can1  586FF72   [8]  00 80 FF FF FF FF F2 CB
 (2.6480)  can1  588FF72   [8]  80 01 56 FF FF FF F8 95
 (2.6480)  can1  589FF72   [8]  1A D0 02 81 02 00 F8 87
 (2.6490)  can1  8100302   [5]  01 00 0A 00 18
 (2.6520)  can1  4100209   [8]  E9 35 13 00 00 00 00 00
 (2.6530)  can1  4100208   [8]  6F 10 13 00 00 00 00 00
 (2.6540)  can1  595FF71   [8]  05 80 60 09 60 09 F7 5D
 (2.6540)  can1  596FF71   [8]  FE 7F FF FF FF FF F0 4D
 (2.6590)  can1  89A0C02   [8]  00 00 00 00 00 00 00 00
 (2.6590)  can1  8030C02   [8]  00 00 2A 68 2A 68 92 17
 (2.6600)  can1  8580C02   [8]  FF FF 00 00 00 00 00 00
 (2.6620)  can1  4100209   [8]  E9 35 13 00 00 00 00 00
 (2.6630)  can1  4100208   [8]  6F 10 13 00 00 00 00 00
 (2.6660)  can1  585FF72   [8]  03 80 60 09 60 09 FE 8A
 (2.6670)  can1  586FF72   [8]  01 80 FF FF FF FF F3 9F
 (2.6720)  can1  4100209   [8]  E9 35 13 00 00 00 00 00
 (2.6730)  can1  4100208   [8]  6F 10 13 00 00 00 00 00
 (2.6740)  can1  8100302   [5]  01 00 0A 00 18
 (2.6750)  can1  595FF71   [8]  05 80 60 09 60 09 F8 5D
 (2.6840)  can1  596FF71   [8]  FE 7F FF FF FF FF F1 4D
 (2.6850)  can1  89A0C02   [8]  00 00 00 00 CC 0B 00 00
 (2.6850)  can1  8030C02   [8]  00 00 2A 68 2A 68 92 17
 (2.6850)  can1  8580C02   [8]  FF FF 00 00 00 00 00 00
 (2.6860)  can1  1948FF71   [8]  00 C0 00 55 FF FF AC BF
 (2.6860)  can1  1949FF71   [8]  0D 80 00 0D C0 00 AD 07
 (2.6860)  can1  194AFF71   [8]  32 67 58 88 65 58 AE E4
 (2.6870)  can1  194BFF71   [8]  94 F5 FF FF FF FF AF 34
 (2.6870)  can1  194CFF71   [8]  FF FF FF FF FF FF B0 AA
 (2.6870)  can1  8041001   [8]  01 02 50 33 03 A7 3B 00
 (2.6880)  can1  4100209   [8]  E9 35 13 00 00 00 00 00
 (2.6880)  can1  4100208   [8]  6F 10 13 00 00 00 00 00
 (2.6880)  can1  18800401   [8]  0E 5F 8D 4E 8D 1C 8D 00
 (2.6880)  can1  18840401   [8]  0E 78 8D 66 8D 34 8D 00
 (2.6890)  can1  18C00401   [8]  0E 2B 2F 7A 30 33 30 00
 (2.6890)  can1  585FF72   [8]  03 80 60 09 60 09 FF 8A
 (2.6890)  can1  586FF72   [8]  01 80 FF FF FF FF F4 9F
 (2.6900)  can1  1949FF72   [8]  0D 80 00 0D 90 00 AD D7
 (2.6900)  can1  194AFF72   [8]  55 77 57 77 55 57 AE F4
 (2.6900)  can1  8010C01   [8]  77 62 00 00 00 00 00 00
 (2.6910)  can1  8101201   [8]  F7 62 01 8E 19 8A 6C 00
 (2.6910)  can1  194BFF72   [8]  75 F5 FF FF FF FF AF 15
 (2.6910)  can1  194CFF72   [8]  FF FF FF FF FF FF B0 AA
 (2.6920)  can1  4100209   [8]  E9 35 13 00 00 00 00 00
 (2.6930)  can1  4100208   [8]  6F 10 13 00 00 00 00 00
 (2.6940)  can1  595FF71   [8]  05 80 60 09 60 09 F9 5D
 (2.6950)  can1  596FF71   [8]  FF 7F FF FF FF FF F2 19
 (2.6990)  can1  5807202   [8]  03 80 00 00 E0 01 07 BF
 (2.6990)  can1  5817202   [8]  01 00 10 27 10 27 0A E3
 (2.7000)  can1  5907102   [8]  05 80 00 00 E0 01 07 68
 (2.7000)  can1  5917102   [8]  01 00 10 27 10 27 0A E3
 (2.7010)  can1  5827202   [8]  FA 00 00 00 00 00 07 D4
 (2.7010)  can1  5927102   [8]  FA 00 00 00 00 00 07 D4
 (2.7020)  can1  5837202   [8]  2C 41 06 00 00 00 07 E0
 (2.7020)  can1  5847270   [8]  00 00 00 00 00 00 07 9F
 (2.7030)  can1  5937102   [8]  2C 41 06 00 00 00 07 E0
 (2.7040)  can1  5947102   [8]  00 00 00 00 00 00 07 9F
 (2.7040)  can1  8100302   [5]  01 00 0A 00 18
 (2.7050)  can1  89A0C02   [8]  00 00 00 00 CC 0B 00 00
 (2.7050)  can1  4100209   [8]  E9 35 13 00 00 00 00 00
 (2.7050)  can1  8030C02   [8]  00 00 2A 68 2A 68 92 17
 (2.7060)  can1  8580C02   [8]  00 00 00 00 00 00 00 00
 (2.7060)  can1  4100208   [8]  6F 10 13 00 00 00 00 00
 (2.7060)  can1  597FF71   [8]  08 08 E9 0F FF FF F8 6E
 (2.7060)  can1  598FF71   [8]  40 01 78 FF FF FF F8 CA
 (2.7070)  can1  599FF71   [8]  1A E0 02 82 02 00 F8 D1
 (2.7070)  can1  585FF72   [8]  03 80 60 09 60 09 F0 8A
 (2.7070)  can1  586FF72   [8]  00 80 FF FF FF FF F5 CB
 (2.7120)  can1  4100209   [8]  E9 35 13 00 00 00 00 00
 (2.7130)  can1  4100208   [8]  6F 10 13 00 00 00 00 00
 (2.7140)  can1  595FF71   [8]  05 80 60 09 60 09 FA 5D
 (2.7140)  can1  596FF71   [8]  FE 7F FF FF FF FF F3 4D
 (2.7160)  can1  587FF72   [8]  02 08 CD 0F FF FF F8 5E
 (2.7190)  can1  89A0C02   [8]  00 00 00 00 00 00 00 00
 (2.7190)  can1  8030C02   [8]  00 00 2A 68 2A 68 92 17
 (2.7200)  can1  8580C02   [8]  FF FF 00 00 00 00 00 00
 (2.7220)  can1  4100209   [8]  E9 35 13 00 00 00 00 00
 (2.7230)  can1  4100208   [8]  6F 10 13 00 00 00 00 00
 (2.7230)  can1  8100302   [5]  01 00 0A 00 18
 (2.7260)  can1  585FF72   [8]  03 80 60 09 60 09 F1 8A
 (2.7270)  can1  586FF72   [8]  02 80 FF FF FF FF F6 63
 (2.7320)  can1  4100209   [8]  E9 35 13 00 00 00 00 00
 (2.7330)  can1  4100208   [8]  6F 10 13 00 00 00 00 00
 (2.7340)  can1  18800401   [8]  0F C5 8C 60 8D 91 8D 00
 (2.7340)  can1  595FF71   [8]  05 80 60 09 60 09 FB 5D
 (2.7350)  can1  596FF71   [8]  00 80 FF FF FF FF F4 CB
 (2.7360)  can1  18101203   [4]  03 2D FF 07
 (2.7360)  can1  18840401   [8]  0F DE 8C 7A 8D AB 8D 00
 (2.7360)  can1  18C00401   [8]  0F 18 31 89 30 69 31 00
 (2.7390)  can1  89A0C02   [8]  00 00 00 00 99 17 00 00
 (2.7390)  can1  8030C02   [8]  00 00 2A 68 2A 68 92 17
 (2.7400)  can1  8580C02   [8]  00 00 01 00 00 00 00 00
 (2.7420)  can1  4100209   [8]  E9 35 13 00 00 00 00 00
 (2.7430)  can1  4100208   [8]  6F 10 13 00 00 00 00 00
 (2.7460)  can1  585FF72   [8]  03 80 60 09 60 09 F2 8A
 (2.7470)  can1  586FF72   [8]  FF 7F FF FF FF FF F7 19
 (2.7470)  can1  528FF72   [8]  FA FF 35 00 00 00 34 00
 (2.7480)  can1  529FF72   [8]  02 00 43 00 0A 00 03 00
 (2.7480)  can1  52CFF72   [8]  00 00 EF FF EF FF 3A 00
 (2.7490)  can1  588FF72   [8]  80 01 56 FF FF FF F9 95
 (2.7490)  can1  589FF72   [8]  1A D0 02 81 02 00 F9 87
 (2.7500)  can1  8100302   [5]  01 00 0A 00 18
 (2.7520)  can1  4100209   [8]  E9 35 13 00 00 00 00 00
 (2.7530)  can1  4100208   [8]  6F 10 13 00 00 00 00 00
 (2.7540)  can1  595FF71   [8]  05 80 60 09 60 09 FC 5D
 (2.7540)  can1  596FF71   [8]  00 80 FF FF FF FF F5 CB
 (2.7540)  can1  528FF71   [8]  FD FF 58 00 00 00 56 00
 (2.7550)  can1  529FF71   [8]  08 00 51 00 0C 00 05 00
 (2.7550)  can1  52CFF71   [8]  00 00 EF FF EF FF 3A 00
 (2.7590)  can1  5807202   [8]  03 80 00 00 E0 01 08 BF
 (2.7590)  can1  5817202   [8]  01 00 10 27 10 27 0B E3
 (2.7600)  can1  5907102   [8]  05 80 00 00 E0 01 08 68
 (2.7600)  can1  5917102   [8]  01 00 10 27 10 27 0B E3
 (2.7610)  can1  5827202   [8]  FA 00 00 00 00 00 08 D4
 (2.7620)  can1  5927102   [8]  FA 00 00 00 00 00 08 D4
 (2.7620)  can1  5837202   [8]  2C 41 06 00 00 00 08 E0
 (2.7630)  can1  5847270   [8]  00 00 00 00 00 00 08 9F
 (2.7630)  can1  5937102   [8]  2C 41 06 00 00 00 08 E0
 (2.7640)  can1  5947102   [8]  00 00 00 00 00 00 08 9F
 (2.7640)  can1  8580C02   [8]  00 00 00 00 00 00 00 00
 (2.7640)  can1  4100209   [8]  E9 35 13 00 00 00 00 00
 (2.7650)  can1  89A0C02   [8]  00 00 00 00 00 00 00 00
 (2.7650)  can1  8030C02   [8]  00 00 2A 68 2A 68 92 17
 (2.7650)  can1  4100208   [8]  6F 10 13 00 00 00 00 00
 (2.7660)  can1  585FF72   [8]  03 80 60 09 60 09 F3 8A
 (2.7670)  can1  586FF72   [8]  FE 7F FF FF FF FF F8 4D
 (2.7720)  can1  4100209   [8]  E9 35 13 00 00 00 00 00
 (2.7730)  can1  4100208   [8]  6F 10 13 00 00 00 00 00
 (2.7740)  can1  8100302   [5]  01 00 0A 00 18
 (2.7740)  can1  595FF71   [8]  05 80 60 09 60 09 FD 5D
 (2.7750)  can1  596FF71   [8]  00 80 FF FF FF FF F6 CB
 (2.7790)  can1  89A0C02   [8]  00 00 00 00 00 00 00 00
 (2.7790)  can1  8030C02   [8]  00 00 2A 68 2A 68 92 17
 (2.7790)  can1  8580C02   [8]  00 00 FF FF 00 00 00 00
 (2.7810)  can1  8041001   [8]  01 02 50 33 03 A7 3B 00
 (2.7820)  can1  4100209   [8]  E9 35 13 00 00 00 00 00
 (2.7830)  can1  4100208   [8]  6F 10 13 00 00 00 00 00
 (2.7840)  can1  18800401   [8]  10 8C 8D 8F 8D 7D 8D 00
 (2.7840)  can1  18840401   [8]  10 A4 8D A6 8D 95 8D 00
 (2.7840)  can1  18C00401   [8]  10 9B 30 73 31 36 30 00
 (2.7860)  can1  585FF72   [8]  03 80 60 09 60 09 F4 8A
 (2.7870)  can1  586FF72   [8]  FF 7F FF FF FF FF F9 19
 (2.7880)  can1  8101201   [8]  F8 62 FE 8D 17 8A 51 00
 (2.7890)  can1  8010C01   [8]  78 62 00 00 00 00 00 00
 (2.7920)  can1  4100209   [8]  E9 35 13 00 00 00 00 00
 (2.7930)  can1  4100208   [8]  6F 10 13 00 00 00 00 00
 (2.7940)  can1  595FF71   [8]  05 80 60 09 60 09 FE 5D
 (2.7940)  can1  596FF71   [8]  01 80 FF FF FF FF F7 9F
 (2.7990)  can1  8100302   [5]  01 00 0A 00 18
 (2.7990)  can1  8580C02   [8]  00 00 00 00 00 00 00 00
 (2.8000)  can1  89A0C02   [8]  CC 0B 00 00 00 00 00 00
 (2.8000)  can1  8030C02   [8]  00 00 2A 68 2A 68 92 17
 (2.8020)  can1  4100209   [8]  E9 35 13 00 00 00 00 00
 (2.8030)  can1  4100208   [8]  6F 10 13 00 00 00 00 00
 (2.8040)  can1  597FF71   [8]  0C 08 E9 0F FF FF F9 11
 (2.8040)  can1  598FF71   [8]  40 01 78 FF FF FF F9 CA
 (2.8050)  can1  599FF71   [8]  1A E0 02 82 02 00 F9 D1
 (2.8060)  can1  585FF72   [8]  03 80 60 09 60 09 F5 8A
 (2.8070)  can1  586FF72   [8]  00 80 FF FF FF FF FA CB
 (2.8120)  can1  4100209   [8]  E9 35 13 00 00 00 00 00
 (2.8130)  can1  4100208   [8]  6F 10 13 00 00 00 00 00
 (2.8140)  can1  595FF71   [8]  05 80 60 09 60 09 FF 5D
 (2.8140)  can1  596FF71   [8]  FE 7F FF FF FF FF F8 4D
 (2.8160)  can1  587FF72   [8]  02 08 CD 0F FF FF F9 5E
 (2.8190)  can1  5807202   [8]  03 80 00 00 E0 01 09 BF
 (2.8190)  can1  5817202   [8]  01 00 10 27 10 27 0C E3
 (2.8200)  can1  5907102   [8]  05 80 00 00 E0 01 09 68
 (2.8200)  can1  5827202   [8]  FA 00 00 00 00 00 09 D4
 (2.8210)  can1  5917102   [8]  01 00 10 27 10 27 0C E3
 (2.8220)  can1  5927102   [8]  FA 00 00 00 00 00 09 D4
 (2.8220)  can1  5837202   [8]  2C 41 06 00 00 00 09 E0
 (2.8230)  can1  5937102   [8]  2C 41 06 00 00 00 09 E0
 (2.8230)  can1  5847270   [8]  00 00 00 00 00 00 09 9F
 (2.8240)  can1  5947102   [8]  00 00 00 00 00 00 09 9F
 (2.8240)  can1  4100209   [8]  E9 35 13 00 00 00 00 00
 (2.8250)  can1  89A0C02   [8]  00 00 00 00 00 00 00 00
 (2.8250)  can1  8030C02   [8]  00 00 2A 68 2A 68 92 17
 (2.8250)  can1  8580C02   [8]  FF FF 00 00 00 00 00 00
 (2.8250)  can1  4100208   [8]  6F 10 13 00 00 00 00 00
 (2.8260)  can1  8100302   [5]  01 00 0A 00 18
 (2.8260)  can1  585FF72   [8]  03 80 60 09 60 09 F6 8A
 (2.8270)  can1  586FF72   [8]  FF 7F FF FF FF FF FB 19
 (2.8320)  can1  4100209   [8]  E9 35 13 00 00 00 00 00
 (2.8330)  can1  4100208   [8]  6F 10 13 00 00 00 00 00
 (2.8330)  can1  18800401   [8]  11 44 8D 2A 8D 57 8D 00
 (2.8340)  can1  595FF71   [8]  05 80 60 09 60 09 F0 5D
 (2.8350)  can1  596FF71   [8]  FE 7F FF FF FF FF F9 4D
 (2.8350)  can1  18840401   [8]  11 5D 8D 42 8D 73 8D 00
 (2.8360)  can1  18C00401   [8]  11 4D 31 ED 2F 02 31 00
 (2.8390)  can1  89A0C02   [8]  00 00 00 00 00 00 00 00
 (2.8390)  can1  8030C02   [8]  00 00 2A 68 2A 68 92 17
 (2.8390)  can1  8580C02   [8]  FF FF 00 00 00 00 00 00
 (2.8420)  can1  4100209   [8]  E9 35 13 00 00 00 00 00
 (2.8430)  can1  4100208   [8]  6F 10 13 00 00 00 00 00
 (2.8460)  can1  585FF72   [8]  03 80 60 09 60 09 F7 8A
 (2.8470)  can1  586FF72   [8]  FE 7F FF FF FF FF FC 4D
 (2.8470)  can1  588FF72   [8]  80 01 56 FF FF FF FA 95
 (2.8480)  can1  589FF72   [8]  1A D0 02 81 02 00 FA 87
 (2.8490)  can1  8100302   [5]  01 00 0A 00 18
 (2.8520)  can1  4100209   [8]  E9 35 13 00 00 00 00 00
 (2.8530)  can1  4100208   [8]  6F 10 13 00 00 00 00 00
 (2.8540)  can1  595FF71   [8]  05 80 60 09 60 09 F1 5D
 (2.8540)  can1  596FF71   [8]  FE 7F FF FF FF FF FA 4D
 (2.8590)  can1  89A0C02   [8]  00 00 00 00 00 00 00 00
 (2.8590)  can1  8030C02   [8]  00 00 2A 68 2A 68 92 17
 (2.8590)  can1  8580C02   [8]  FF FF FF FF 00 00 00 00
 (2.8620)  can1  4100209   [8]  E9 35 13 00 00 00 00 00
 (2.8630)  can1  4100208   [8]  6F 10 13 00 00 00 00 00
 (2.8660)  can1  585FF72   [8]  03 80 60 09 60 09 F8 8A
 (2.8670)  can1  586FF72   [8]  FF 7F FF FF FF FF FD 19
 (2.8720)  can1  4100209   [8]  E9 35 13 00 00 00 00 00
 (2.8730)  can1  4100208   [8]  6F 10 13 00 00 00 00 00
 (2.8740)  can1  595FF71   [8]  05 80 60 09 60 09 F2 5D
 (2.8740)  can1  596FF71   [8]  01 80 FF FF FF FF FB 9F
 (2.8750)  can1  8100302   [5]  01 00 0A 00 18
 (2.8790)  can1  5807202   [8]  03 80 00 00 E0 01 0A BF
 (2.8790)  can1  5817202   [8]  01 00 10 27 10 27 0D E3
 (2.8800)  can1  5907102   [8]  05 80 00 00 E0 01 0A 68
 (2.8800)  can1  5917102   [8]  01 00 10 27 10 27 0D E3
 (2.8810)  can1  5827202   [8]  FA 00 00 00 00 00 0A D4
 (2.8810)  can1  5927102   [8]  FA 00 00 00 00 00 0A D4
 (2.8820)  can1  5837202   [8]  2C 41 06 00 00 00 0A E0
 (2.8820)  can1  5847270   [8]  00 00 00 00 00 00 0A 9F
 (2.8830)  can1  5937102   [8]  2C 41 06 00 00 00 0A E0
 (2.8840)  can1  8041001   [8]  01 02 50 33 03 A7 3B 00
 (2.8840)  can1  5947102   [8]  00 00 00 00 00 00 0A 9F
 (2.8850)  can1  8580C02   [8]  00 00 00 00 00 00 00 00
 (2.8850)  can1  4100209   [8]  E9 35 13 00 00 00 00 00
 (2.8850)  can1  8030C02   [8]  00 00 2A 68 2A 68 92 17
 (2.8860)  can1  89A0C02   [8]  CC 0B 00 00 00 00 00 00
 (2.8860)  can1  1948FF72   [8]  00 C0 00 55 FF FF B1 C4
 (2.8870)  can1  4100208   [8]  6F 10 13 00 00 00 00 00
 (2.8870)  can1  18800401   [8]  12 A3 8D 92 8D 62 8D 00
 (2.8870)  can1  18840401   [8]  12 BD 8D AC 8D 7A 8D 00
 (2.8870)  can1  18C00401   [8]  12 51 30 57 2F F6 2E 00
 (2.8880)  can1  585FF72   [8]  03 80 60 09 60 09 F9 8A
 (2.8880)  can1  586FF72   [8]  FE 7F FF FF FF FF FE 4D
 (2.8890)  can1  8101201   [8]  F5 62 FF 8D 18 8A 5C 00
 (2.8900)  can1  8010C01   [8]  79 62 00 00 00 00 00 00
 (2.8920)  can1  4100209   [8]  E9 35 13 00 00 00 00 00
 (2.8930)  can1  4100208   [8]  6F 10 13 00 00 00 00 00
 (2.8940)  can1  595FF71   [8]  05 80 60 09 60 09 F3 5D
 (2.8940)  can1  596FF71   [8]  00 80 FF FF FF FF FC CB
 (2.8990)  can1  8100302   [5]  01 00 0A 00 18
 (2.8990)  can1  8580C02   [8]  00 00 FF FF 00 00 00 00
 (2.8990)  can1  89A0C02   [8]  00 00 00 00 00 00 00 00
 (2.9000)  can1  8030C02   [8]  00 00 2A 68 2A 68 92 17
 (2.9020)  can1  4100209   [8]  E9 35 13 00 00 00 00 00
 (2.9030)  can1  4100208   [8]  6F 10 13 00 00 00 00 00
 (2.9040)  can1  597FF71   [8]  07 08 E9 0F FF FF FA 13
 (2.9040)  can1  598FF71   [8]  40 01 78 FF FF FF FA CA
 (2.9040)  can1  599FF71   [8]  1A E0 02 82 02 00 FA D1
 (2.9060)  can1  585FF72   [8]  03 80 60 09 60 09 FA 8A
 (2.9070)  can1  586FF72   [8]  FF 7F FF FF FF FF FF 19
 (2.9120)  can1  4100209   [8]  E9 35 13 00 00 00 00 00
 (2.9130)  can1  4100208   [8]  6F 10 13 00 00 00 00 00
 (2.9140)  can1  595FF71   [8]  05 80 60 09 60 09 F4 5D
 (2.9150)  can1  596FF71   [8]  FF 7F FF FF FF FF FD 19
 (2.9160)  can1  587FF72   [8]  FF 07 CF 0F FF FF FA 1A
 (2.9190)  can1  89A0C02   [8]  00 00 00 00 00 00 00 00
 (2.9190)  can1  8030C02   [8]  00 00 2A 68 2A 68 92 17
 (2.9190)  can1  8580C02   [8]  00 00 00 00 00 00 00 00
 (2.9220)  can1  4100209   [8]  E9 35 13 00 00 00 00 00
 (2.9230)  can1  4100208   [8]  6F 10 13 00 00 00 00 00
 (2.9240)  can1  8100302   [5]  01 00 0A 00 18
 (2.9260)  can1  585FF72   [8]  03 80 60 09 60 09 FB 8A
 (2.9270)  can1  586FF72   [8]  FE 7F FF FF FF FF F0 4D
 (2.9320)  can1  4100209   [8]  E9 35 13 00 00 00 00 00
 (2.9330)  can1  4100208   [8]  6F 10 13 00 00 00 00 00
 (2.9340)  can1  18800401   [8]  13 5A 8D 2A 8D 47 8D 00
 (2.9350)  can1  595FF71   [8]  05 80 60 09 60 09 F5 5D
 (2.9350)  can1  596FF71   [8]  00 80 FF FF FF FF FE CB
 (2.9360)  can1  18840401   [8]  13 75 8D 47 8D 61 8D 00
 (2.9360)  can1  18C00401   [8]  13 F4 2F DF 2F AC 30 00
 (2.9370)  can1  1948FF71   [8]  00 C0 00 55 FF FF B1 C4
 (2.9370)  can1  1949FF71   [8]  0D 80 00 0D B0 00 B2 FC
 (2.9370)  can1  194AFF71   [8]  32 77 57 86 05 58 B3 96
 (2.9370)  can1  194BFF71   [8]  86 F5 FF FF FF FF B4 2B
 (2.9380)  can1  194CFF71   [8]  FF FF FF FF FF FF B5 AF
 (2.9390)  can1  5807202   [8]  03 80 00 00 E0 01 0B BF
 (2.9390)  can1  5817202   [8]  01 00 10 27 10 27 0E E3
 (2.9390)  can1  5907102   [8]  05 80 00 00 E0 01 0B 68
 (2.9400)  can1  5917102   [8]  01 00 10 27 10 27 0E E3
 (2.9410)  can1  5827202   [8]  FA 00 00 00 00 00 0B D4
 (2.9410)  can1  5927102   [8]  FA 00 00 00 00 00 0B D4
 (2.9430)  can1  5837202   [8]  2C 41 06 00 00 00 0B E0
 (2.9430)  can1  5847270   [8]  00 00 00 00 00 00 0B 9F
 (2.9430)  can1  5937102   [8]  2C 41 06 00 00 00 0B E0
 (2.9440)  can1  1949FF72   [8]  0D 80 00 0D B0 00 B2 FC
 (2.9440)  can1  5947102   [8]  00 00 00 00 00 00 0B 9F
 (2.9450)  can1  8580C02   [8]  00 00 FF FF 00 00 00 00
 (2.9450)  can1  4100209   [8]  E9 35 13 00 00 00 00 00
 (2.9460)  can1  8030C02   [8]  00 00 2A 68 2A 68 92 17
 (2.9460)  can1  89A0C02   [8]  00 00 00 00 00 00 00 00
 (2.9460)  can1  194AFF72   [8]  55 A7 57 77 75 57 B3 49
 (2.9470)  can1  4100208   [8]  6F 10 13 00 00 00 00 00
 (2.9470)  can1  194BFF72   [8]  77 F5 FF FF FF FF B4 1C
 (2.9480)  can1  194CFF72   [8]  FF FF FF FF FF FF B5 AF
 (2.9480)  can1  585FF72   [8]  03 80 60 09 60 09 FC 8A
 (2.9480)  can1  586FF72   [8]  00 80 FF FF FF FF F1 CB
 (2.9490)  can1  588FF72   [8]  80 01 56 FF FF FF FB 95
 (2.9490)  can1  589FF72   [8]  1A D0 02 81 02 00 FB 87
 (2.9490)  can1  8100302   [5]  01 00 0A 00 18
 (2.9520)  can1  4100209   [8]  E9 35 13 00 00 00 00 00
 (2.9530)  can1  4100208   [8]  6F 10 13 00 00 00 00 00
 (2.9540)  can1  595FF71   [8]  05 80 60 09 60 09 F6 5D
 (2.9540)  can1  596FF71   [8]  00 80 FF FF FF FF FF CB
 (2.9590)  can1  89A0C02   [8]  00 00 00 00 00 00 00 00
 (2.9590)  can1  8030C02   [8]  00 00 2A 68 2A 68 92 17
 (2.9590)  can1  8580C02   [8]  00 00 00 00 00 00 00 00
 (2.9620)  can1  4100209   [8]  E9 35 13 00 00 00 00 00
 (2.9630)  can1  4100208   [8]  6F 10 13 00 00 00 00 00
 (2.9660)  can1  585FF72   [8]  03 80 60 09 60 09 FD 8A
 (2.9670)  can1  586FF72   [8]  FF 7F FF FF FF FF F2 19
 (2.9720)  can1  4100209   [8]  E9 35 13 00 00 00 00 00
 (2.9730)  can1  4100208   [8]  6F 10 13 00 00 00 00 00
 (2.9740)  can1  8100302   [5]  01 00 0A 00 18
 (2.9740)  can1  595FF71   [8]  05 80 60 09 60 09 F7 5D
 (2.9740)  can1  596FF71   [8]  FD 7F FF FF FF FF F0 B1
 (2.9790)  can1  89A0C02   [8]  00 00 00 00 00 00 00 00
 (2.9790)  can1  8030C02   [8]  00 00 2A 68 2A 68 92 17
 (2.9800)  can1  8580C02   [8]  FE FF 00 00 00 00 00 00
 (2.9810)  can1  8041001   [8]  01 02 50 33 03 A7 3B 00
 (2.9820)  can1  4100209   [8]  E9 35 13 00 00 00 00 00
 (2.9830)  can1  4100208   [8]  6F 10 13 00 00 00 00 00
 (2.9840)  can1  18800401   [8]  14 6D 8D 97 8D 8A 8D 00
 (2.9850)  can1  18840401   [8]  14 8F 8D AE 8D A7 8D 00
 (2.9850)  can1  18C00401   [8]  14 16 30 D1 30 22 30 00
 (2.9860)  can1  585FF72   [8]  03 80 60 09 60 09 FE 8A
 (2.9870)  can1  586FF72   [8]  02 80 FF FF FF FF F3 63
 (2.9900)  can1  8101201   [8]  F3 62 FE 8D 17 8A 54 00
 (2.9910)  can1  8010C01   [8]  75 62 00 00 00 00 00 00
 (2.9920)  can1  4100209   [8]  E9 35 13 00 00 00 00 00
 (2.9930)  can1  4100208   [8]  6F 10 13 00 00 00 00 00
 (2.9940)  can1  595FF71   [8]  05 80 60 09 60 09 F8 5D
 (2.9940)  can1  596FF71   [8]  00 80 FF FF FF FF F1 CB
 (2.9990)  can1  5807202   [8]  03 80 00 00 E0 01 0C BF
 (2.9990)  can1  5817202   [8]  01 00 10 27 10 27 0F E3
 (3.0000)  can1  5907102   [8]  05 80 00 00 E0 01 0C 68
 (3.0000)  can1  5917102   [8]  01 00 10 27 10 27 0F E3
 (3.0010)  can1  5827202   [8]  FA 00 00 00 00 00 0C D4
 (3.0020)  can1  5927102   [8]  FA 00 00 00 00 00 0C D4
 (3.0020)  can1  5837202   [8]  2C 41 06 00 00 00 0C E0
 (3.0020)  can1  5847270   [8]  00 00 00 00 00 00 0C 9F
 (3.0030)  can1  5937102   [8]  2C 41 06 00 00 00 0C E0
 (3.0030)  can1  5947102   [8]  00 00 00 00 00 00 0C 9F
 (3.0040)  can1  8100302   [5]  01 00 0A 00 18
 (3.0050)  can1  89A0C02   [8]  00 00 00 00 99 17 00 00
 (3.0050)  can1  4100209   [8]  E9 35 13 00 00 00 00 00
 (3.0050)  can1  8030C02   [8]  00 00 2A 68 2A 68 92 17
 (3.0060)  can1  8580C02   [8]  00 00 01 00 00 00 00 00
 (3.0060)  can1  4100208   [8]  6F 10 13 00 00 00 00 00
 (3.0060)  can1  597FF71   [8]  06 08 EB 0F FF FF FB 02
 (3.0070)  can1  598FF71   [8]  40 01 78 FF FF FF FB CA
 (3.0070)  can1  599FF71   [8]  1A E0 02 82 02 00 FB D1
 (3.0070)  can1  585FF72   [8]  03 80 60 09 60 09 FF 8A
 (3.0080)  can1  586FF72   [8]  FF 7F FF FF FF FF F4 19
 (3.0120)  can1  4100209   [8]  E9 35 13 00 00 00 00 00
 (3.0130)  can1  4100208   [8]  6F 10 13 00 00 00 00 00
 (3.0140)  can1  595FF71   [8]  05 80 60 09 60 09 F9 5D
 (3.0140)  can1  596FF71   [8]  00 80 FF FF FF FF F2 CB
 (3.0160)  can1  587FF72   [8]  00 08 CF 0F FF FF FB B3
 (3.0190)  can1  89A0C02   [8]  00 00 00 00 00 00 00 00
 (3.0190)  can1  8030C02   [8]  00 00 2A 68 2A 68 92 17
 (3.0200)  can1  8580C02   [8]  00 00 00 00 00 00 00 00
 (3.0220)  can1  4100209   [8]  E9 35 13 00 00 00 00 00
 (3.0230)  can1  4100208   [8]  6F 10 13 00 00 00 00 00
 (3.0240)  can1  8100302   [5]  01 00 0A 00 18
 (3.0260)  can1  585FF72   [8]  03 80 60 09 60 09 F0 8A
 (3.0270)  can1  586FF72   [8]  FD 7F FF FF FF FF F5 B1
 (3.0320)  can1  4100209   [8]  E9 35 13 00 00 00 00 00
 (3.0340)  can1  4100208   [8]  6F 10 13 00 00 00 00 00
 (3.0340)  can1  18800401   [8]  15 B4 8D 9A 8D 5E 8D 00
 (3.0340)  can1  595FF71   [8]  05 80 60 09 60 09 FA 5D
 (3.0350)  can1  596FF71   [8]  02 80 FF FF FF FF F3 63
 (3.0350)  can1  18840401   [8]  15 CC 8D B1 8D 76 8D 00
 (3.0350)  can1  18C00401   [8]  15 E7 30 D1 2F B6 30 00
 (3.0390)  can1  8580C02   [8]  01 00 FE FF 00 00 00 00
 (3.0390)  can1  8030C02   [8]  00 00 2A 68 2A 68 92 17
 (3.0390)  can1  89A0C02   [8]  99 17 00 00 00 00 00 00
 (3.0420)  can1  4100209   [8]  E9 35 13 00 00 00 00 00
 (3.0430)  can1  4100208   [8]  6F 10 13 00 00 00 00 00
 (3.0460)  can1  585FF72   [8]  03 80 60 09 60 09 F1 8A
 (3.0470)  can1  586FF72   [8]  01 80 FF FF FF FF F6 9F
 (3.0470)  can1  588FF72   [8]  80 01 56 FF FF FF FC 95
 (3.0480)  can1  589FF72   [8]  1A D0 02 81 02 00 FC 87
 (3.0490)  can1  8100302   [5]  01 00 0A 00 18
 (3.0520)  can1  4100209   [8]  E9 35 13 00 00 00 00 00
 (3.0530)  can1  4100208   [8]  6F 10 13 00 00 00 00 00
 (3.0540)  can1  595FF71   [8]  05 80 60 09 60 09 FB 5D
 (3.0540)  can1  596FF71   [8]  FF 7F FF FF FF FF F4 19
 (3.0590)  can1  5807202   [8]  03 80 00 00 E0 01 0D BF
 (3.0590)  can1  5817202   [8]  01 00 10 27 10 27 00 E3
 (3.0600)  can1  5907102   [8]  05 80 00 00 E0 01 0D 68
 (3.0600)  can1  5827202   [8]  FA 00 00 00 00 00 0D D4
 (3.0610)  can1  5917102   [8]  01 00 10 27 10 27 00 E3
 (3.0620)  can1  5927102   [8]  FA 00 00 00 00 00 0D D4
 (3.0620)  can1  5837202   [8]  2C 41 06 00 00 00 0D E0
 (3.0630)  can1  5937102   [8]  2C 41 06 00 00 00 0D E0
 (3.0630)  can1  5847270   [8]  00 00 00 00 00 00 0D 9F
 (3.0640)  can1  5947102   [8]  00 00 00 00 00 00 0D 9F
 (3.0640)  can1  4100209   [8]  E9 35 13 00 00 00 00 00
 (3.0640)  can1  89A0C02   [8]  00 00 00 00 CC 0B 00 00
 (3.0650)  can1  8030C02   [8]  00 00 2A 68 2A 68 92 17
 (3.0650)  can1  8580C02   [8]  00 00 00 00 00 00 00 00
 (3.0650)  can1  4100208   [8]  6F 10 13 00 00 00 00 00
 (3.0660)  can1  585FF72   [8]  03 80 60 09 60 09 F2 8A
 (3.0670)  can1  586FF72   [8]  00 80 FF FF FF FF F7 CB
 (3.0720)  can1  4100209   [8]  E9 35 13 00 00 00 00 00
 (3.0730)  can1  4100208   [8]  6F 10 13 00 00 00 00 00
 (3.0740)  can1  8100302   [5]  01 00 0A 00 18
 (3.0750)  can1  595FF71   [8]  05 80 60 09 60 09 FC 5D
 (3.0750)  can1  596FF71   [8]  01 80 FF FF FF FF F5 9F
 (3.0790)  can1  89A0C02   [8]  CC 0B 00 00 00 00 00 00
 (3.0790)  can1  8030C02   [8]  00 00 2A 68 2A 68 92 17
 (3.0790)  can1  8580C02   [8]  00 00 00 00 00 00 00 00
 (3.0810)  can1  8041001   [8]  01 02 50 33 03 A7 3B 00
 (3.0820)  can1  4100209   [8]  E9 35 13 00 00 00 00 00
 (3.0830)  can1  4100208   [8]  6F 10 13 00 00 00 00 00
 (3.0830)  can1  18800401   [8]  16 40 8D 8E 8D B0 8D 00
 (3.0840)  can1  18840401   [8]  16 5B 8D 9D 8D CB 8D 00
 (3.0840)  can1  18C00401   [8]  16 BF 2F 64 30 48 2F 00
 (3.0860)  can1  585FF72   [8]  03 80 60 09 60 09 F3 8A
 (3.0870)  can1  586FF72   [8]  02 80 FF FF FF FF F8 63
 (3.0910)  can1  8101201   [8]  F3 62 01 8E 1A 8A 56 00
 (3.0920)  can1  8010C01   [8]  75 62 00 00 00 00 00 00
 (3.0920)  can1  4100209   [8]  E9 35 13 00 00 00 00 00
 (3.0930)  can1  4100208   [8]  6F 10 13 00 00 00 00 00
 (3.0940)  can1  595FF71   [8]  05 80 60 09 60 09 FD 5D
 (3.0940)  can1  596FF71   [8]  FE 7F FF FF FF FF F6 4D
 (3.0990)  can1  8100302   [5]  01 00 0A 00 18
 (3.0990)  can1  8580C02   [8]  FF FF 01 00 00 00 00 00
 (3.0990)  can1  89A0C02   [8]  00 00 00 00 99 17 00 00
 (3.1000)  can1  8030C02   [8]  00 00 2A 68 2A 68 92 17
 (3.1020)  can1  4100209   [8]  E9 35 13 00 00 00 00 00
 (3.1030)  can1  4100208   [8]  6F 10 13 00 00 00 00 00
 (3.1040)  can1  597FF71   [8]  09 08 E9 0F FF FF FC 3A
 (3.1040)  can1  598FF71   [8]  30 01 79 FF FF FF FC 18
 (3.1050)  can1  599FF71   [8]  1A E0 02 82 02 00 FC D1
 (3.1060)  can1  585FF72   [8]  03 80 60 09 60 09 F4 8A
 (3.1070)  can1  586FF72   [8]  01 80 FF FF FF FF F9 9F
 (3.1120)  can1  4100209   [8]  E9 35 13 00 00 00 00 00
 (3.1130)  can1  4100208   [8]  6F 10 13 00 00 00 00 00
 (3.1140)  can1  595FF71   [8]  05 80 60 09 60 09 FE 5D
 (3.1140)  can1  596FF71   [8]  FF 7F FF FF FF FF F7 19
 (3.1160)  can1  587FF72   [8]  01 08 CF 0F FF FF FC E7
 (3.1190)  can1  5807202   [8]  03 80 00 00 E0 01 0E BF
 (3.1190)  can1  5817202   [8]  01 00 10 27 10 27 01 E3
 (3.1200)  can1  5907102   [8]  05 80 00 00 E0 01 0E 68
 (3.1200)  can1  5917102   [8]  01 00 10 27 10 27 01 E3
 (3.1210)  can1  5827202   [8]  FA 00 00 00 00 00 0E D4
 (3.1220)  can1  5927102   [8]  FA 00 00 00 00 00 0E D4
 (3.1220)  can1  5837202   [8]  2C 41 06 00 00 00 0E E0
 (3.1230)  can1  5847270   [8]  00 00 00 00 00 00 0E 9F
 (3.1230)  can1  5937102   [8]  2C 41 06 00 00 00 0E E0
 (3.1240)  can1  5947102   [8]  00 00 00 00 00 00 0E 9F
 (3.1240)  can1  8580C02   [8]  00 00 00 00 00 00 00 00
 (3.1240)  can1  4100209   [8]  E9 35 13 00 00 00 00 00
 (3.1250)  can1  89A0C02   [8]  00 00 00 00 CC 0B 00 00
 (3.1250)  can1  8030C02   [8]  00 00 2A 68 2A 68 92 17
 (3.1260)  can1  4100208   [8]  6F 10 13 00 00 00 00 00
 (3.1260)  can1  8100302   [5]  01 00 0A 00 18
 (3.1260)  can1  585FF72   [8]  03 80 60 09 60 09 F5 8A
 (3.1270)  can1  586FF72   [8]  FE 7F FF FF FF FF FA 4D
 (3.1320)  can1  4100209   [8]  E9 35 13 00 00 00 00 00
 (3.1330)  can1  4100208   [8]  6F 10 13 00 00 00 00 00
 (3.1340)  can1  18800401   [8]  17 9D 8D 00 00 00 00 00
 (3.1350)  can1  404FF03   [1]  00
 (3.1350)  can1  595FF71   [8]  05 80 60 09 60 09 FF 5D
 (3.1350)  can1  596FF71   [8]  FF 7F FF FF FF FF F8 19
 (3.1360)  can1  18840401   [8]  17 B8 8D 00 00 00 00 00
 (3.1360)  can1  18C00401   [8]  17 98 2F 10 27 10 27 00
 (3.1370)  can1  8250C03   [8]  20 00 8B 01 00 00 1B 00
 (3.1370)  can1  8840C03   [8]  37 00 15 00 25 00 06 00
 (3.1370)  can1  88D0C03   [8]  2E 00 00 00 4D 00 69 00
 (3.1380)  can1  1948FF72   [8]  00 C0 00 55 FF FF B6 C9
 (3.1390)  can1  8580C02   [8]  00 00 FF FF 00 00 00 00
 (3.1390)  can1  8030C02   [8]  00 00 2A 68 2A 68 92 17
 (3.1400)  can1  89A0C02   [8]  00 00 00 00 00 00 00 00
 (3.1420)  can1  4100209   [8]  E9 35 13 00 00 00 00 00
 (3.1430)  can1  4100208   [8]  6F 10 13 00 00 00 00 00
 (3.1460)  can1  585FF72   [8]  03 80 60 09 60 09 F6 8A
 (3.1470)  can1  586FF72   [8]  FE 7F FF FF FF FF FB 4D
 (3.1470)  can1  588FF72   [8]  80 01 56 FF FF FF FD 95
 (3.1480)  can1  589FF72   [8]  1A D0 02 81 02 00 FD 87
 (3.1490)  can1  8100302   [5]  01 00 0A 00 18
 (3.1520)  can1  4100209   [8]  E9 35 13 00 00 00 00 00
 (3.1530)  can1  4100208   [8]  6F 10 13 00 00 00 00 00
 (3.1540)  can1  595FF71   [8]  05 80 60 09 60 09 F0 5D
 (3.1540)  can1  596FF71   [8]  01 80 FF FF FF FF F9 9F
 (3.1590)  can1  89A0C02   [8]  CC 0B 00 00 00 00 00 00
 (3.1590)  can1  8030C02   [8]  00 00 2A 68 2A 68 92 17
 (3.1600)  can1  8580C02   [8]  00 00 FF FF 00 00 00 00
 (3.1620)  can1  4100209   [8]  E9 35 13 00 00 00 00 00
 (3.1630)  can1  4100208   [8]  6F 10 13 00 00 00 00 00
 (3.1650)  can1  404FF07   [1]  00
 (3.1660)  can1  585FF72   [8]  03 80 60 09 60 09 F7 8A
 (3.1670)  can1  586FF72   [8]  00 80 FF FF FF FF FC CB
 (3.1720)  can1  4100209   [8]  E9 35 13 00 00 00 00 00
 (3.1730)  can1  4100208   [8]  6F 10 13 00 00 00 00 00
 (3.1740)  can1  8100302   [5]  01 00 0A 00 18
 (3.1740)  can1  595FF71   [8]  05 80 60 09 60 09 F1 5D
 (3.1740)  can1  596FF71   [8]  01 80 FF FF FF FF FA 9F
 (3.1790)  can1  5807202   [8]  03 80 00 00 E0 01 0F BF
 (3.1790)  can1  5817202   [8]  01 00 10 27 10 27 02 E3
 (3.1800)  can1  5907102   [8]  05 80 00 00 E0 01 0F 68
 (3.1810)  can1  5917102   [8]  01 00 10 27 10 27 02 E3
 (3.1810)  can1  5827202   [8]  FA 00 00 00 00 00 0F D4
 (3.1820)  can1  5927102   [8]  FA 00 00 00 00 00 0F D4
 (3.1820)  can1  5837202   [8]  2C 41 06 00 00 00 0F E0
 (3.1830)  can1  5847270   [8]  00 00 00 00 00 00 0F 9F
 (3.1830)  can1  404FF01   [1]  00
 (3.1840)  can1  5937102   [8]  2C 41 06 00 00 00 0F E0
 (3.1850)  can1  5947102   [8]  00 00 00 00 00 00 0F 9F
 (3.1850)  can1  8041001   [8]  01 02 50 33 03 A7 3B 00
 (3.1850)  can1  4100209   [8]  E9 35 13 00 00 00 00 00
 (3.1860)  can1  89A0C02   [8]  CC 0B 00 00 00 00 00 00
 (3.1860)  can1  8030C02   [8]  00 00 2A 68 2A 68 92 17
 (3.1870)  can1  8580C02   [8]  00 00 00 00 00 00 00 00
 (3.1870)  can1  4100208   [8]  6F 10 13 00 00 00 00 00
 (3.1870)  can1  80F1201   [4]  12 11 00 00
 (3.1880)  can1  8120C01   [8]  09 00 00 00 00 00 00 00
 (3.1880)  can1  18800401   [8]  00 FE 8D 18 8D D9 8C 00
 (3.1880)  can1  18840401   [8]  00 18 8E 33 8D F2 8C 00
 (3.1880)  can1  18C00401   [8]  00 2C 30 14 2F BF 30 00
 (3.1890)  can1  585FF72   [8]  03 80 60 09 60 09 F8 8A
 (3.1890)  can1  586FF72   [8]  02 80 FF FF FF FF FD 63
 (3.1900)  can1  1948FF71   [8]  00 C0 00 55 FF FF B6 C9
 (3.1900)  can1  1949FF71   [8]  0D 80 00 0D C0 00 B7 11
 (3.1900)  can1  194AFF71   [8]  32 67 58 86 65 58 B8 EC
 (3.1910)  can1  194BFF71   [8]  86 F5 FF FF FF FF B9 30
 (3.1910)  can1  194CFF71   [8]  FF FF FF FF FF FF BA B4
 (3.1920)  can1  4100209   [8]  E9 35 13 00 00 00 00 00
 (3.1930)  can1  8010C01   [8]  74 62 00 00 00 00 00 00
 (3.1930)  can1  8101201   [8]  F5 62 FE 8D 18 8A 63 00
 (3.1940)  can1  4100208   [8]  6F 10 13 00 00 00 00 00
 (3.1940)  can1  595FF71   [8]  05 80 60 09 60 09 F2 5D
 (3.1950)  can1  596FF71   [8]  00 80 FF FF FF FF FB CB
 (3.1960)  can1  1949FF72   [8]  0D 80 00 0C A0 00 B7 F0
 (3.1970)  can1  194AFF72   [8]  55 67 58 7A 75 57 B8 12
 (3.1970)  can1  194BFF72   [8]  7A F5 FF FF FF FF B9 24
 (3.1970)  can1  194CFF72   [8]  FF FF FF FF FF FF BA B4
 (3.1980)  can1  404FF02   [1]  00
 (3.1990)  can1  8100302   [5]  01 00 0A 00 18
 (3.1990)  can1  8580C02   [8]  00 00 01 00 00 00 00 00
 (3.2000)  can1  89A0C02   [8]  00 00 00 00 99 17 00 00
 (3.2000)  can1  8030C02   [8]  00 00 2A 68 2A 68 92 17
 (3.2020)  can1  4100209   [8]  E9 35 13 00 00 00 00 00
 (3.2030)  can1  4100208   [8]  6F 10 13 00 00 00 00 00
 (3.2040)  can1  597FF71   [8]  07 08 E9 0F FF FF FD 13
 (3.2050)  can1  598FF71   [8]  40 01 78 FF FF FF FD CA
 (3.2050)  can1  599FF71   [8]  1A E0 02 82 02 00 FD D1
 (3.2060)  can1  585FF72   [8]  03 80 60 09 60 09 F9 8A
 (3.2070)  can1  586FF72   [8]  01 80 FF FF FF FF FE 9F
 (3.2120)  can1  4100209   [8]  E9 35 13 00 00 00 00 00
 (3.2130)  can1  4100208   [8]  6F 10 13 00 00 00 00 00
 (3.2140)  can1  595FF71   [8]  05 80 60 09 60 09 F3 5D
 (3.2140)  can1  596FF71   [8]  FD 7F FF FF FF FF FC B1
 (3.2160)  can1  587FF72   [8]  02 08 CF 0F FF FF FD 1B
 (3.2190)  can1  89A0C02   [8]  00 00 00 00 CC 0B 00 00
 (3.2190)  can1  8030C02   [8]  00 00 2A 68 2A 68 92 17
 (3.2190)  can1  8580C02   [8]  FE FF 00 00 00 00 00 00
 (3.2220)  can1  4100209   [8]  E9 35 13 00 00 00 00 00
 (3.2230)  can1  4100208   [8]  6F 10 13 00 00 00 00 00
 (3.2240)  can1  8100302   [5]  01 00 0A 00 18
 (3.2260)  can1  585FF72   [8]  03 80 60 09 60 09 FA 8A
 (3.2270)  can1  586FF72   [8]  FE 7F FF FF FF FF FF 4D
 (3.2320)  can1  4100209   [8]  E9 35 13 00 00 00 00 00
 (3.2330)  can1  4100208   [8]  6F 10 13 00 00 00 00 00
 (3.2340)  can1  18800401   [8]  01 FB 8C 35 8D 2B 8D 00
 (3.2340)  can1  595FF71   [8]  05 80 60 09 60 09 F4 5D
 (3.2350)  can1  596FF71   [8]  FE 7F FF FF FF FF FD 4D
 (3.2350)  can1  18101203   [4]  0D 2D F4 06
 (3.2360)  can1  18840401   [8]  01 16 8D 4C 8D 46 8D 00
 (3.2360)  can1  18C00401   [8]  01 F7 2F F8 30 41 30 00
 (3.2390)  can1  5807202   [8]  03 80 00 00 E0 01 00 BF
 (3.2390)  can1  5817202   [8]  01 00 10 27 10 27 03 E3
 (3.2400)  can1  5907102   [8]  05 80 00 00 E0 01 00 68
 (3.2410)  can1  5827202   [8]  FA 00 00 00 00 00 00 D4
 (3.2410)  can1  5917102   [8]  01 00 10 27 10 27 03 E3
 (3.2420)  can1  5927102   [8]  FA 00 00 00 00 00 00 D4
 (3.2430)  can1  5837202   [8]  2C 41 06 00 00 00 00 E0
 (3.2430)  can1  5937102   [8]  2C 41 06 00 00 00 00 E0
 (3.2440)  can1  5847270   [8]  00 00 00 00 00 00 00 9F
 (3.2440)  can1  5947102   [8]  00 00 00 00 00 00 00 9F
 (3.2440)  can1  4100209   [8]  E9 35 13 00 00 00 00 00
 (3.2440)  can1  89A0C02   [8]  00 00 00 00 00 00 00 00
 (3.2450)  can1  8030C02   [8]  00 00 2A 68 2A 68 92 17
 (3.2450)  can1  8580C02   [8]  FF FF FF FF 00 00 00 00
 (3.2450)  can1  4100208   [8]  6F 10 13 00 00 00 00 00
 (3.2460)  can1  585FF72   [8]  03 80 60 09 60 09 FB 8A
 (3.2470)  can1  586FF72   [8]  FD 7F FF FF FF FF F0 B1
 (3.2480)  can1  528FF72   [8]  00 00 2C 00 00 00 34 00
 (3.2480)  can1  529FF72   [8]  02 00 44 00 0A 00 03 00
 (3.2490)  can1  52AFF72   [8]  13 13 13 13 13 13 18 00
 (3.2490)  can1  52BFF72   [8]  11 16 11 13 00 FF 00 00
 (3.2490)  can1  52CFF72   [8]  00 00 EF FF EF FF 3A 00
 (3.2500)  can1  588FF72   [8]  80 01 56 FF FF FF FE 95
 (3.2500)  can1  589FF72   [8]  1A D0 02 81 02 00 FE 87
 (3.2500)  can1  8100302   [5]  01 00 0A 00 18
 (3.2520)  can1  4100209   [8]  E9 35 13 00 00 00 00 00
 (3.2530)  can1  4100208   [8]  6F 10 13 00 00 00 00 00
 (3.2540)  can1  595FF71   [8]  05 80 60 09 60 09 F5 5D
 (3.2550)  can1  528FF71   [8]  FC FF 58 00 00 00 56 00
 (3.2550)  can1  529FF71   [8]  08 00 51 00 0C 00 05 00
 (3.2560)  can1  52AFF71   [8]  14 14 14 14 14 14 14 00
 (3.2560)  can1  52BFF71   [8]  10 14 10 14 00 FF 00 00
 (3.2560)  can1  52CFF71   [8]  00 00 EF FF EF FF 3A 00
 (3.2570)  can1  596FF71   [8]  FF 7F FF FF FF FF FE 19
 (3.2590)  can1  89A0C02   [8]  00 00 00 00 00 00 00 00
 (3.2690)  can1  8030C02   [8]  00 00 2A 68 2A 68 92 17
 (3.2700)  can1  8580C02   [8]  00 00 FE FF 00 00 00 00
 (3.2710)  can1  4100209   [8]  E9 35 13 00 00 00 00 00
 (3.2710)  can1  4100208   [8]  6F 10 13 00 00 00 00 00
 (3.2710)  can1  585FF72   [8]  03 80 60 09 60 09 FC 8A
 (3.2710)  can1  586FF72   [8]  00 80 FF FF FF FF F1 CB
 (3.2720)  can1  4100209   [8]  E9 35 13 00 00 00 00 00
 (3.2730)  can1  4100208   [8]  6F 10 13 00 00 00 00 00
 (3.2740)  can1  8100302   [5]  01 00 0A 00 18
 (3.2740)  can1  595FF71   [8]  05 80 60 09 60 09 F6 5D
 (3.2750)  can1  596FF71   [8]  00 80 FF FF FF FF FF CB
 (3.2790)  can1  89A0C02   [8]  00 00 00 00 00 00 00 00
 (3.2790)  can1  8030C02   [8]  00 00 2A 68 2A 68 92 17
 (3.2800)  can1  8580C02   [8]  00 00 00 00 00 00 00 00
 (3.2810)  can1  8041001   [8]  01 02 50 33 03 A7 3B 00
 (3.2820)  can1  4100209   [8]  E9 35 13 00 00 00 00 00
 (3.2830)  can1  4100208   [8]  6F 10 13 00 00 00 00 00
 (3.2840)  can1  18800401   [8]  02 4D 8D AE 8D 94 8D 00
 (3.2840)  can1  18840401   [8]  02 63 8D CA 8D AF 8D 00
 (3.2840)  can1  18C00401   [8]  02 D6 30 34 30 AD 30 00
 (3.2860)  can1  585FF72   [8]  03 80 60 09 60 09 FD 8A
 (3.2870)  can1  586FF72   [8]  FE 7F FF FF FF FF F2 4D
 (3.2920)  can1  4100209   [8]  E9 35 13 00 00 00 00 00
 (3.2930)  can1  4100208   [8]  6F 10 13 00 00 00 00 00
 (3.2940)  can1  8010C01   [8]  78 62 00 00 00 00 00 00
 (3.2950)  can1  595FF71   [8]  05 80 60 09 60 09 F7 5D
 (3.2960)  can1  596FF71   [8]  01 80 FF FF FF FF F0 9F
 (3.2960)  can1  8101201   [8]  F6 62 FD 8D 1A 8A 4C 00
 (3.2990)  can1  5807202   [8]  03 80 00 00 E0 01 01 BF
