 (1.2340)  can1  595FF71   [8]  05 80 60 09 60 09 F2 5D
 (1.2400)  can1  596FF71   [8]  FF 7F FF FF FF FF FB 19
 (1.2410)  can1  8100302   [5]  01 00 0A 00 18
 (1.2410)  can1  586FF72   [8]  FD 7F FF FF FF FF FD B1
 (1.2420)  can1  8580C02   [8]  00 00 00 00 00 00 00 00
 (1.2420)  can1  5807202   [8]  03 80 00 00 E0 01 0E BF
 (1.2420)  can1  5817202   [8]  01 00 10 27 10 27 01 E3
 (1.2430)  can1  586FF72   [8]  01 80 FF FF FF FF FF 9F
 (1.2430)  can1  4100209   [8]  E9 35 13 00 00 00 00 00
 (1.2430)  can1  5827202   [8]  FA 00 00 00 00 00 0E D4
 (1.2440)  can1  5907102   [8]  05 80 00 00 E0 01 0E 68
 (1.2440)  can1  5917102   [8]  01 00 10 27 10 27 01 E3
 (1.2440)  can1  4100208   [8]  6F 10 13 00 00 00 00 00
 (1.2440)  can1  5837202   [8]  2C 41 06 00 00 00 0E E0
 (1.2450)  can1  5927102   [8]  FA 00 00 00 00 00 0E D4
 (1.2450)  can1  595FF71   [8]  05 80 60 09 60 09 F4 5D
 (1.2450)  can1  5847270   [8]  00 00 00 00 00 00 0E 9F
 (1.2460)  can1  5937102   [8]  2C 41 06 00 00 00 0E E0
 (1.2460)  can1  5947102   [8]  00 00 00 00 00 00 0E 9F
 (1.2460)  can1  596FF71   [8]  FE 7F FF FF FF FF FD 4D
 (1.2470)  can1  8100302   [5]  01 00 0A 00 18
 (1.2470)  can1  89A0C02   [8]  00 00 00 00 00 00 00 00
 (1.2470)  can1  8580C02   [8]  00 00 FF FF 00 00 00 00
 (1.2480)  can1  8030C02   [8]  00 00 2A 68 2A 68 92 17
 (1.2480)  can1  585FF72   [8]  03 80 60 09 60 09 FB 8A
 (1.2490)  can1  4100209   [8]  E9 35 13 00 00 00 00 00
 (1.2490)  can1  4100208   [8]  6F 10 13 00 00 00 00 00
 (1.2490)  can1  599FF71   [8]  1A E0 02 82 02 00 FA D1
 (1.2560)  can1  89A0C02   [8]  00 00 00 00 CC 0B 00 00
 (1.2570)  can1  586FF72   [8]  00 80 FF FF FF FF F0 CB
 (1.2580)  can1  587FF72   [8]  00 08 CD 0F FF FF FA F6
 (1.2580)  can1  8030C02   [8]  00 00 2A 68 2A 68 92 17
 (1.2580)  can1  4100209   [8]  E9 35 13 00 00 00 00 00
 (1.2580)  can1  8580C02   [8]  FF FF 00 00 00 00 00 00
 (1.2590)  can1  4100208   [8]  6F 10 13 00 00 00 00 00
 (1.2610)  can1  8100302   [5]  01 00 0A 00 18
 (1.2630)  can1  595FF71   [8]  05 80 60 09 60 09 F5 5D
 (1.2630)  can1  596FF71   [8]  00 80 FF FF FF FF FE CB
 (1.2650)  can1  8101201   [8]  DE 62 E1 8D 01 8A 6A 00
 (1.2660)  can1  8010C01   [8]  5F 62 00 00 00 00 00 00
 (1.2660)  can1  585FF72   [8]  03 80 60 09 60 09 FC 8A
 (1.2670)  can1  4100209   [8]  E9 35 13 00 00 00 00 00
 (1.2680)  can1  4100208   [8]  6F 10 13 00 00 00 00 00
 (1.2700)  can1  18800401   [8]  09 A0 8D 71 8D 53 8D 00
 (1.2710)  can1  18840401   [8]  09 BA 8D 8A 8D 6D 8D 00
 (1.2710)  can1  18C00401   [8]  09 C7 30 AC 2F AC 30 00
 (1.2730)  can1  597FF71   [8]  09 08 E9 0F FF FF FA 3A
 (1.2730)  can1  598FF71   [8]  40 01 78 FF FF FF FA CA
 (1.2760)  can1  89A0C02   [8]  00 00 00 00 00 00 00 00
 (1.2760)  can1  586FF72   [8]  FE 7F FF FF FF FF F1 4D
 (1.2770)  can1  8030C02   [8]  00 00 2A 68 2A 68 92 17
 (1.2770)  can1  8580C02   [8]  00 00 00 00 00 00 00 00
 (1.2780)  can1  4100209   [8]  E9 35 13 00 00 00 00 00
 (1.2780)  can1  4100208   [8]  6F 10 13 00 00 00 00 00
 (1.2830)  can1  595FF71   [8]  05 80 60 09 60 09 F6 5D
 (1.2830)  can1  596FF71   [8]  01 80 FF FF FF FF FF 9F
 (1.2860)  can1  8100302   [5]  01 00 0A 00 18
 (1.2870)  can1  585FF72   [8]  03 80 60 09 60 09 FD 8A
 (1.2870)  can1  4100209   [8]  E9 35 13 00 00 00 00 00
 (1.2880)  can1  4100208   [8]  6F 10 13 00 00 00 00 00
 (1.2960)  can1  5807202   [8]  03 80 00 00 E0 01 0F BF
 (1.2960)  can1  5817202   [8]  01 00 10 27 10 27 02 E3
 (1.2970)  can1  586FF72   [8]  FF 7F FF FF FF FF F2 19
 (1.2980)  can1  4100209   [8]  E9 35 13 00 00 00 00 00
 (1.2980)  can1  5827202   [8]  FA 00 00 00 00 00 0F D4
 (1.2980)  can1  588FF72   [8]  90 01 55 FF FF FF FB B6
 (1.2990)  can1  589FF72   [8]  1A D0 02 81 02 00 FB 87
 (1.3000)  can1  4100208   [8]  6F 10 13 00 00 00 00 00
 (1.3000)  can1  5907102   [8]  05 80 00 00 E0 01 0F 68
 (1.3010)  can1  5917102   [8]  01 00 10 27 10 27 02 E3
 (1.3010)  can1  5927102   [8]  FA 00 00 00 00 00 0F D4
 (1.3010)  can1  5837202   [8]  2C 41 06 00 00 00 0F E0
 (1.3020)  can1  5937102   [8]  2C 41 06 00 00 00 0F E0
 (1.3020)  can1  5847270   [8]  00 00 00 00 00 00 0F 9F
 (1.3020)  can1  5947102   [8]  00 00 00 00 00 00 0F 9F
 (1.3030)  can1  89A0C02   [8]  CC 0B 00 00 00 00 00 00
 (1.3030)  can1  8580C02   [8]  00 00 FF FF 00 00 00 00
 (1.3030)  can1  8030C02   [8]  00 00 2A 68 2A 68 92 17
 (1.3040)  can1  595FF71   [8]  05 80 60 09 60 09 F7 5D
 (1.3040)  can1  596FF71   [8]  FE 7F FF FF FF FF F0 4D
 (1.3060)  can1  585FF72   [8]  03 80 60 09 60 09 FE 8A
 (1.3070)  can1  4100209   [8]  E9 35 13 00 00 00 00 00
 (1.3080)  can1  4100208   [8]  6F 10 13 00 00 00 00 00
 (1.3110)  can1  8100302   [5]  01 00 0A 00 18
 (1.3160)  can1  89A0C02   [8]  00 00 00 00 00 00 00 00
 (1.3170)  can1  8030C02   [8]  00 00 2A 68 2A 68 92 17
 (1.3170)  can1  8580C02   [8]  FF FF 00 00 00 00 00 00
 (1.3180)  can1  4100209   [8]  E9 35 13 00 00 00 00 00
 (1.3180)  can1  4100208   [8]  6F 10 13 00 00 00 00 00
 (1.3190)  can1  8041001   [8]  01 02 C0 32 04 AF 3B 00
 (1.3200)  can1  18800401   [8]  0A 0C 8D 40 8D 69 8D 00
 (1.3210)  can1  18840401   [8]  0A 23 8D 58 8D 80 8D 00
 (1.3210)  can1  586FF72   [8]  FE 7F FF FF FF FF F3 4D
 (1.3220)  can1  18C00401   [8]  0A 91 30 4F 31 CF 30 00
 (1.3230)  can1  595FF71   [8]  05 80 60 09 60 09 F8 5D
 (1.3230)  can1  596FF71   [8]  FE 7F FF FF FF FF F1 4D
 (1.3270)  can1  4100209   [8]  E9 35 13 00 00 00 00 00
 (1.3280)  can1  4100208   [8]  6F 10 13 00 00 00 00 00
 (1.3310)  can1  585FF72   [8]  03 80 60 09 60 09 FF 8A
 (1.3360)  can1  8100302   [5]  01 00 0A 00 18
 (1.3360)  can1  8580C02   [8]  FF FF FF FF 00 00 00 00
 (1.3370)  can1  89A0C02   [8]  00 00 00 00 00 00 00 00
 (1.3370)  can1  4100209   [8]  E9 35 13 00 00 00 00 00
 (1.3380)  can1  8030C02   [8]  00 00 2A 68 2A 68 92 17
 (1.3380)  can1  4100208   [8]  6F 10 13 00 00 00 00 00
 (1.3410)  can1  586FF72   [8]  00 80 FF FF FF FF F4 CB
 (1.3430)  can1  595FF71   [8]  05 80 60 09 60 09 F9 5D
 (1.3430)  can1  596FF71   [8]  FF 7F FF FF FF FF F2 19
 (1.3470)  can1  4100209   [8]  E9 35 13 00 00 00 00 00
 (1.3480)  can1  4100208   [8]  6F 10 13 00 00 00 00 00
 (1.3510)  can1  585FF72   [8]  03 80 60 09 60 09 F0 8A
 (1.3530)  can1  599FF71   [8]  1A E0 02 82 02 00 FB D1
 (1.3560)  can1  5807202   [8]  03 80 00 00 E0 01 00 BF
 (1.3570)  can1  5817202   [8]  01 00 10 27 10 27 03 E3
 (1.3570)  can1  5907102   [8]  05 80 00 00 E0 01 00 68
 (1.3580)  can1  4100209   [8]  E9 35 13 00 00 00 00 00
 (1.3580)  can1  5827202   [8]  FA 00 00 00 00 00 00 D4
 (1.3580)  can1  5917102   [8]  01 00 10 27 10 27 03 E3
 (1.3590)  can1  5927102   [8]  FA 00 00 00 00 00 00 D4
 (1.3590)  can1  4100208   [8]  6F 10 13 00 00 00 00 00
 (1.3590)  can1  5837202   [8]  2C 41 06 00 00 00 00 E0
 (1.3600)  can1  5937102   [8]  2C 41 06 00 00 00 00 E0
 (1.3600)  can1  5847270   [8]  00 00 00 00 00 00 00 9F
 (1.3610)  can1  5947102   [8]  00 00 00 00 00 00 00 9F
 (1.3620)  can1  89A0C02   [8]  00 00 00 00 00 00 00 00
 (1.3620)  can1  8580C02   [8]  00 00 00 00 00 00 00 00
 (1.3620)  can1  8030C02   [8]  00 00 2A 68 2A 68 92 17
 (1.3620)  can1  8100302   [5]  01 00 0A 00 18
 (1.3630)  can1  586FF72   [8]  FE 7F FF FF FF FF F5 4D
 (1.3630)  can1  587FF72   [8]  05 08 CA 0F FF FF FB A7
 (1.3630)  can1  1948FF72   [8]  00 C0 00 55 FF FF FF 12
 (1.3640)  can1  595FF71   [8]  05 80 60 09 60 09 FA 5D
 (1.3640)  can1  596FF71   [8]  01 80 FF FF FF FF F3 9F
 (1.3660)  can1  8101201   [8]  DB 62 E0 8D 02 8A 53 00
 (1.3670)  can1  8010C01   [8]  61 62 00 00 00 00 00 00
 (1.3680)  can1  4100209   [8]  E9 35 13 00 00 00 00 00
 (1.3680)  can1  4100208   [8]  6F 10 13 00 00 00 00 00
 (1.3700)  can1  18101203   [4]  DB 2C 34 08
 (1.3710)  can1  18800401   [8]  0B 91 8D 8F 8D 9C 8D 00
 (1.3710)  can1  18840401   [8]  0B A8 8D A6 8D B4 8D 00
 (1.3720)  can1  18C00401   [8]  0B 89 31 D8 30 7E 31 00
 (1.3730)  can1  597FF71   [8]  07 08 E7 0F FF FF FB E7
 (1.3730)  can1  598FF71   [8]  40 01 78 FF FF FF FB CA
 (1.3760)  can1  89A0C02   [8]  CC 0B 00 00 00 00 00 00
 (1.3760)  can1  585FF72   [8]  03 80 60 09 60 09 F1 8A
 (1.3760)  can1  8030C02   [8]  00 00 2A 68 2A 68 92 17
 (1.3770)  can1  8580C02   [8]  00 00 FF FF 00 00 00 00
 (1.3770)  can1  4100209   [8]  E9 35 13 00 00 00 00 00
 (1.3780)  can1  4100208   [8]  6F 10 13 00 00 00 00 00
 (1.3830)  can1  595FF71   [8]  05 80 60 09 60 09 FB 5D
 (1.3830)  can1  596FF71   [8]  FF 7F FF FF FF FF F4 19
 (1.3860)  can1  8100302   [5]  01 00 0A 00 18
 (1.3860)  can1  528FF72   [8]  01 00 31 00 00 00 34 00
 (1.3870)  can1  529FF72   [8]  02 00 43 00 0A 00 03 00
 (1.3880)  can1  52CFF72   [8]  00 00 EF FF EF FF 3A 00
 (1.3880)  can1  4100209   [8]  E9 35 13 00 00 00 00 00
 (1.3890)  can1  586FF72   [8]  00 80 FF FF FF FF F6 CB
 (1.3890)  can1  4100208   [8]  6F 10 13 00 00 00 00 00
 (1.3890)  can1  1948FF71   [8]  00 C0 00 55 FF FF FF 12
 (1.3930)  can1  528FF71   [8]  03 00 52 00 00 00 56 00
 (1.3930)  can1  529FF71   [8]  07 00 51 00 0C 00 05 00
 (1.3940)  can1  52CFF71   [8]  00 00 EF FF EF FF 3A 00
 (1.3960)  can1  89A0C02   [8]  00 00 00 00 00 00 00 00
 (1.3960)  can1  585FF72   [8]  03 80 60 09 60 09 F2 8A
 (1.3970)  can1  8030C02   [8]  00 00 2A 68 2A 68 92 17
 (1.3970)  can1  8580C02   [8]  00 00 00 00 00 00 00 00
 (1.3970)  can1  4100209   [8]  E9 35 13 00 00 00 00 00
 (1.3980)  can1  4100208   [8]  6F 10 13 00 00 00 00 00
 (1.4010)  can1  588FF72   [8]  90 01 55 FF FF FF FC B6
 (1.4020)  can1  589FF72   [8]  1A D0 02 81 02 00 FC 87
 (1.4030)  can1  595FF71   [8]  05 80 60 09 60 09 FC 5D
 (1.4040)  can1  596FF71   [8]  FF 7F FF FF FF FF F5 19
 (1.4040)  can1  1949FF71   [8]  0D 80 00 0D 90 00 00 2A
 (1.4040)  can1  194AFF71   [8]  34 67 58 86 65 58 01 37
 (1.4050)  can1  194BFF71   [8]  88 F5 FF FF FF FF 02 7B
 (1.4050)  can1  194CFF71   [8]  FF FF FF FF FF FF 03 FD
 (1.4060)  can1  586FF72   [8]  00 80 FF FF FF FF F7 CB
 (1.4060)  can1  1949FF72   [8]  0D 90 00 0D B0 00 00 5A
 (1.4070)  can1  194AFF72   [8]  5E 77 57 77 75 57 01 70
 (1.4070)  can1  194BFF72   [8]  77 F5 FF FF FF FF 02 6A
 (1.4070)  can1  4100209   [8]  E9 35 13 00 00 00 00 00
 (1.4070)  can1  194CFF72   [8]  FF FF FF FF FF FF 03 FD
 (1.4080)  can1  4100208   [8]  6F 10 13 00 00 00 00 00
 (1.4110)  can1  8100302   [5]  01 00 0A 00 18
 (1.4160)  can1  585FF72   [8]  03 80 60 09 60 09 F3 8A
 (1.4160)  can1  5807202   [8]  03 80 00 00 E0 01 01 BF
 (1.4170)  can1  5817202   [8]  01 00 10 27 10 27 04 E3
 (1.4170)  can1  5907102   [8]  05 80 00 00 E0 01 01 68
 (1.4180)  can1  4100209   [8]  E9 35 13 00 00 00 00 00
 (1.4180)  can1  5827202   [8]  FA 00 00 00 00 00 01 D4
 (1.4190)  can1  5917102   [8]  01 00 10 27 10 27 04 E3
 (1.4200)  can1  4100208   [8]  6F 10 13 00 00 00 00 00
 (1.4210)  can1  5837202   [8]  2C 41 06 00 00 00 01 E0
 (1.4210)  can1  5927102   [8]  FA 00 00 00 00 00 01 D4
 (1.4220)  can1  8041001   [8]  01 02 C0 32 04 AF 3B 00
 (1.4220)  can1  5847270   [8]  00 00 00 00 00 00 01 9F
 (1.4220)  can1  5937102   [8]  2C 41 06 00 00 00 01 E0
 (1.4230)  can1  5947102   [8]  00 00 00 00 00 00 01 9F
 (1.4230)  can1  8580C02   [8]  00 00 00 00 00 00 00 00
 (1.4240)  can1  89A0C02   [8]  00 00 00 00 00 00 00 00
 (1.4240)  can1  18800401   [8]  0C 8F 8D 49 8D 45 8D 00
 (1.4240)  can1  18840401   [8]  0C A6 8D 62 8D 5D 8D 00
 (1.4240)  can1  8030C02   [8]  00 00 2A 68 2A 68 92 17
 (1.4250)  can1  18C00401   [8]  0C A7 30 34 31 61 30 00
 (1.4250)  can1  595FF71   [8]  05 80 60 09 60 09 FD 5D
 (1.4250)  can1  596FF71   [8]  01 80 FF FF FF FF F6 9F
 (1.4260)  can1  586FF72   [8]  FF 7F FF FF FF FF F8 19
 (1.4270)  can1  4100209   [8]  E9 35 13 00 00 00 00 00
 (1.4280)  can1  4100208   [8]  6F 10 13 00 00 00 00 00
 (1.4360)  can1  8100302   [5]  01 00 0A 00 18
 (1.4360)  can1  585FF72   [8]  03 80 60 09 60 09 F4 8A
 (1.4370)  can1  8580C02   [8]  00 00 00 00 00 00 00 00
 (1.4370)  can1  89A0C02   [8]  CC 0B 00 00 00 00 00 00
 (1.4380)  can1  4100209   [8]  E9 35 13 00 00 00 00 00
 (1.4380)  can1  8030C02   [8]  00 00 2A 68 2A 68 92 17
 (1.4390)  can1  4100208   [8]  6F 10 13 00 00 00 00 00
 (1.4430)  can1  595FF71   [8]  05 80 60 09 60 09 FE 5D
 (1.4440)  can1  596FF71   [8]  01 80 FF FF FF FF F7 9F
 (1.4460)  can1  586FF72   [8]  FF 7F FF FF FF FF F9 19
 (1.4470)  can1  4100209   [8]  E9 35 13 00 00 00 00 00
 (1.4480)  can1  4100208   [8]  6F 10 13 00 00 00 00 00
 (1.4530)  can1  599FF71   [8]  1A E0 02 82 02 00 FC D1
 (1.4560)  can1  89A0C02   [8]  CC 0B 00 00 00 00 00 00
 (1.4560)  can1  585FF72   [8]  03 80 60 09 60 09 F5 8A
 (1.4570)  can1  8030C02   [8]  00 00 2A 68 2A 68 92 17
 (1.4580)  can1  8580C02   [8]  00 00 00 00 00 00 00 00
 (1.4580)  can1  4100209   [8]  E9 35 13 00 00 00 00 00
 (1.4590)  can1  4100208   [8]  6F 10 13 00 00 00 00 00
 (1.4610)  can1  8100302   [5]  01 00 0A 00 18
 (1.4630)  can1  595FF71   [8]  05 80 60 09 60 09 FF 5D
 (1.4630)  can1  596FF71   [8]  FD 7F FF FF FF FF F8 B1
 (1.4660)  can1  586FF72   [8]  FD 7F FF FF FF FF FA B1
 (1.4660)  can1  587FF72   [8]  FF 07 CA 0F FF FF FC 25
 (1.4670)  can1  4100209   [8]  E9 35 13 00 00 00 00 00
 (1.4670)  can1  8101201   [8]  DF 62 DF 8D FF 89 4E 00
 (1.4680)  can1  8010C01   [8]  63 62 00 00 00 00 00 00
 (1.4680)  can1  4100208   [8]  6F 10 13 00 00 00 00 00
 (1.4700)  can1  18800401   [8]  0D 67 8D 94 8D 7A 8D 00
 (1.4710)  can1  18840401   [8]  0D 80 8D AC 8D 92 8D 00
 (1.4720)  can1  18C00401   [8]  0D D6 30 97 2F E7 2F 00
 (1.4730)  can1  597FF71   [8]  0A 08 E2 0F FF FF FC 0D
 (1.4730)  can1  598FF71   [8]  40 01 78 FF FF FF FC CA
 (1.4760)  can1  585FF72   [8]  03 80 60 09 60 09 F6 8A
 (1.4760)  can1  5807202   [8]  03 80 00 00 E0 01 02 BF
 (1.4770)  can1  5817202   [8]  01 00 10 27 10 27 05 E3
 (1.4780)  can1  5907102   [8]  05 80 00 00 E0 01 02 68
 (1.4780)  can1  4100209   [8]  E9 35 13 00 00 00 00 00
 (1.4780)  can1  5827202   [8]  FA 00 00 00 00 00 02 D4
 (1.4790)  can1  5917102   [8]  01 00 10 27 10 27 05 E3
 (1.4800)  can1  4100208   [8]  6F 10 13 00 00 00 00 00
 (1.4810)  can1  5837202   [8]  2C 41 06 00 00 00 02 E0
 (1.4810)  can1  5927102   [8]  FA 00 00 00 00 00 02 D4
 (1.4810)  can1  5937102   [8]  2C 41 06 00 00 00 02 E0
 (1.4820)  can1  5847270   [8]  00 00 00 00 00 00 02 9F
 (1.4820)  can1  5947102   [8]  00 00 00 00 00 00 02 9F
 (1.4820)  can1  89A0C02   [8]  00 00 00 00 00 00 00 00
 (1.4830)  can1  8030C02   [8]  00 00 2A 68 2A 68 92 17
 (1.4830)  can1  8580C02   [8]  FE FF FE FF 00 00 00 00
 (1.4840)  can1  595FF71   [8]  05 80 60 09 60 09 F0 5D
 (1.4840)  can1  596FF71   [8]  FE 7F FF FF FF FF F9 4D
 (1.4860)  can1  8100302   [5]  01 00 0A 00 18
 (1.4860)  can1  586FF72   [8]  01 80 FF FF FF FF FB 9F
 (1.4870)  can1  4100209   [8]  E9 35 13 00 00 00 00 00
 (1.4880)  can1  4100208   [8]  6F 10 13 00 00 00 00 00
 (1.4960)  can1  89A0C02   [8]  00 00 00 00 CC 0B 00 00
 (1.4960)  can1  585FF72   [8]  03 80 60 09 60 09 F7 8A
 (1.4970)  can1  8030C02   [8]  00 00 2A 68 2A 68 92 17
 (1.4980)  can1  8580C02   [8]  FF FF 00 00 00 00 00 00
 (1.4980)  can1  4100209   [8]  E9 35 13 00 00 00 00 00
 (1.4980)  can1  4100208   [8]  6F 10 13 00 00 00 00 00
 (1.5010)  can1  588FF72   [8]  90 01 55 FF FF FF FD B6
 (1.5010)  can1  589FF72   [8]  1A D0 02 81 02 00 FD 87
 (1.5030)  can1  595FF71   [8]  05 80 60 09 60 09 F1 5D
 (1.5030)  can1  596FF71   [8]  FF 7F FF FF FF FF FA 19
 (1.5060)  can1  586FF72   [8]  03 80 FF FF FF FF FC 37
 (1.5070)  can1  4100209   [8]  E9 35 13 00 00 00 00 00
 (1.5080)  can1  4100208   [8]  6F 10 13 00 00 00 00 00
 (1.5110)  can1  8100302   [5]  01 00 0A 00 18
 (1.5160)  can1  89A0C02   [8]  00 00 00 00 66 23 00 00
 (1.5160)  can1  585FF72   [8]  03 80 60 09 60 09 F8 8A
 (1.5170)  can1  8030C02   [8]  00 00 2A 68 2A 68 92 17
 (1.5180)  can1  8580C02   [8]  00 00 02 00 00 00 00 00
 (1.5180)  can1  4100209   [8]  E9 35 13 00 00 00 00 00
 (1.5190)  can1  4100208   [8]  6F 10 13 00 00 00 00 00
 (1.5190)  can1  8041001   [8]  01 02 C0 32 04 AF 3B 00
 (1.5200)  can1  18800401   [8]  0E 3D 8D 2C 8D F1 8C 00
 (1.5210)  can1  18840401   [8]  0E 56 8D 44 8D 09 8D 00
 (1.5210)  can1  18C00401   [8]  0E 4A 2F 86 30 51 30 00
 (1.5230)  can1  595FF71   [8]  05 80 60 09 60 09 F2 5D
 (1.5230)  can1  596FF71   [8]  01 80 FF FF FF FF FB 9F
 (1.5260)  can1  586FF72   [8]  01 80 FF FF FF FF FD 9F
 (1.5270)  can1  4100209   [8]  E9 35 13 00 00 00 00 00
 (1.5280)  can1  4100208   [8]  6F 10 13 00 00 00 00 00
 (1.5360)  can1  585FF72   [8]  03 80 60 09 60 09 F9 8A
 (1.5370)  can1  5807202   [8]  03 80 00 00 E0 01 03 BF
 (1.5380)  can1  5817202   [8]  01 00 10 27 10 27 06 E3
 (1.5380)  can1  5907102   [8]  05 80 00 00 E0 01 03 68
 (1.5390)  can1  4100209   [8]  E9 35 13 00 00 00 00 00
 (1.5390)  can1  5827202   [8]  FA 00 00 00 00 00 03 D4
 (1.5400)  can1  5917102   [8]  01 00 10 27 10 27 06 E3
 (1.5400)  can1  4100208   [8]  6F 10 13 00 00 00 00 00
 (1.5410)  can1  5837202   [8]  2C 41 06 00 00 00 03 E0
 (1.5410)  can1  5927102   [8]  FA 00 00 00 00 00 03 D4
 (1.5420)  can1  5937102   [8]  2C 41 06 00 00 00 03 E0
 (1.5420)  can1  5847270   [8]  00 00 00 00 00 00 03 9F
 (1.5430)  can1  5947102   [8]  00 00 00 00 00 00 03 9F
 (1.5430)  can1  8100302   [5]  01 00 0A 00 18
 (1.5440)  can1  8580C02   [8]  00 00 00 00 00 00 00 00
 (1.5440)  can1  89A0C02   [8]  CC 0B 00 00 CC 0B 00 00
 (1.5440)  can1  8030C02   [8]  00 00 2A 68 2A 68 92 17
 (1.5440)  can1  595FF71   [8]  05 80 60 09 60 09 F3 5D
 (1.5450)  can1  596FF71   [8]  FE 7F FF FF FF FF FC 4D
 (1.5460)  can1  586FF72   [8]  FF 7F FF FF FF FF FE 19
 (1.5470)  can1  4100209   [8]  E9 35 13 00 00 00 00 00
 (1.5480)  can1  4100208   [8]  6F 10 13 00 00 00 00 00
 (1.5530)  can1  599FF71   [8]  1A E0 02 82 02 00 FD D1
 (1.5560)  can1  89A0C02   [8]  00 00 00 00 00 00 00 00
 (1.5560)  can1  585FF72   [8]  03 80 60 09 60 09 FA 8A
 (1.5570)  can1  8030C02   [8]  00 00 2A 68 2A 68 92 17
 (1.5570)  can1  8580C02   [8]  FF FF 00 00 00 00 00 00
 (1.5570)  can1  4100209   [8]  E9 35 13 00 00 00 00 00
 (1.5580)  can1  4100208   [8]  6F 10 13 00 00 00 00 00
 (1.5610)  can1  8100302   [5]  01 00 0A 00 18
 (1.5630)  can1  595FF71   [8]  05 80 60 09 60 09 F4 5D
 (1.5640)  can1  596FF71   [8]  01 80 FF FF FF FF FD 9F
 (1.5660)  can1  586FF72   [8]  FF 7F FF FF FF FF FF 19
 (1.5660)  can1  587FF72   [8]  FC 07 CA 0F FF FF FD D9
 (1.5670)  can1  4100209   [8]  E9 35 13 00 00 00 00 00
 (1.5680)  can1  4100208   [8]  6F 10 13 00 00 00 00 00
 (1.5680)  can1  8010C01   [8]  62 62 00 00 00 00 00 00
 (1.5690)  can1  8101201   [8]  DC 62 DE 8D 01 8A 4E 00
 (1.5700)  can1  18800401   [8]  0F A5 8C 45 8D 71 8D 00
 (1.5710)  can1  18840401   [8]  0F BE 8C 5D 8D 8B 8D 00
 (1.5710)  can1  18C00401   [8]  0F 24 31 A2 30 70 31 00
 (1.5730)  can1  597FF71   [8]  08 08 E4 0F FF FF FD 6A
 (1.5740)  can1  598FF71   [8]  40 01 78 FF FF FF FD CA
 (1.5760)  can1  89A0C02   [8]  CC 0B 00 00 00 00 00 00
 (1.5770)  can1  585FF72   [8]  03 80 60 09 60 09 FB 8A
 (1.5770)  can1  8030C02   [8]  00 00 2A 68 2A 68 92 17
 (1.5780)  can1  8580C02   [8]  00 00 00 00 00 00 00 00
 (1.5780)  can1  4100209   [8]  E9 35 13 00 00 00 00 00
 (1.5790)  can1  4100208   [8]  6F 10 13 00 00 00 00 00
 (1.5830)  can1  595FF71   [8]  05 80 60 09 60 09 F5 5D
 (1.5830)  can1  596FF71   [8]  00 80 FF FF FF FF FE CB
 (1.5860)  can1  8100302   [5]  01 00 0A 00 18
 (1.5860)  can1  586FF72   [8]  00 80 FF FF FF FF F0 CB
 (1.5870)  can1  4100209   [8]  E9 35 13 00 00 00 00 00
 (1.5880)  can1  4100208   [8]  6F 10 13 00 00 00 00 00
 (1.5960)  can1  585FF72   [8]  03 80 60 09 60 09 FC 8A
 (1.5970)  can1  5807202   [8]  03 80 00 00 E0 01 04 BF
 (1.5980)  can1  5817202   [8]  01 00 10 27 10 27 07 E3
 (1.5980)  can1  5907102   [8]  05 80 00 00 E0 01 04 68
 (1.5990)  can1  4100209   [8]  E9 35 13 00 00 00 00 00
 (1.5990)  can1  5827202   [8]  FA 00 00 00 00 00 04 D4
 (1.6000)  can1  5917102   [8]  01 00 10 27 10 27 07 E3
 (1.6000)  can1  4100208   [8]  6F 10 13 00 00 00 00 00
 (1.6010)  can1  5837202   [8]  2C 41 06 00 00 00 04 E0
 (1.6010)  can1  5927102   [8]  FA 00 00 00 00 00 04 D4
 (1.6020)  can1  5937102   [8]  2C 41 06 00 00 00 04 E0
 (1.6020)  can1  5847270   [8]  00 00 00 00 00 00 04 9F
 (1.6030)  can1  5947102   [8]  00 00 00 00 00 00 04 9F
 (1.6030)  can1  89A0C02   [8]  00 00 00 00 00 00 00 00
 (1.6040)  can1  8030C02   [8]  00 00 2A 68 2A 68 92 17
 (1.6040)  can1  8580C02   [8]  00 00 00 00 00 00 00 00
 (1.6040)  can1  588FF72   [8]  90 01 55 FF FF FF FE B6
 (1.6050)  can1  589FF72   [8]  1A D0 02 81 02 00 FE 87
 (1.6050)  can1  595FF71   [8]  05 80 60 09 60 09 F6 5D
 (1.6060)  can1  596FF71   [8]  00 80 FF FF FF FF FF CB
 (1.6060)  can1  586FF72   [8]  FF 7F FF FF FF FF F1 19
 (1.6070)  can1  4100209   [8]  E9 35 13 00 00 00 00 00
 (1.6080)  can1  4100208   [8]  6F 10 13 00 00 00 00 00
 (1.6110)  can1  8100302   [5]  01 00 0A 00 18
 (1.6160)  can1  89A0C02   [8]  00 00 00 00 00 00 00 00
 (1.6160)  can1  585FF72   [8]  03 80 60 09 60 09 FD 8A
 (1.6160)  can1  8030C02   [8]  00 00 2A 68 2A 68 92 17
 (1.6170)  can1  8580C02   [8]  00 00 00 00 00 00 00 00
 (1.6170)  can1  4100209   [8]  E9 35 13 00 00 00 00 00
 (1.6180)  can1  1948FF72   [8]  00 C0 00 55 FF FF 04 17
 (1.6190)  can1  4100208   [8]  6F 10 13 00 00 00 00 00
 (1.6190)  can1  8041001   [8]  01 02 C0 32 04 AF 3B 00
 (1.6200)  can1  18800401   [8]  10 71 8D 70 8D 5E 8D 00
 (1.6210)  can1  18840401   [8]  10 87 8D 88 8D 76 8D 00
 (1.6210)  can1  18C00401   [8]  10 B3 30 7C 31 54 30 00
 (1.6230)  can1  595FF71   [8]  05 80 60 09 60 09 F7 5D
 (1.6230)  can1  596FF71   [8]  00 80 FF FF FF FF F0 CB
 (1.6260)  can1  586FF72   [8]  02 80 FF FF FF FF F2 63
 (1.6270)  can1  4100209   [8]  E9 35 13 00 00 00 00 00
 (1.6280)  can1  4100208   [8]  6F 10 13 00 00 00 00 00
 (1.6360)  can1  8100302   [5]  01 00 0A 00 18
 (1.6360)  can1  585FF72   [8]  03 80 60 09 60 09 FE 8A
 (1.6370)  can1  8580C02   [8]  00 00 01 00 00 00 00 00
 (1.6380)  can1  89A0C02   [8]  00 00 00 00 99 17 00 00
 (1.6380)  can1  4100209   [8]  E9 35 13 00 00 00 00 00
 (1.6390)  can1  8030C02   [8]  00 00 2A 68 2A 68 92 17
 (1.6390)  can1  4100208   [8]  6F 10 13 00 00 00 00 00
 (1.6430)  can1  595FF71   [8]  05 80 60 09 60 09 F8 5D
 (1.6440)  can1  596FF71   [8]  00 80 FF FF FF FF F1 CB
 (1.6440)  can1  1948FF71   [8]  00 C0 00 55 FF FF 04 17
 (1.6460)  can1  586FF72   [8]  01 80 FF FF FF FF F3 9F
 (1.6470)  can1  4100209   [8]  E9 35 13 00 00 00 00 00
 (1.6480)  can1  4100208   [8]  6F 10 13 00 00 00 00 00
 (1.6530)  can1  599FF71   [8]  1A E0 02 82 02 00 FE D1
 (1.6560)  can1  5807202   [8]  03 80 00 00 E0 01 05 BF
 (1.6560)  can1  5817202   [8]  01 00 10 27 10 27 08 E3
 (1.6570)  can1  585FF72   [8]  03 80 60 09 60 09 FF 8A
 (1.6580)  can1  4100209   [8]  E9 35 13 00 00 00 00 00
 (1.6590)  can1  5827202   [8]  FA 00 00 00 00 00 05 D4
 (1.6590)  can1  5907102   [8]  05 80 00 00 E0 01 05 68
 (1.6600)  can1  5917102   [8]  01 00 10 27 10 27 08 E3
 (1.6610)  can1  4100208   [8]  6F 10 13 00 00 00 00 00
 (1.6610)  can1  5837202   [8]  2C 41 06 00 00 00 05 E0
 (1.6620)  can1  5927102   [8]  FA 00 00 00 00 00 05 D4
 (1.6630)  can1  1949FF71   [8]  0D 80 00 0E B0 00 05 50
 (1.6630)  can1  5847270   [8]  00 00 00 00 00 00 05 9F
 (1.6640)  can1  5937102   [8]  2C 41 06 00 00 00 05 E0
 (1.6640)  can1  5947102   [8]  00 00 00 00 00 00 05 9F
 (1.6640)  can1  8580C02   [8]  00 00 00 00 00 00 00 00
 (1.6650)  can1  89A0C02   [8]  00 00 00 00 CC 0B 00 00
 (1.6650)  can1  194AFF71   [8]  32 67 58 86 65 58 06 3A
 (1.6650)  can1  194BFF71   [8]  86 F5 FF FF FF FF 07 7E
 (1.6660)  can1  8030C02   [8]  00 00 2A 68 2A 68 92 17
 (1.6660)  can1  8100302   [5]  01 00 0A 00 18
 (1.6660)  can1  194CFF71   [8]  FF FF FF FF FF FF 08 02
 (1.6670)  can1  1949FF72   [8]  0D 80 00 0D 90 00 05 2F
 (1.6670)  can1  194AFF72   [8]  5E 77 57 77 75 57 06 75
 (1.6680)  can1  194BFF72   [8]  77 F5 FF FF FF FF 07 6F
 (1.6680)  can1  194CFF72   [8]  FF FF FF FF FF FF 08 02
 (1.6690)  can1  595FF71   [8]  05 80 60 09 60 09 F9 5D
 (1.6690)  can1  596FF71   [8]  FE 7F FF FF FF FF F2 4D
 (1.6690)  can1  586FF72   [8]  01 80 FF FF FF FF F4 9F
 (1.6700)  can1  587FF72   [8]  03 08 CA 0F FF FF FE 70
 (1.6710)  can1  4100209   [8]  E9 35 13 00 00 00 00 00
 (1.6710)  can1  4100208   [8]  6F 10 13 00 00 00 00 00
 (1.6710)  can1  8101201   [8]  E0 62 DD 8D 01 8A 46 00
 (1.6720)  can1  8010C01   [8]  63 62 00 00 00 00 00 00
 (1.6720)  can1  18800401   [8]  11 23 8D 08 8D 3F 8D 00
 (1.6720)  can1  18840401   [8]  11 3B 8D 20 8D 55 8D 00
 (1.6730)  can1  18C00401   [8]  11 56 31 07 30 0B 31 00
 (1.6730)  can1  597FF71   [8]  06 08 E7 0F FF FF FE B3
 (1.6730)  can1  598FF71   [8]  40 01 78 FF FF FF FE CA
 (1.6760)  can1  89A0C02   [8]  00 00 00 00 CC 0B 00 00
 (1.6760)  can1  585FF72   [8]  03 80 60 09 60 09 F0 8A
 (1.6770)  can1  8030C02   [8]  00 00 2A 68 2A 68 92 17
 (1.6770)  can1  8580C02   [8]  FF FF 00 00 00 00 00 00
 (1.6770)  can1  4100209   [8]  E9 35 13 00 00 00 00 00
 (1.6780)  can1  4100208   [8]  6F 10 13 00 00 00 00 00
 (1.6830)  can1  595FF71   [8]  05 80 60 09 60 09 FA 5D
 (1.6840)  can1  596FF71   [8]  FE 7F FF FF FF FF F3 4D
 (1.6860)  can1  8100302   [5]  01 00 0A 00 18
 (1.6870)  can1  586FF72   [8]  FD 7F FF FF FF FF F5 B1
 (1.6870)  can1  4100209   [8]  E9 35 13 00 00 00 00 00
 (1.6880)  can1  4100208   [8]  6F 10 13 00 00 00 00 00
 (1.6960)  can1  89A0C02   [8]  00 00 00 00 00 00 00 00
 (1.6960)  can1  585FF72   [8]  03 80 60 09 60 09 F1 8A
 (1.6970)  can1  8030C02   [8]  00 00 2A 68 2A 68 92 17
 (1.6970)  can1  8580C02   [8]  FF FF FE FF 00 00 00 00
 (1.6970)  can1  4100209   [8]  E9 35 13 00 00 00 00 00
 (1.6980)  can1  4100208   [8]  6F 10 13 00 00 00 00 00
 (1.7030)  can1  595FF71   [8]  05 80 60 09 60 09 FB 5D
 (1.7040)  can1  596FF71   [8]  FE 7F FF FF FF FF F4 4D
 (1.7060)  can1  586FF72   [8]  02 80 FF FF FF FF F6 63
 (1.7060)  can1  588FF72   [8]  90 01 55 FF FF FF FF B6
 (1.7070)  can1  589FF72   [8]  1A D0 02 81 02 00 FF 87
 (1.7080)  can1  4100209   [8]  E9 35 13 00 00 00 00 00
 (1.7080)  can1  4100208   [8]  6F 10 13 00 00 00 00 00
 (1.7110)  can1  8100302   [5]  01 00 0A 00 18
 (1.7160)  can1  5807202   [8]  03 80 00 00 E0 01 06 BF
 (1.7160)  can1  5817202   [8]  01 00 10 27 10 27 09 E3
 (1.7170)  can1  585FF72   [8]  03 80 60 09 60 09 F2 8A
 (1.7170)  can1  5907102   [8]  05 80 00 00 E0 01 06 68
 (1.7170)  can1  4100209   [8]  E9 35 13 00 00 00 00 00
 (1.7180)  can1  5827202   [8]  FA 00 00 00 00 00 06 D4
 (1.7180)  can1  5917102   [8]  01 00 10 27 10 27 09 E3
 (1.7190)  can1  4100208   [8]  6F 10 13 00 00 00 00 00
 (1.7200)  can1  5837202   [8]  2C 41 06 00 00 00 06 E0
 (1.7200)  can1  5927102   [8]  FA 00 00 00 00 00 06 D4
 (1.7210)  can1  8041001   [8]  01 02 C0 32 04 AF 3B 00
 (1.7220)  can1  5847270   [8]  00 00 00 00 00 00 06 9F
 (1.7220)  can1  5937102   [8]  2C 41 06 00 00 00 06 E0
 (1.7220)  can1  5947102   [8]  00 00 00 00 00 00 06 9F
 (1.7230)  can1  8580C02   [8]  FF FF 01 00 00 00 00 00
 (1.7230)  can1  89A0C02   [8]  00 00 00 00 99 17 00 00
 (1.7240)  can1  18800401   [8]  12 85 8D 72 8D 40 8D 00
 (1.7240)  can1  18840401   [8]  12 9E 8D 8B 8D 57 8D 00
 (1.7240)  can1  8030C02   [8]  00 00 2A 68 2A 68 92 17
 (1.7250)  can1  18C00401   [8]  12 5D 30 71 2F 15 2F 00
 (1.7250)  can1  595FF71   [8]  05 80 60 09 60 09 FC 5D
 (1.7250)  can1  596FF71   [8]  00 80 FF FF FF FF F5 CB
 (1.7260)  can1  586FF72   [8]  00 80 FF FF FF FF F7 CB
 (1.7270)  can1  4100209   [8]  E9 35 13 00 00 00 00 00
 (1.7280)  can1  4100208   [8]  6F 10 13 00 00 00 00 00
 (1.7360)  can1  8100302   [5]  01 00 0A 00 18
 (1.7370)  can1  585FF72   [8]  03 80 60 09 60 09 F3 8A
 (1.7370)  can1  8580C02   [8]  00 00 00 00 00 00 00 00
 (1.7380)  can1  89A0C02   [8]  00 00 00 00 00 00 00 00
 (1.7380)  can1  4100209   [8]  E9 35 13 00 00 00 00 00
 (1.7380)  can1  8030C02   [8]  00 00 2A 68 2A 68 92 17
 (1.7390)  can1  4100208   [8]  6F 10 13 00 00 00 00 00
 (1.7430)  can1  595FF71   [8]  05 80 60 09 60 09 FD 5D
 (1.7440)  can1  596FF71   [8]  01 80 FF FF FF FF F6 9F
 (1.7460)  can1  586FF72   [8]  FE 7F FF FF FF FF F8 4D
 (1.7470)  can1  4100209   [8]  E9 35 13 00 00 00 00 00
 (1.7480)  can1  4100208   [8]  6F 10 13 00 00 00 00 00
 (1.7530)  can1  599FF71   [8]  1A E0 02 82 02 00 FF D1
 (1.7560)  can1  89A0C02   [8]  CC 0B 00 00 00 00 00 00
 (1.7570)  can1  585FF72   [8]  03 80 60 09 60 09 F4 8A
 (1.7570)  can1  8030C02   [8]  00 00 2A 68 2A 68 92 17
 (1.7580)  can1  8580C02   [8]  00 00 FF FF 00 00 00 00
 (1.7580)  can1  4100209   [8]  E9 35 13 00 00 00 00 00
 (1.7590)  can1  4100208   [8]  6F 10 13 00 00 00 00 00
 (1.7610)  can1  8100302   [5]  01 00 0A 00 18
 (1.7630)  can1  595FF71   [8]  05 80 60 09 60 09 FE 5D
 (1.7630)  can1  596FF71   [8]  FE 7F FF FF FF FF F7 4D
 (1.7660)  can1  586FF72   [8]  00 80 FF FF FF FF F9 CB
 (1.7660)  can1  587FF72   [8]  01 08 CA 0F FF FF FF D8
 (1.7670)  can1  4100209   [8]  E9 35 13 00 00 00 00 00
 (1.7680)  can1  4100208   [8]  6F 10 13 00 00 00 00 00
 (1.7700)  can1  404FF03   [1]  00
 (1.7710)  can1  8010C01   [8]  60 62 00 00 00 00 00 00
 (1.7720)  can1  8101201   [8]  E0 62 E1 8D 02 8A 56 00
 (1.7720)  can1  18800401   [8]  13 3B 8D 17 8D 26 8D 00
 (1.7730)  can1  18840401   [8]  13 53 8D 21 8D 3E 8D 00
 (1.7740)  can1  18C00401   [8]  13 05 30 FD 2F B9 30 00
 (1.7740)  can1  8250C03   [8]  4A 00 49 01 00 00 36 00
 (1.7740)  can1  8840C03   [8]  85 00 1F 00 20 00 07 00
 (1.7740)  can1  88D0C03   [8]  12 00 00 00 63 00 67 00
 (1.7750)  can1  597FF71   [8]  06 08 E4 0F FF FF FF 43
 (1.7750)  can1  598FF71   [8]  40 01 78 FF FF FF FF CA
 (1.7760)  can1  5807202   [8]  03 80 00 00 E0 01 07 BF
 (1.7760)  can1  5817202   [8]  01 00 10 27 10 27 0A E3
 (1.7770)  can1  585FF72   [8]  03 80 60 09 60 09 F5 8A
 (1.7780)  can1  5907102   [8]  05 80 00 00 E0 01 07 68
 (1.7780)  can1  4100209   [8]  E9 35 13 00 00 00 00 00
 (1.7790)  can1  5827202   [8]  FA 00 00 00 00 00 07 D4
 (1.7800)  can1  5917102   [8]  01 00 10 27 10 27 0A E3
 (1.7800)  can1  4100208   [8]  6F 10 13 00 00 00 00 00
 (1.7800)  can1  5837202   [8]  2C 41 06 00 00 00 07 E0
 (1.7810)  can1  5927102   [8]  FA 00 00 00 00 00 07 D4
 (1.7810)  can1  5937102   [8]  2C 41 06 00 00 00 07 E0
 (1.7810)  can1  5847270   [8]  00 00 00 00 00 00 07 9F
 (1.7820)  can1  5947102   [8]  00 00 00 00 00 00 07 9F
 (1.7820)  can1  89A0C02   [8]  00 00 00 00 00 00 00 00
 (1.7820)  can1  8030C02   [8]  00 00 2A 68 2A 68 92 17
 (1.7830)  can1  8580C02   [8]  FF FF 00 00 00 00 00 00
 (1.7830)  can1  595FF71   [8]  05 80 60 09 60 09 FF 5D
 (1.7840)  can1  596FF71   [8]  01 80 FF FF FF FF F8 9F
 (1.7860)  can1  8100302   [5]  01 00 0A 00 18
 (1.7860)  can1  586FF72   [8]  FF 7F FF FF FF FF FA 19
 (1.7870)  can1  4100209   [8]  E9 35 13 00 00 00 00 00
 (1.7880)  can1  4100208   [8]  6F 10 13 00 00 00 00 00
 (1.7960)  can1  89A0C02   [8]  CC 0B 00 00 00 00 00 00
 (1.7960)  can1  585FF72   [8]  03 80 60 09 60 09 F6 8A
 (1.7970)  can1  8030C02   [8]  00 00 2A 68 2A 68 92 17
 (1.7970)  can1  8580C02   [8]  00 00 00 00 00 00 00 00
 (1.7980)  can1  4100209   [8]  E9 35 13 00 00 00 00 00
 (1.7980)  can1  4100208   [8]  6F 10 13 00 00 00 00 00
 (1.8000)  can1  404FF07   [1]  00
 (1.8030)  can1  595FF71   [8]  05 80 60 09 60 09 F0 5D
 (1.8040)  can1  596FF71   [8]  FF 7F FF FF FF FF F9 19
 (1.8060)  can1  586FF72   [8]  FF 7F FF FF FF FF FB 19
 (1.8070)  can1  588FF72   [8]  90 01 55 FF FF FF F0 B6
 (1.8070)  can1  589FF72   [8]  1A D0 02 81 02 00 F0 87
 (1.8070)  can1  4100209   [8]  E9 35 13 00 00 00 00 00
 (1.8080)  can1  4100208   [8]  6F 10 13 00 00 00 00 00
 (1.8110)  can1  8100302   [5]  01 00 0A 00 18
 (1.8160)  can1  89A0C02   [8]  00 00 00 00 00 00 00 00
 (1.8160)  can1  585FF72   [8]  03 80 60 09 60 09 F7 8A
 (1.8170)  can1  8030C02   [8]  00 00 2A 68 2A 68 92 17
 (1.8170)  can1  8580C02   [8]  00 00 00 00 00 00 00 00
 (1.8180)  can1  4100209   [8]  E9 35 13 00 00 00 00 00
 (1.8180)  can1  4100208   [8]  6F 10 13 00 00 00 00 00
 (1.8190)  can1  404FF01   [1]  00
 (1.8190)  can1  8041001   [8]  01 02 C0 32 04 AF 3B 00
 (1.8200)  can1  8120C01   [8]  05 00 00 00 00 00 00 00
 (1.8210)  can1  80F1201   [4]  72 10 00 00
 (1.8220)  can1  18800401   [8]  14 53 8D 7E 8D 73 8D 00
 (1.8220)  can1  18840401   [8]  14 69 8D 90 8D 88 8D 00
 (1.8220)  can1  18C00401   [8]  14 30 30 DA 30 39 30 00
 (1.8230)  can1  595FF71   [8]  05 80 60 09 60 09 F1 5D
 (1.8240)  can1  596FF71   [8]  FF 7F FF FF FF FF FA 19
 (1.8260)  can1  586FF72   [8]  FF 7F FF FF FF FF FC 19
 (1.8270)  can1  4100209   [8]  E9 35 13 00 00 00 00 00
 (1.8280)  can1  4100208   [8]  6F 10 13 00 00 00 00 00
 (1.8360)  can1  5807202   [8]  03 80 00 00 E0 01 08 BF
 (1.8360)  can1  5817202   [8]  01 00 10 27 10 27 0B E3
 (1.8370)  can1  585FF72   [8]  03 80 60 09 60 09 F8 8A
 (1.8380)  can1  5907102   [8]  05 80 00 00 E0 01 08 68
 (1.8390)  can1  4100209   [8]  E9 35 13 00 00 00 00 00
 (1.8390)  can1  5827202   [8]  FA 00 00 00 00 00 08 D4
 (1.8400)  can1  5917102   [8]  01 00 10 27 10 27 0B E3
 (1.8490)  can1  4100208   [8]  6F 10 13 00 00 00 00 00
 (1.8500)  can1  5837202   [8]  2C 41 06 00 00 00 08 E0
 (1.8510)  can1  5927102   [8]  FA 00 00 00 00 00 08 D4
 (1.8510)  can1  5937102   [8]  2C 41 06 00 00 00 08 E0
 (1.8510)  can1  5847270   [8]  00 00 00 00 00 00 08 9F
 (1.8510)  can1  5947102   [8]  00 00 00 00 00 00 08 9F
 (1.8520)  can1  404FF02   [1]  00
 (1.8520)  can1  8100302   [5]  01 00 0A 00 18
 (1.8520)  can1  89A0C02   [8]  00 00 00 00 00 00 00 00
 (1.8520)  can1  8580C02   [8]  00 00 00 00 00 00 00 00
 (1.8530)  can1  8030C02   [8]  00 00 2A 68 2A 68 92 17
 (1.8530)  can1  595FF71   [8]  05 80 60 09 60 09 F2 5D
 (1.8540)  can1  596FF71   [8]  00 80 FF FF FF FF FB CB
 (1.8540)  can1  586FF72   [8]  02 80 FF FF FF FF FD 63
 (1.8540)  can1  4100209   [8]  E9 35 13 00 00 00 00 00
 (1.8540)  can1  4100208   [8]  6F 10 13 00 00 00 00 00
 (1.8550)  can1  599FF71   [8]  1A E0 02 82 02 00 F0 D1
 (1.8560)  can1  89A0C02   [8]  00 00 00 00 99 17 00 00
 (1.8560)  can1  585FF72   [8]  03 80 60 09 60 09 F9 8A
 (1.8570)  can1  8030C02   [8]  00 00 2A 68 2A 68 92 17
 (1.8570)  can1  8580C02   [8]  00 00 01 00 00 00 00 00
 (1.8570)  can1  4100209   [8]  E9 35 13 00 00 00 00 00
 (1.8580)  can1  4100208   [8]  6F 10 13 00 00 00 00 00
 (1.8610)  can1  8100302   [5]  01 00 0A 00 18
 (1.8630)  can1  595FF71   [8]  05 80 60 09 60 09 F3 5D
 (1.8630)  can1  596FF71   [8]  00 80 FF FF FF FF FC CB
 (1.8660)  can1  586FF72   [8]  FF 7F FF FF FF FF FE 19
 (1.8670)  can1  587FF72   [8]  00 08 CA 0F FF FF F0 8C
 (1.8670)  can1  1948FF72   [8]  00 C0 00 55 FF FF 09 1C
 (1.8680)  can1  4100209   [8]  E9 35 13 00 00 00 00 00
 (1.8680)  can1  4100208   [8]  6F 10 13 00 00 00 00 00
 (1.8700)  can1  18101203   [4]  45 2D F9 06
 (1.8700)  can1  18800401   [8]  15 95 8D 79 8D 3A 8D 00
 (1.8710)  can1  18840401   [8]  15 AD 8D 91 8D 54 8D 00
 (1.8710)  can1  18C00401   [8]  15 F3 30 EB 2F BF 30 00
 (1.8720)  can1  8101201   [8]  E1 62 E0 8D 01 8A 59 00
 (1.8720)  can1  8010C01   [8]  61 62 00 00 00 00 00 00
 (1.8730)  can1  597FF71   [8]  09 08 E7 0F FF FF F0 CE
 (1.8740)  can1  598FF71   [8]  40 01 78 FF FF FF F0 CA
 (1.8760)  can1  89A0C02   [8]  00 00 00 00 00 00 00 00
 (1.8760)  can1  585FF72   [8]  03 80 60 09 60 09 FA 8A
 (1.8770)  can1  8030C02   [8]  00 00 2A 68 2A 68 92 17
 (1.8770)  can1  8580C02   [8]  00 00 00 00 00 00 00 00
 (1.8780)  can1  4100209   [8]  E9 35 13 00 00 00 00 00
 (1.8780)  can1  4100208   [8]  6F 10 13 00 00 00 00 00
 (1.8830)  can1  595FF71   [8]  05 80 60 09 60 09 F4 5D
 (1.8840)  can1  596FF71   [8]  00 80 FF FF FF FF FD CB
 (1.8860)  can1  8100302   [5]  01 00 0A 00 18
 (1.8860)  can1  528FF72   [8]  03 00 35 00 00 00 34 00
 (1.8870)  can1  529FF72   [8]  02 00 43 00 0A 00 03 00
 (1.8870)  can1  52AFF72   [8]  13 13 13 13 13 13 19 00
 (1.8880)  can1  4100209   [8]  E9 35 13 00 00 00 00 00
 (1.8890)  can1  52BFF72   [8]  11 16 11 13 00 FF 00 00
 (1.8890)  can1  52CFF72   [8]  00 00 EF FF EF FF 3A 00
 (1.8900)  can1  586FF72   [8]  FE 7F FF FF FF FF FF 4D
 (1.8900)  can1  4100208   [8]  6F 10 13 00 00 00 00 00
 (1.8930)  can1  528FF71   [8]  03 00 52 00 00 00 56 00
 (1.8930)  can1  529FF71   [8]  07 00 51 00 0C 00 05 00
 (1.8940)  can1  52AFF71   [8]  14 14 14 14 14 14 14 00
 (1.8950)  can1  52BFF71   [8]  10 14 10 14 00 FF 00 00
 (1.8950)  can1  52CFF71   [8]  00 00 EF FF EF FF 3A 00
 (1.8950)  can1  1948FF71   [8]  00 C0 00 55 FF FF 09 1C
 (1.8960)  can1  5807202   [8]  03 80 00 00 E0 01 09 BF
 (1.8960)  can1  5817202   [8]  01 00 10 27 10 27 0C E3
 (1.8970)  can1  585FF72   [8]  03 80 60 09 60 09 FB 8A
 (1.8970)  can1  5907102   [8]  05 80 00 00 E0 01 09 68
 (1.8980)  can1  4100209   [8]  E9 35 13 00 00 00 00 00
 (1.8990)  can1  5827202   [8]  FA 00 00 00 00 00 09 D4
 (1.9000)  can1  5917102   [8]  01 00 10 27 10 27 0C E3
 (1.9000)  can1  4100208   [8]  6F 10 13 00 00 00 00 00
 (1.9010)  can1  5837202   [8]  2C 41 06 00 00 00 09 E0
 (1.9010)  can1  5927102   [8]  FA 00 00 00 00 00 09 D4
 (1.9020)  can1  5937102   [8]  2C 41 06 00 00 00 09 E0
 (1.9020)  can1  5847270   [8]  00 00 00 00 00 00 09 9F
 (1.9020)  can1  5947102   [8]  00 00 00 00 00 00 09 9F
 (1.9020)  can1  89A0C02   [8]  00 00 00 00 00 00 00 00
 (1.9020)  can1  8030C02   [8]  00 00 2A 68 2A 68 92 17
 (1.9030)  can1  8580C02   [8]  00 00 FF FF 00 00 00 00
 (1.9030)  can1  595FF71   [8]  05 80 60 09 60 09 F5 5D
 (1.9040)  can1  596FF71   [8]  FF 7F FF FF FF FF FE 19
 (1.9060)  can1  586FF72   [8]  01 80 FF FF FF FF F0 9F
 (1.9060)  can1  588FF72   [8]  90 01 55 FF FF FF F1 B6
 (1.9070)  can1  589FF72   [8]  1A D0 02 81 02 00 F1 87
 (1.9080)  can1  4100209   [8]  E9 35 13 00 00 00 00 00
 (1.9080)  can1  4100208   [8]  6F 10 13 00 00 00 00 00
 (1.9110)  can1  8100302   [5]  01 00 0A 00 18
 (1.9130)  can1  1949FF71   [8]  0D 80 00 0D 90 00 0A 34
 (1.9140)  can1  194AFF71   [8]  32 67 58 88 65 58 0B 41
 (1.9140)  can1  194BFF71   [8]  91 F5 FF FF FF FF 0C 8E
 (1.9140)  can1  194CFF71   [8]  FF FF FF FF FF FF 0D 07
 (1.9160)  can1  89A0C02   [8]  00 00 00 00 CC 0B 00 00
 (1.9160)  can1  585FF72   [8]  03 80 60 09 60 09 FC 8A
 (1.9170)  can1  8030C02   [8]  00 00 2A 68 2A 68 92 17
 (1.9170)  can1  8580C02   [8]  00 00 00 00 00 00 00 00
 (1.9180)  can1  4100209   [8]  E9 35 13 00 00 00 00 00
 (1.9190)  can1  1949FF72   [8]  0D 80 00 0D 90 00 0A 34
 (1.9200)  can1  194AFF72   [8]  5E 67 58 7D 05 58 0B 02
 (1.9200)  can1  4100208   [8]  6F 10 13 00 00 00 00 00
 (1.9200)  can1  8041001   [8]  01 02 C0 32 04 AF 3B 00
 (1.9210)  can1  194BFF72   [8]  80 F5 FF FF FF FF 0C 7D
 (1.9210)  can1  194CFF72   [8]  FF FF FF FF FF FF 0D 07
 (1.9210)  can1  18800401   [8]  16 20 8D 56 8D 91 8D 00
 (1.9220)  can1  18840401   [8]  16 37 8D 78 8D A8 8D 00
 (1.9220)  can1  18C00401   [8]  16 D9 2F 6F 30 5F 2F 00
 (1.9230)  can1  595FF71   [8]  05 80 60 09 60 09 F6 5D
 (1.9230)  can1  596FF71   [8]  01 80 FF FF FF FF FF 9F
 (1.9260)  can1  586FF72   [8]  01 80 FF FF FF FF F1 9F
 (1.9270)  can1  4100209   [8]  E9 35 13 00 00 00 00 00
 (1.9280)  can1  4100208   [8]  6F 10 13 00 00 00 00 00
 (1.9360)  can1  8100302   [5]  01 00 0A 00 18
 (1.9360)  can1  585FF72   [8]  03 80 60 09 60 09 FD 8A
 (1.9370)  can1  8580C02   [8]  00 00 00 00 00 00 00 00
 (1.9380)  can1  89A0C02   [8]  CC 0B 00 00 CC 0B 00 00
 (1.9380)  can1  4100209   [8]  E9 35 13 00 00 00 00 00
 (1.9390)  can1  8030C02   [8]  00 00 2A 68 2A 68 92 17
 (1.9390)  can1  4100208   [8]  6F 10 13 00 00 00 00 00
 (1.9430)  can1  595FF71   [8]  05 80 60 09 60 09 F7 5D
 (1.9440)  can1  596FF71   [8]  01 80 FF FF FF FF F0 9F
 (1.9460)  can1  586FF72   [8]  FE 7F FF FF FF FF F2 4D
 (1.9470)  can1  4100209   [8]  E9 35 13 00 00 00 00 00
 (1.9480)  can1  4100208   [8]  6F 10 13 00 00 00 00 00
 (1.9530)  can1  599FF71   [8]  1A E0 02 82 02 00 F1 D1
 (1.9560)  can1  5807202   [8]  03 80 00 00 E0 01 0A BF
 (1.9570)  can1  5817202   [8]  01 00 10 27 10 27 0D E3
 (1.9570)  can1  585FF72   [8]  03 80 60 09 60 09 FE 8A
 (1.9580)  can1  5907102   [8]  05 80 00 00 E0 01 0A 68
 (1.9580)  can1  4100209   [8]  E9 35 13 00 00 00 00 00
 (1.9590)  can1  5827202   [8]  FA 00 00 00 00 00 0A D4
 (1.9600)  can1  5917102   [8]  01 00 10 27 10 27 0D E3
 (1.9600)  can1  4100208   [8]  6F 10 13 00 00 00 00 00
 (1.9610)  can1  5837202   [8]  2C 41 06 00 00 00 0A E0
 (1.9620)  can1  5927102   [8]  FA 00 00 00 00 00 0A D4
 (1.9620)  can1  5937102   [8]  2C 41 06 00 00 00 0A E0
 (1.9620)  can1  5847270   [8]  00 00 00 00 00 00 0A 9F
 (1.9630)  can1  5947102   [8]  00 00 00 00 00 00 0A 9F
 (1.9630)  can1  89A0C02   [8]  CC 0B 00 00 00 00 00 00
 (1.9640)  can1  8030C02   [8]  00 00 2A 68 2A 68 92 17
 (1.9640)  can1  8580C02   [8]  00 00 FF FF 00 00 00 00
 (1.9640)  can1  8100302   [5]  01 00 0A 00 18
 (1.9640)  can1  595FF71   [8]  05 80 60 09 60 09 F8 5D
 (1.9650)  can1  596FF71   [8]  00 80 FF FF FF FF F1 CB
 (1.9660)  can1  586FF72   [8]  FC 7F FF FF FF FF F3 E5
 (1.9660)  can1  587FF72   [8]  FF 07 CA 0F FF FF F1 25
 (1.9670)  can1  4100209   [8]  E9 35 13 00 00 00 00 00
 (1.9680)  can1  4100208   [8]  6F 10 13 00 00 00 00 00
 (1.9700)  can1  18800401   [8]  17 80 8D 00 00 00 00 00
 (1.9710)  can1  18840401   [8]  17 95 8D 00 00 00 00 00
 (1.9710)  can1  18C00401   [8]  17 A3 2F 10 27 10 27 00
 (1.9720)  can1  8101201   [8]  DF 62 E1 8D 01 8A 56 00
 (1.9730)  can1  8010C01   [8]  61 62 00 00 00 00 00 00
 (1.9730)  can1  597FF71   [8]  0D 08 E7 0F FF FF F1 B1
 (1.9740)  can1  598FF71   [8]  40 01 78 FF FF FF F1 CA
 (1.9760)  can1  89A0C02   [8]  00 00 00 00 00 00 00 00
 (1.9770)  can1  585FF72   [8]  03 80 60 09 60 09 FF 8A
 (1.9770)  can1  8030C02   [8]  00 00 2A 68 2A 68 92 17
 (1.9780)  can1  8580C02   [8]  00 00 FE FF 00 00 00 00
 (1.9780)  can1  4100209   [8]  E9 35 13 00 00 00 00 00
 (1.9790)  can1  4100208   [8]  6F 10 13 00 00 00 00 00
 (1.9830)  can1  595FF71   [8]  05 80 60 09 60 09 F9 5D
 (1.9830)  can1  596FF71   [8]  00 80 FF FF FF FF F2 CB
 (1.9860)  can1  8100302   [5]  01 00 0A 00 18
 (1.9860)  can1  586FF72   [8]  FF 7F FF FF FF FF F4 19
 (1.9870)  can1  4100209   [8]  E9 35 13 00 00 00 00 00
 (1.9880)  can1  4100208   [8]  6F 10 13 00 00 00 00 00
 (1.9960)  can1  89A0C02   [8]  00 00 00 00 00 00 00 00
 (1.9970)  can1  585FF72   [8]  03 80 60 09 60 09 F0 8A
 (1.9980)  can1  8030C02   [8]  00 00 2A 68 2A 68 92 17
 (1.9980)  can1  8580C02   [8]  00 00 00 00 00 00 00 00
 (1.9980)  can1  4100209   [8]  E9 35 13 00 00 00 00 00
 (1.9990)  can1  4100208   [8]  6F 10 13 00 00 00 00 00
 (2.0030)  can1  595FF71   [8]  05 80 60 09 60 09 FA 5D
 (2.0030)  can1  596FF71   [8]  FE 7F FF FF FF FF F3 4D
 (2.0060)  can1  586FF72   [8]  FF 7F FF FF FF FF F5 19
 (2.0060)  can1  588FF72   [8]  90 01 55 FF FF FF F2 B6
 (2.0070)  can1  589FF72   [8]  1A D0 02 81 02 00 F2 87
 (2.0070)  can1  4100209   [8]  E9 35 13 00 00 00 00 00
 (2.0080)  can1  4100208   [8]  6F 10 13 00 00 00 00 00
 (2.0110)  can1  8100302   [5]  01 00 0A 00 18
 (2.0160)  can1  5807202   [8]  03 80 00 00 E0 01 0B BF
 (2.0170)  can1  5817202   [8]  01 00 10 27 10 27 0E E3
 (2.0180)  can1  585FF72   [8]  03 80 60 09 60 09 F1 8A
 (2.0180)  can1  5907102   [8]  05 80 00 00 E0 01 0B 68
 (2.0190)  can1  4100209   [8]  E9 35 13 00 00 00 00 00
 (2.0190)  can1  5827202   [8]  FA 00 00 00 00 00 0B D4
 (2.0200)  can1  5917102   [8]  01 00 10 27 10 27 0E E3
 (2.0200)  can1  4100208   [8]  6F 10 13 00 00 00 00 00
 (2.0210)  can1  5837202   [8]  2C 41 06 00 00 00 0B E0
 (2.0220)  can1  5927102   [8]  FA 00 00 00 00 00 0B D4
 (2.0220)  can1  8041001   [8]  01 02 C0 32 04 AF 3B 00
 (2.0220)  can1  5847270   [8]  00 00 00 00 00 00 0B 9F
 (2.0230)  can1  5937102   [8]  2C 41 06 00 00 00 0B E0
 (2.0230)  can1  5947102   [8]  00 00 00 00 00 00 0B 9F
 (2.0240)  can1  8580C02   [8]  FF FF 00 00 00 00 00 00
 (2.0240)  can1  89A0C02   [8]  00 00 00 00 00 00 00 00
 (2.0240)  can1  18800401   [8]  00 DD 8D F7 8C D2 8C 00
 (2.0250)  can1  18840401   [8]  00 F6 8D 0E 8D C4 8C 00
 (2.0250)  can1  8030C02   [8]  00 00 2A 68 2A 68 92 17
 (2.0250)  can1  18C00401   [8]  00 39 30 34 2F CA 30 00
 (2.0250)  can1  595FF71   [8]  05 80 60 09 60 09 FB 5D
 (2.0260)  can1  596FF71   [8]  FE 7F FF FF FF FF F4 4D
 (2.0260)  can1  586FF72   [8]  00 80 FF FF FF FF F6 CB
 (2.0270)  can1  4100209   [8]  E9 35 13 00 00 00 00 00
 (2.0280)  can1  4100208   [8]  6F 10 13 00 00 00 00 00
 (2.0360)  can1  8100302   [5]  01 00 0A 00 18
 (2.0360)  can1  585FF72   [8]  03 80 60 09 60 09 F2 8A
 (2.0370)  can1  8580C02   [8]  FF FF 00 00 00 00 00 00
 (2.0380)  can1  89A0C02   [8]  00 00 00 00 00 00 00 00
 (2.0390)  can1  4100209   [8]  E9 35 13 00 00 00 00 00
 (2.0390)  can1  8030C02   [8]  00 00 2A 68 2A 68 92 17
 (2.0390)  can1  4100208   [8]  6F 10 13 00 00 00 00 00
 (2.0430)  can1  595FF71   [8]  05 80 60 09 60 09 FC 5D
 (2.0430)  can1  596FF71   [8]  FF 7F FF FF FF FF F5 19
 (2.0460)  can1  586FF72   [8]  00 80 FF FF FF FF F7 CB
 (2.0470)  can1  4100209   [8]  E9 35 13 00 00 00 00 00
 (2.0480)  can1  4100208   [8]  6F 10 13 00 00 00 00 00
 (2.0530)  can1  599FF71   [8]  1A E0 02 82 02 00 F2 D1
 (2.0560)  can1  89A0C02   [8]  00 00 00 00 00 00 00 00
 (2.0560)  can1  585FF72   [8]  03 80 60 09 60 09 F3 8A
 (2.0570)  can1  8030C02   [8]  00 00 2A 68 2A 68 92 17
 (2.0570)  can1  8580C02   [8]  00 00 00 00 00 00 00 00
 (2.0570)  can1  4100209   [8]  E9 35 13 00 00 00 00 00
 (2.0580)  can1  4100208   [8]  6F 10 13 00 00 00 00 00
 (2.0610)  can1  8100302   [5]  01 00 0A 00 18
 (2.0630)  can1  595FF71   [8]  05 80 60 09 60 09 FD 5D
 (2.0630)  can1  596FF71   [8]  03 80 FF FF FF FF F6 37
 (2.0660)  can1  586FF72   [8]  FD 7F FF FF FF FF F8 B1
 (2.0660)  can1  587FF72   [8]  02 08 CA 0F FF FF F2 24
 (2.0670)  can1  4100209   [8]  E9 35 13 00 00 00 00 00
 (2.0680)  can1  4100208   [8]  6F 10 13 00 00 00 00 00
 (2.0700)  can1  18800401   [8]  01 DC 8C 1B 8D 0D 8D 00
 (2.0710)  can1  18840401   [8]  01 F1 8C 2E 8D 25 8D 00
 (2.0710)  can1  18C00401   [8]  01 13 30 02 31 57 30 00
 (2.0730)  can1  597FF71   [8]  06 08 E4 0F FF FF F2 43
 (2.0730)  can1  598FF71   [8]  40 01 78 FF FF FF F2 CA
 (2.0740)  can1  8010C01   [8]  64 62 00 00 00 00 00 00
 (2.0740)  can1  8101201   [8]  E0 62 DD 8D FF 89 57 00
 (2.0760)  can1  5807202   [8]  03 80 00 00 E0 01 0C BF
 (2.0770)  can1  5817202   [8]  01 00 10 27 10 27 0F E3
 (2.0780)  can1  585FF72   [8]  03 80 60 09 60 09 F4 8A
 (2.0780)  can1  5907102   [8]  05 80 00 00 E0 01 0C 68
 (2.0790)  can1  4100209   [8]  E9 35 13 00 00 00 00 00
 (2.0790)  can1  5827202   [8]  FA 00 00 00 00 00 0C D4
 (2.0800)  can1  5917102   [8]  01 00 10 27 10 27 0F E3
 (2.0800)  can1  4100208   [8]  6F 10 13 00 00 00 00 00
 (2.0810)  can1  5837202   [8]  2C 41 06 00 00 00 0C E0
 (2.0810)  can1  5927102   [8]  FA 00 00 00 00 00 0C D4
 (2.0820)  can1  5937102   [8]  2C 41 06 00 00 00 0C E0
 (2.0820)  can1  5847270   [8]  00 00 00 00 00 00 0C 9F
 (2.0820)  can1  5947102   [8]  00 00 00 00 00 00 0C 9F
 (2.0830)  can1  89A0C02   [8]  66 23 00 00 00 00 00 00
 (2.0830)  can1  8030C02   [8]  00 00 2A 68 2A 68 92 17
 (2.0840)  can1  8580C02   [8]  02 00 FE FF 00 00 00 00
 (2.0840)  can1  595FF71   [8]  05 80 60 09 60 09 FE 5D
 (2.0840)  can1  596FF71   [8]  00 80 FF FF FF FF F7 CB
 (2.0860)  can1  8100302   [5]  01 00 0A 00 18
 (2.0860)  can1  586FF72   [8]  FF 7F FF FF FF FF F9 19
 (2.0870)  can1  4100209   [8]  E9 35 13 00 00 00 00 00
 (2.0880)  can1  4100208   [8]  6F 10 13 00 00 00 00 00
 (2.0960)  can1  89A0C02   [8]  00 00 00 00 00 00 00 00
 (2.0960)  can1  585FF72   [8]  03 80 60 09 60 09 F5 8A
 (2.0970)  can1  8030C02   [8]  00 00 2A 68 2A 68 92 17
 (2.0970)  can1  8580C02   [8]  00 00 00 00 00 00 00 00
 (2.0970)  can1  4100209   [8]  E9 35 13 00 00 00 00 00
 (2.0980)  can1  4100208   [8]  6F 10 13 00 00 00 00 00
 (2.1030)  can1  595FF71   [8]  05 80 60 09 60 09 FF 5D
 (2.1040)  can1  596FF71   [8]  01 80 FF FF FF FF F8 9F
 (2.1060)  can1  586FF72   [8]  00 80 FF FF FF FF FA CB
 (2.1060)  can1  588FF72   [8]  90 01 55 FF FF FF F3 B6
 (2.1070)  can1  589FF72   [8]  1A D0 02 81 02 00 F3 87
 (2.1070)  can1  4100209   [8]  E9 35 13 00 00 00 00 00
 (2.1080)  can1  4100208   [8]  6F 10 13 00 00 00 00 00
 (2.1110)  can1  8100302   [5]  01 00 0A 00 18
 (2.1160)  can1  89A0C02   [8]  CC 0B 00 00 00 00 00 00
 (2.1160)  can1  585FF72   [8]  03 80 60 09 60 09 F6 8A
 (2.1170)  can1  8030C02   [8]  00 00 2A 68 2A 68 92 17
 (2.1170)  can1  8580C02   [8]  00 00 00 00 00 00 00 00
 (2.1170)  can1  4100209   [8]  E9 35 13 00 00 00 00 00
 (2.1180)  can1  4100208   [8]  6F 10 13 00 00 00 00 00
 (2.1190)  can1  8041001   [8]  01 02 C0 32 04 AF 3B 00
 (2.1200)  can1  18800401   [8]  02 27 8D 94 8D 77 8D 00
 (2.1210)  can1  18840401   [8]  02 3B 8D AB 8D 8E 8D 00
 (2.1210)  can1  18C00401   [8]  02 DD 30 4B 30 B6 30 00
 (2.1220)  can1  1948FF72   [8]  00 C0 00 55 FF FF 0E 21
 (2.1230)  can1  595FF71   [8]  05 80 60 09 60 09 F0 5D
 (2.1230)  can1  596FF71   [8]  00 80 FF FF FF FF F9 CB
 (2.1260)  can1  586FF72   [8]  00 80 FF FF FF FF FB CB
 (2.1270)  can1  4100209   [8]  E9 35 13 00 00 00 00 00
 (2.1280)  can1  4100208   [8]  6F 10 13 00 00 00 00 00
 (2.1360)  can1  585FF72   [8]  03 80 60 09 60 09 F7 8A
 (2.1360)  can1  5807202   [8]  03 80 00 00 E0 01 0D BF
 (2.1360)  can1  5817202   [8]  01 00 10 27 10 27 00 E3
 (2.1370)  can1  5907102   [8]  05 80 00 00 E0 01 0D 68
 (2.1380)  can1  4100209   [8]  E9 35 13 00 00 00 00 00
 (2.1390)  can1  5827202   [8]  FA 00 00 00 00 00 0D D4
 (2.1400)  can1  5917102   [8]  01 00 10 27 10 27 00 E3
 (2.1400)  can1  5927102   [8]  FA 00 00 00 00 00 0D D4
 (2.1400)  can1  4100208   [8]  6F 10 13 00 00 00 00 00
 (2.1400)  can1  5837202   [8]  2C 41 06 00 00 00 0D E0
 (2.1410)  can1  5937102   [8]  2C 41 06 00 00 00 0D E0
 (2.1410)  can1  5847270   [8]  00 00 00 00 00 00 0D 9F
 (2.1420)  can1  5947102   [8]  00 00 00 00 00 00 0D 9F
 (2.1420)  can1  8100302   [5]  01 00 0A 00 18
 (2.1420)  can1  8580C02   [8]  00 00 00 00 00 00 00 00
 (2.1420)  can1  89A0C02   [8]  00 00 00 00 00 00 00 00
 (2.1430)  can1  8030C02   [8]  00 00 2A 68 2A 68 92 17
 (2.1440)  can1  595FF71   [8]  05 80 60 09 60 09 F1 5D
 (2.1440)  can1  596FF71   [8]  FF 7F FF FF FF FF FA 19
 (2.1460)  can1  586FF72   [8]  00 80 FF FF FF FF FC CB
 (2.1470)  can1  4100209   [8]  E9 35 13 00 00 00 00 00
 (2.1480)  can1  4100208   [8]  6F 10 13 00 00 00 00 00
 (2.1480)  can1  1948FF71   [8]  00 C0 00 55 FF FF 0E 21
 (2.1530)  can1  599FF71   [8]  1A E0 02 82 02 00 F3 D1
 (2.1560)  can1  89A0C02   [8]  00 00 00 00 00 00 00 00
 (2.1560)  can1  585FF72   [8]  03 80 60 09 60 09 F8 8A
 (2.1570)  can1  8030C02   [8]  00 00 2A 68 2A 68 92 17
 (2.1570)  can1  8580C02   [8]  00 00 00 00 00 00 00 00
 (2.1580)  can1  4100209   [8]  E9 35 13 00 00 00 00 00
 (2.1580)  can1  4100208   [8]  6F 10 13 00 00 00 00 00
 (2.1610)  can1  8100302   [5]  01 00 0A 00 18
 (2.1630)  can1  595FF71   [8]  05 80 60 09 60 09 F2 5D
 (2.1640)  can1  596FF71   [8]  FF 7F FF FF FF FF FB 19
 (2.1660)  can1  586FF72   [8]  00 80 FF FF FF FF FD CB
 (2.1660)  can1  587FF72   [8]  01 08 CA 0F FF FF F3 D8
 (2.1670)  can1  4100209   [8]  E9 35 13 00 00 00 00 00
 (2.1680)  can1  4100208   [8]  6F 10 13 00 00 00 00 00
 (2.1680)  can1  1949FF71   [8]  0D 80 00 0D 90 00 0F 39
 (2.1690)  can1  194AFF71   [8]  34 67 58 86 65 58 10 46
 (2.1690)  can1  194BFF71   [8]  94 F5 FF FF FF FF 11 96
 (2.1700)  can1  194CFF71   [8]  FF FF FF FF FF FF 12 0C
 (2.1700)  can1  18800401   [8]  03 48 8D 2E 8D 5F 8D 00
 (2.1710)  can1  18840401   [8]  03 5E 8D 44 8D 76 8D 00
 (2.1710)  can1  18C00401   [8]  03 3E 30 77 30 ED 2F 00
 (2.1720)  can1  1949FF72   [8]  0D 80 00 0D C0 00 0F 69
 (2.1730)  can1  194AFF72   [8]  5F A7 57 77 75 57 10 B0
 (2.1730)  can1  194BFF72   [8]  77 F5 FF FF FF FF 11 79
 (2.1740)  can1  194CFF72   [8]  FF FF FF FF FF FF 12 0C
 (2.1740)  can1  597FF71   [8]  0A 08 E7 0F FF FF F3 32
 (2.1740)  can1  598FF71   [8]  40 01 78 FF FF FF F3 CA
 (2.1750)  can1  8101201   [8]  E3 62 E0 8D FF 89 4A 00
 (2.1760)  can1  8010C01   [8]  60 62 00 00 00 00 00 00
 (2.1760)  can1  585FF72   [8]  03 80 60 09 60 09 F9 8A
 (2.1760)  can1  8030C02   [8]  00 00 2A 68 2A 68 92 17
 (2.1770)  can1  8580C02   [8]  00 00 00 00 00 00 00 00
 (2.1770)  can1  89A0C02   [8]  00 00 00 00 00 00 00 00
 (2.1780)  can1  4100209   [8]  E9 35 13 00 00 00 00 00
 (2.1780)  can1  4100208   [8]  6F 10 13 00 00 00 00 00
 (2.1830)  can1  595FF71   [8]  05 80 60 09 60 09 F3 5D
 (2.1830)  can1  596FF71   [8]  00 80 FF FF FF FF FC CB
 (2.1860)  can1  586FF72   [8]  02 80 FF FF FF FF FE 63
 (2.1870)  can1  8100302   [5]  01 00 0A 00 18
 (2.1870)  can1  4100209   [8]  E9 35 13 00 00 00 00 00
 (2.1880)  can1  4100208   [8]  6F 10 13 00 00 00 00 00
 (2.1960)  can1  585FF72   [8]  03 80 60 09 60 09 FA 8A
 (2.1970)  can1  5807202   [8]  03 80 00 00 E0 01 0E BF
 (2.1970)  can1  5817202   [8]  01 00 10 27 10 27 01 E3
 (2.1980)  can1  5907102   [8]  05 80 00 00 E0 01 0E 68
 (2.1980)  can1  4100209   [8]  E9 35 13 00 00 00 00 00
 (2.1990)  can1  5827202   [8]  FA 00 00 00 00 00 0E D4
 (2.2000)  can1  5917102   [8]  01 00 10 27 10 27 01 E3
 (2.2000)  can1  5927102   [8]  FA 00 00 00 00 00 0E D4
 (2.2010)  can1  4100208   [8]  6F 10 13 00 00 00 00 00
 (2.2010)  can1  5837202   [8]  2C 41 06 00 00 00 0E E0
 (2.2020)  can1  5937102   [8]  2C 41 06 00 00 00 0E E0
 (2.2020)  can1  5847270   [8]  00 00 00 00 00 00 0E 9F
 (2.2020)  can1  5947102   [8]  00 00 00 00 00 00 0E 9F
 (2.2030)  can1  89A0C02   [8]  00 00 00 00 99 17 00 00
 (2.2030)  can1  8030C02   [8]  00 00 2A 68 2A 68 92 17
 (2.2040)  can1  8580C02   [8]  00 00 01 00 00 00 00 00
 (2.2040)  can1  595FF71   [8]  05 80 60 09 60 09 F4 5D
 (2.2040)  can1  596FF71   [8]  00 80 FF FF FF FF FD CB
 (2.2060)  can1  586FF72   [8]  FD 7F FF FF FF FF FF B1
 (2.2060)  can1  588FF72   [8]  90 01 55 FF FF FF F4 B6
 (2.2070)  can1  589FF72   [8]  1A D0 02 81 02 00 F4 87
 (2.2070)  can1  4100209   [8]  E9 35 13 00 00 00 00 00
 (2.2080)  can1  4100208   [8]  6F 10 13 00 00 00 00 00
 (2.2110)  can1  8100302   [5]  01 00 0A 00 18
 (2.2160)  can1  585FF72   [8]  03 80 60 09 60 09 FB 8A
 (2.2170)  can1  8030C02   [8]  00 00 2A 68 2A 68 92 17
 (2.2170)  can1  8580C02   [8]  00 00 FE FF 00 00 00 00
 (2.2180)  can1  89A0C02   [8]  00 00 00 00 00 00 00 00
 (2.2180)  can1  4100209   [8]  E9 35 13 00 00 00 00 00
 (2.2190)  can1  4100208   [8]  6F 10 13 00 00 00 00 00
 (2.2190)  can1  8041001   [8]  01 02 C0 32 04 AF 3B 00
 (2.2200)  can1  18800401   [8]  04 7C 8D 69 8D E6 89 00
 (2.2210)  can1  18840401   [8]  04 94 8D 81 8D FF 89 00
 (2.2210)  can1  18C00401   [8]  04 90 2F 33 2F 3D 30 00
 (2.2230)  can1  595FF71   [8]  05 80 60 09 60 09 F5 5D
 (2.2230)  can1  596FF71   [8]  FF 7F FF FF FF FF FE 19
 (2.2260)  can1  586FF72   [8]  FD 7F FF FF FF FF F0 B1
 (2.2270)  can1  4100209   [8]  E9 35 13 00 00 00 00 00
 (2.2280)  can1  4100208   [8]  6F 10 13 00 00 00 00 00
 (2.2360)  can1  585FF72   [8]  03 80 60 09 60 09 FC 8A
 (2.2370)  can1  8100302   [5]  01 00 0A 00 18
 (2.2380)  can1  8580C02   [8]  00 00 FE FF 00 00 00 00
 (2.2390)  can1  89A0C02   [8]  00 00 00 00 00 00 00 00
 (2.2390)  can1  4100209   [8]  E9 35 13 00 00 00 00 00
 (2.2400)  can1  8030C02   [8]  00 00 2A 68 2A 68 92 17
 (2.2400)  can1  4100208   [8]  6F 10 13 00 00 00 00 00
 (2.2430)  can1  595FF71   [8]  05 80 60 09 60 09 F6 5D
 (2.2430)  can1  596FF71   [8]  01 80 FF FF FF FF FF 9F
 (2.2460)  can1  586FF72   [8]  00 80 FF FF FF FF F1 CB
 (2.2470)  can1  4100209   [8]  E9 35 13 00 00 00 00 00
 (2.2480)  can1  4100208   [8]  6F 10 13 00 00 00 00 00
 (2.2530)  can1  599FF71   [8]  1A E0 02 82 02 00 F4 D1
 (2.2560)  can1  585FF72   [8]  03 80 60 09 60 09 FD 8A
 (2.2570)  can1  5807202   [8]  03 80 00 00 E0 01 0F BF
 (2.2580)  can1  5817202   [8]  01 00 10 27 10 27 02 E3
 (2.2590)  can1  5907102   [8]  05 80 00 00 E0 01 0F 68
 (2.2590)  can1  4100209   [8]  E9 35 13 00 00 00 00 00
 (2.2600)  can1  5827202   [8]  FA 00 00 00 00 00 0F D4
 (2.2610)  can1  5917102   [8]  01 00 10 27 10 27 02 E3
 (2.2620)  can1  4100208   [8]  6F 10 13 00 00 00 00 00
 (2.2620)  can1  5837202   [8]  2C 41 06 00 00 00 0F E0
 (2.2630)  can1  5927102   [8]  FA 00 00 00 00 00 0F D4
 (2.2640)  can1  5937102   [8]  2C 41 06 00 00 00 0F E0
 (2.2640)  can1  5847270   [8]  00 00 00 00 00 00 0F 9F
 (2.2650)  can1  5947102   [8]  00 00 00 00 00 00 0F 9F
 (2.2650)  can1  89A0C02   [8]  CC 0B 00 00 00 00 00 00
 (2.2660)  can1  8030C02   [8]  00 00 2A 68 2A 68 92 17
 (2.2670)  can1  8580C02   [8]  00 00 00 00 00 00 00 00
 (2.2670)  can1  8100302   [5]  01 00 0A 00 18
 (2.2680)  can1  595FF71   [8]  05 80 60 09 60 09 F7 5D
 (2.2690)  can1  596FF71   [8]  FF 7F FF FF FF FF F0 19
 (2.2690)  can1  586FF72   [8]  FE 7F FF FF FF FF F2 4D
 (2.2700)  can1  587FF72   [8]  00 08 CD 0F FF FF F4 F6
 (2.2700)  can1  4100209   [8]  E9 35 13 00 00 00 00 00
 (2.2710)  can1  4100208   [8]  6F 10 13 00 00 00 00 00
 (2.2720)  can1  18800401   [8]  05 59 8D 20 8D 42 8D 00
 (2.2720)  can1  18840401   [8]  05 71 8D 41 8D 5B 8D 00
 (2.2730)  can1  18C00401   [8]  05 9F 30 A8 30 2B 31 00
 (2.2730)  can1  597FF71   [8]  07 08 E7 0F FF FF F4 E7
 (2.2740)  can1  598FF71   [8]  40 01 78 FF FF FF F4 CA
 (2.2760)  can1  8101201   [8]  DC 62 DC 8D FF 89 54 00
 (2.2770)  can1  8010C01   [8]  62 62 00 00 00 00 00 00
 (2.2780)  can1  585FF72   [8]  03 80 60 09 60 09 FE 8A
 (2.2780)  can1  8030C02   [8]  00 00 2A 68 2A 68 92 17
 (2.2790)  can1  8580C02   [8]  00 00 FF FF 00 00 00 00
 (2.2790)  can1  4100209   [8]  E9 35 13 00 00 00 00 00
 (2.2800)  can1  89A0C02   [8]  00 00 00 00 00 00 00 00
 (2.2800)  can1  4100208   [8]  6F 10 13 00 00 00 00 00
 (2.2830)  can1  595FF71   [8]  05 80 60 09 60 09 F8 5D
 (2.2830)  can1  596FF71   [8]  02 80 FF FF FF FF F1 63
 (2.2860)  can1  586FF72   [8]  FF 7F FF FF FF FF F3 19
 (2.2860)  can1  8100302   [5]  01 00 0A 00 18
 (2.2870)  can1  4100209   [8]  E9 35 13 00 00 00 00 00
 (2.2880)  can1  4100208   [8]  6F 10 13 00 00 00 00 00
 (2.2960)  can1  585FF72   [8]  03 80 60 09 60 09 FF 8A
 (2.2970)  can1  8030C02   [8]  00 00 2A 68 2A 68 92 17
 (2.2980)  can1  8580C02   [8]  01 00 00 00 00 00 00 00
 (2.2980)  can1  89A0C02   [8]  99 17 00 00 00 00 00 00
 (2.2990)  can1  4100209   [8]  E9 35 13 00 00 00 00 00
 (2.2990)  can1  4100208   [8]  6F 10 13 00 00 00 00 00
 (2.3030)  can1  595FF71   [8]  05 80 60 09 60 09 F9 5D
 (2.3040)  can1  596FF71   [8]  FF 7F FF FF FF FF F2 19
 (2.3060)  can1  586FF72   [8]  FF 7F FF FF FF FF F4 19
 (2.3060)  can1  588FF72   [8]  90 01 55 FF FF FF F5 B6
 (2.3070)  can1  589FF72   [8]  1A D0 02 81 02 00 F5 87
 (2.3080)  can1  4100209   [8]  E9 35 13 00 00 00 00 00
 (2.3080)  can1  4100208   [8]  6F 10 13 00 00 00 00 00
 (2.3110)  can1  8100302   [5]  01 00 0A 00 18
 (2.3160)  can1  585FF72   [8]  03 80 60 09 60 09 F0 8A
 (2.3170)  can1  5807202   [8]  03 80 00 00 E0 01 00 BF
 (2.3180)  can1  5817202   [8]  01 00 10 27 10 27 03 E3
 (2.3190)  can1  5907102   [8]  05 80 00 00 E0 01 00 68
 (2.3190)  can1  4100209   [8]  E9 35 13 00 00 00 00 00
 (2.3200)  can1  5827202   [8]  FA 00 00 00 00 00 00 D4
 (2.3220)  can1  5917102   [8]  01 00 10 27 10 27 03 E3
 (2.3220)  can1  4100208   [8]  6F 10 13 00 00 00 00 00
 (2.3230)  can1  5837202   [8]  2C 41 06 00 00 00 00 E0
 (2.3230)  can1  5927102   [8]  FA 00 00 00 00 00 00 D4
 (2.3240)  can1  8041001   [8]  01 02 C0 32 04 AF 3B 00
 (2.3250)  can1  5847270   [8]  00 00 00 00 00 00 00 9F
 (2.3250)  can1  5937102   [8]  2C 41 06 00 00 00 00 E0
 (2.3260)  can1  5947102   [8]  00 00 00 00 00 00 00 9F
 (2.3260)  can1  8580C02   [8]  00 00 00 00 00 00 00 00
 (2.3270)  can1  89A0C02   [8]  00 00 00 00 00 00 00 00
 (2.3280)  can1  18800401   [8]  06 5D 8D 97 8D A5 8D 00
 (2.3280)  can1  18840401   [8]  06 78 8D B0 8D BB 8D 00
 (2.3290)  can1  8030C02   [8]  00 00 2A 68 2A 68 92 17
 (2.3290)  can1  18C00401   [8]  06 A1 30 65 31 9A 30 00
 (2.3300)  can1  595FF71   [8]  05 80 60 09 60 09 FA 5D
 (2.3300)  can1  596FF71   [8]  FE 7F FF FF FF FF F3 4D
 (2.3310)  can1  586FF72   [8]  00 80 FF FF FF FF F5 CB
 (2.3310)  can1  4100209   [8]  E9 35 13 00 00 00 00 00
 (2.3320)  can1  4100208   [8]  6F 10 13 00 00 00 00 00
 (2.3360)  can1  585FF72   [8]  03 80 60 09 60 09 F1 8A
 (2.3360)  can1  8100302   [5]  01 00 0A 00 18
 (2.3370)  can1  8580C02   [8]  FF FF 00 00 00 00 00 00
 (2.3380)  can1  89A0C02   [8]  00 00 00 00 00 00 00 00
 (2.3390)  can1  4100209   [8]  E9 35 13 00 00 00 00 00
 (2.3390)  can1  8030C02   [8]  00 00 2A 68 2A 68 92 17
 (2.3400)  can1  4100208   [8]  6F 10 13 00 00 00 00 00
 (2.3450)  can1  595FF71   [8]  05 80 60 09 60 09 FB 5D
 (2.3460)  can1  596FF71   [8]  01 80 FF FF FF FF F4 9F
 (2.3460)  can1  586FF72   [8]  FF 7F FF FF FF FF F6 19
 (2.3470)  can1  4100209   [8]  E9 35 13 00 00 00 00 00
 (2.3490)  can1  4100208   [8]  6F 10 13 00 00 00 00 00
 (2.3530)  can1  599FF71   [8]  1A E0 02 82 02 00 F5 D1
 (2.3560)  can1  585FF72   [8]  03 80 60 09 60 09 F2 8A
 (2.3560)  can1  8030C02   [8]  00 00 2A 68 2A 68 92 17
 (2.3570)  can1  8580C02   [8]  00 00 00 00 00 00 00 00
 (2.3580)  can1  89A0C02   [8]  CC 0B 00 00 00 00 00 00
 (2.3590)  can1  4100209   [8]  E9 35 13 00 00 00 00 00
 (2.3600)  can1  4100208   [8]  6F 10 13 00 00 00 00 00
 (2.3620)  can1  8100302   [5]  01 00 0A 00 18
 (2.3630)  can1  595FF71   [8]  05 80 60 09 60 09 FC 5D
 (2.3630)  can1  596FF71   [8]  FD 7F FF FF FF FF F5 B1
 (2.3660)  can1  586FF72   [8]  00 80 FF FF FF FF F7 CB
 (2.3660)  can1  587FF72   [8]  03 08 CA 0F FF FF F5 70
 (2.3680)  can1  4100209   [8]  E9 35 13 00 00 00 00 00
 (2.3680)  can1  4100208   [8]  6F 10 13 00 00 00 00 00
 (2.3710)  can1  18101203   [4]  08 2D 9D 07
 (2.3710)  can1  18800401   [8]  07 A6 8D 8A 8D 4A 8D 00
 (2.3720)  can1  18840401   [8]  07 BD 8D A1 8D 61 8D 00
 (2.3720)  can1  18C00401   [8]  07 70 31 84 30 67 31 00
 (2.3730)  can1  597FF71   [8]  09 08 E7 0F FF FF F5 CE
 (2.3740)  can1  598FF71   [8]  40 01 78 FF FF FF F5 CA
 (2.3760)  can1  585FF72   [8]  03 80 60 09 60 09 F3 8A
 (2.3770)  can1  5807202   [8]  03 80 00 00 E0 01 01 BF
 (2.3780)  can1  5817202   [8]  01 00 10 27 10 27 04 E3
 (2.3790)  can1  5907102   [8]  05 80 00 00 E0 01 01 68
 (2.3800)  can1  4100209   [8]  E9 35 13 00 00 00 00 00
 (2.3810)  can1  5827202   [8]  FA 00 00 00 00 00 01 D4
 (2.3820)  can1  5917102   [8]  01 00 10 27 10 27 04 E3
 (2.3820)  can1  4100208   [8]  6F 10 13 00 00 00 00 00
 (2.3830)  can1  5837202   [8]  2C 41 06 00 00 00 01 E0
 (2.3830)  can1  5927102   [8]  FA 00 00 00 00 00 01 D4
 (2.3840)  can1  8010C01   [8]  60 62 00 00 00 00 00 00
 (2.3850)  can1  5847270   [8]  00 00 00 00 00 00 01 9F
 (2.3850)  can1  5937102   [8]  2C 41 06 00 00 00 01 E0
 (2.3860)  can1  5947102   [8]  00 00 00 00 00 00 01 9F
 (2.3870)  can1  8101201   [8]  DC 62 E0 8D FF 89 57 00
 (2.3870)  can1  8580C02   [8]  FE FF 00 00 00 00 00 00
 (2.3880)  can1  89A0C02   [8]  00 00 00 00 00 00 00 00
 (2.3890)  can1  1948FF72   [8]  00 C0 00 55 FF FF 13 26
 (2.3890)  can1  8030C02   [8]  00 00 2A 68 2A 68 92 17
 (2.3900)  can1  595FF71   [8]  05 80 60 09 60 09 FD 5D
 (2.3910)  can1  596FF71   [8]  FE 7F FF FF FF FF F6 4D
 (2.3910)  can1  8100302   [5]  01 00 0A 00 18
 (2.3920)  can1  528FF72   [8]  03 00 35 00 00 00 34 00
 (2.3920)  can1  529FF72   [8]  02 00 43 00 0A 00 03 00
 (2.3930)  can1  52CFF72   [8]  00 00 EF FF EF FF 3A 00
 (2.3930)  can1  4100209   [8]  E9 35 13 00 00 00 00 00
 (2.3940)  can1  586FF72   [8]  FF 7F FF FF FF FF F8 19
 (2.3950)  can1  4100208   [8]  6F 10 13 00 00 00 00 00
 (2.3950)  can1  528FF71   [8]  FC FF 58 00 00 00 56 00
 (2.3960)  can1  529FF71   [8]  07 00 51 00 0C 00 05 00
 (2.3970)  can1  52CFF71   [8]  00 00 EF FF EF FF 3A 00
 (2.3970)  can1  89A0C02   [8]  00 00 00 00 00 00 00 00
 (2.3980)  can1  585FF72   [8]  03 80 60 09 60 09 F4 8A
 (2.3990)  can1  8030C02   [8]  00 00 2A 68 2A 68 92 17
 (2.3990)  can1  8580C02   [8]  FF FF 00 00 00 00 00 00
 (2.4000)  can1  4100209   [8]  E9 35 13 00 00 00 00 00
 (2.4000)  can1  4100208   [8]  6F 10 13 00 00 00 00 00
 (2.4030)  can1  595FF71   [8]  05 80 60 09 60 09 FE 5D
 (2.4030)  can1  596FF71   [8]  00 80 FF FF FF FF F7 CB
 (2.4040)  can1  1948FF71   [8]  00 C0 00 55 FF FF 13 26
 (2.4060)  can1  586FF72   [8]  FF 7F FF FF FF FF F9 19
 (2.4060)  can1  588FF72   [8]  90 01 55 FF FF FF F6 B6
 (2.4070)  can1  589FF72   [8]  1A D0 02 81 02 00 F6 87
 (2.4080)  can1  4100209   [8]  E9 35 13 00 00 00 00 00
 (2.4090)  can1  4100208   [8]  6F 10 13 00 00 00 00 00
 (2.4110)  can1  8100302   [5]  01 00 0A 00 18
 (2.4160)  can1  89A0C02   [8]  00 00 00 00 00 00 00 00
 (2.4170)  can1  585FF72   [8]  03 80 60 09 60 09 F5 8A
 (2.4180)  can1  8030C02   [8]  00 00 2A 68 2A 68 92 17
 (2.4180)  can1  8580C02   [8]  00 00 00 00 00 00 00 00
 (2.4190)  can1  4100209   [8]  E9 35 13 00 00 00 00 00
 (2.4190)  can1  4100208   [8]  6F 10 13 00 00 00 00 00
 (2.4200)  can1  8041001   [8]  01 02 C0 32 04 AF 3B 00
 (2.4210)  can1  18800401   [8]  08 31 8D 09 8A B6 8D 00
 (2.4220)  can1  18840401   [8]  08 49 8D 21 8A CE 8D 00
 (2.4230)  can1  18C00401   [8]  08 38 30 53 31 E9 2F 00
 (2.4250)  can1  595FF71   [8]  05 80 60 09 60 09 FF 5D
 (2.4250)  can1  596FF71   [8]  FE 7F FF FF FF FF F8 4D
 (2.4260)  can1  1949FF71   [8]  0D 80 00 0D A0 00 14 4E
 (2.4270)  can1  194AFF71   [8]  32 37 58 86 65 58 15 19
 (2.4270)  can1  194BFF71   [8]  88 F5 FF FF FF FF 16 8F
 (2.4280)  can1  194CFF71   [8]  FF FF FF FF FF FF 17 11
 (2.4280)  can1  586FF72   [8]  FF 7F FF FF FF FF FA 19
 (2.4290)  can1  1949FF72   [8]  0D 90 00 0C A0 00 14 5D
 (2.4300)  can1  194AFF72   [8]  5E 77 57 77 05 58 15 15
 (2.4300)  can1  194BFF72   [8]  77 F5 FF FF FF FF 16 7E
 (2.4310)  can1  4100209   [8]  E9 35 13 00 00 00 00 00
 (2.4310)  can1  194CFF72   [8]  FF FF FF FF FF FF 17 11
 (2.4320)  can1  4100208   [8]  6F 10 13 00 00 00 00 00
 (2.4360)  can1  585FF72   [8]  03 80 60 09 60 09 F6 8A
 (2.4370)  can1  5807202   [8]  03 80 00 00 E0 01 02 BF
 (2.4380)  can1  5817202   [8]  01 00 10 27 10 27 05 E3
 (2.4560)  can1  5907102   [8]  05 80 00 00 E0 01 02 68
 (2.4570)  can1  4100209   [8]  E9 35 13 00 00 00 00 00
 (2.4580)  can1  5827202   [8]  FA 00 00 00 00 00 02 D4
 (2.4590)  can1  5917102   [8]  01 00 10 27 10 27 05 E3
 (2.4590)  can1  4100208   [8]  6F 10 13 00 00 00 00 00
 (2.4600)  can1  5837202   [8]  2C 41 06 00 00 00 02 E0
 (2.4600)  can1  5927102   [8]  FA 00 00 00 00 00 02 D4
 (2.4610)  can1  5937102   [8]  2C 41 06 00 00 00 02 E0
 (2.4620)  can1  5847270   [8]  00 00 00 00 00 00 02 9F
 (2.4620)  can1  5947102   [8]  00 00 00 00 00 00 02 9F
 (2.4630)  can1  8100302   [5]  01 00 0A 00 18
 (2.4630)  can1  8580C02   [8]  FF FF 00 00 00 00 00 00
 (2.4640)  can1  89A0C02   [8]  00 00 00 00 00 00 00 00
 (2.4640)  can1  8030C02   [8]  00 00 2A 68 2A 68 92 17
 (2.4650)  can1  595FF71   [8]  05 80 60 09 60 09 F0 5D
 (2.4650)  can1  596FF71   [8]  01 80 FF FF FF FF F9 9F
 (2.4660)  can1  586FF72   [8]  00 80 FF FF FF FF FB CB
 (2.4670)  can1  4100209   [8]  E9 35 13 00 00 00 00 00
 (2.4680)  can1  4100208   [8]  6F 10 13 00 00 00 00 00
 (2.4680)  can1  599FF71   [8]  1A E0 02 82 02 00 F6 D1
 (2.4690)  can1  89A0C02   [8]  CC 0B 00 00 00 00 00 00
 (2.4690)  can1  585FF72   [8]  03 80 60 09 60 09 F7 8A
 (2.4700)  can1  8030C02   [8]  00 00 2A 68 2A 68 92 17
 (2.4710)  can1  8580C02   [8]  00 00 00 00 00 00 00 00
 (2.4710)  can1  4100209   [8]  E9 35 13 00 00 00 00 00
 (2.4720)  can1  4100208   [8]  6F 10 13 00 00 00 00 00
 (2.4720)  can1  8100302   [5]  01 00 0A 00 18
 (2.4730)  can1  595FF71   [8]  05 80 60 09 60 09 F1 5D
 (2.4730)  can1  596FF71   [8]  01 80 FF FF FF FF FA 9F
 (2.4740)  can1  586FF72   [8]  00 80 FF FF FF FF FC CB
 (2.4750)  can1  587FF72   [8]  03 08 CD 0F FF FF F6 0A
 (2.4750)  can1  4100209   [8]  E9 35 13 00 00 00 00 00
 (2.4760)  can1  4100208   [8]  6F 10 13 00 00 00 00 00
 (2.4770)  can1  18800401   [8]  09 A1 8D 72 8D 54 8D 00
 (2.4780)  can1  18840401   [8]  09 B9 8D 8A 8D 6C 8D 00
 (2.4790)  can1  18C00401   [8]  09 C6 30 AB 2F AC 30 00
 (2.4790)  can1  597FF71   [8]  07 08 E7 0F FF FF F6 E7
 (2.4800)  can1  598FF71   [8]  40 01 78 FF FF FF F6 CA
 (2.4800)  can1  89A0C02   [8]  CC 0B 00 00 00 00 00 00
 (2.4810)  can1  585FF72   [8]  03 80 60 09 60 09 F8 8A
 (2.4810)  can1  8030C02   [8]  00 00 2A 68 2A 68 92 17
 (2.4820)  can1  8580C02   [8]  00 00 00 00 00 00 00 00
 (2.4820)  can1  4100209   [8]  E9 35 13 00 00 00 00 00
 (2.4830)  can1  8101201   [8]  E1 62 DE 8D 01 8A 53 00
 (2.4840)  can1  8010C01   [8]  62 62 00 00 00 00 00 00
 (2.4840)  can1  4100208   [8]  6F 10 13 00 00 00 00 00
 (2.4850)  can1  595FF71   [8]  05 80 60 09 60 09 F2 5D
 (2.4850)  can1  596FF71   [8]  00 80 FF FF FF FF FB CB
 (2.4860)  can1  8100302   [5]  01 00 0A 00 18
 (2.4870)  can1  586FF72   [8]  FF 7F FF FF FF FF FD 19
 (2.4870)  can1  4100209   [8]  E9 35 13 00 00 00 00 00
 (2.4880)  can1  4100208   [8]  6F 10 13 00 00 00 00 00
 (2.4960)  can1  585FF72   [8]  03 80 60 09 60 09 F9 8A
 (2.4970)  can1  5807202   [8]  03 80 00 00 E0 01 03 BF
 (2.4980)  can1  5817202   [8]  01 00 10 27 10 27 06 E3
 (2.4990)  can1  5907102   [8]  05 80 00 00 E0 01 03 68
 (2.5000)  can1  4100209   [8]  E9 35 13 00 00 00 00 00
 (2.5010)  can1  5827202   [8]  FA 00 00 00 00 00 03 D4
 (2.5010)  can1  5917102   [8]  01 00 10 27 10 27 06 E3
 (2.5020)  can1  4100208   [8]  6F 10 13 00 00 00 00 00
 (2.5030)  can1  5837202   [8]  2C 41 06 00 00 00 03 E0
 (2.5030)  can1  5927102   [8]  FA 00 00 00 00 00 03 D4
 (2.5040)  can1  5937102   [8]  2C 41 06 00 00 00 03 E0
 (2.5050)  can1  5847270   [8]  00 00 00 00 00 00 03 9F
 (2.5050)  can1  5947102   [8]  00 00 00 00 00 00 03 9F
 (2.5060)  can1  89A0C02   [8]  00 00 00 00 00 00 00 00
 (2.5060)  can1  8030C02   [8]  00 00 2A 68 2A 68 92 17
 (2.5070)  can1  8580C02   [8]  00 00 00 00 00 00 00 00
 (2.5080)  can1  595FF71   [8]  05 80 60 09 60 09 F3 5D
 (2.5090)  can1  596FF71   [8]  00 80 FF FF FF FF FC CB
 (2.5090)  can1  586FF72   [8]  FE 7F FF FF FF FF FE 4D
 (2.5100)  can1  588FF72   [8]  90 01 55 FF FF FF F7 B6
 (2.5110)  can1  589FF72   [8]  1A D0 02 81 02 00 F7 87
 (2.5110)  can1  4100209   [8]  E9 35 13 00 00 00 00 00
 (2.5120)  can1  4100208   [8]  6F 10 13 00 00 00 00 00
 (2.5130)  can1  8100302   [5]  01 00 0A 00 18
 (2.5160)  can1  89A0C02   [8]  00 00 00 00 00 00 00 00
 (2.5160)  can1  585FF72   [8]  03 80 60 09 60 09 FA 8A
 (2.5170)  can1  8030C02   [8]  00 00 2A 68 2A 68 92 17
 (2.5180)  can1  8580C02   [8]  00 00 FF FF 00 00 00 00
 (2.5190)  can1  4100209   [8]  E9 35 13 00 00 00 00 00
 (2.5190)  can1  4100208   [8]  6F 10 13 00 00 00 00 00
 (2.5200)  can1  8041001   [8]  01 02 C0 32 04 AF 3B 00
 (2.5200)  can1  18800401   [8]  0A 04 8D 40 8D 66 8D 00
 (2.5210)  can1  18840401   [8]  0A 22 8D 59 8D 7F 8D 00
 (2.5220)  can1  18C00401   [8]  0A 8F 30 4E 31 CE 30 00
 (2.5230)  can1  595FF71   [8]  05 80 60 09 60 09 F4 5D
 (2.5230)  can1  596FF71   [8]  FF 7F FF FF FF FF FD 19
 (2.5260)  can1  586FF72   [8]  FF 7F FF FF FF FF FF 19
 (2.5270)  can1  4100209   [8]  E9 35 13 00 00 00 00 00
 (2.5280)  can1  4100208   [8]  6F 10 13 00 00 00 00 00
 (2.5360)  can1  8100302   [5]  01 00 0A 00 18
 (2.5370)  can1  585FF72   [8]  03 80 60 09 60 09 FB 8A
 (2.5370)  can1  8580C02   [8]  00 00 00 00 00 00 00 00
 (2.5380)  can1  89A0C02   [8]  00 00 00 00 00 00 00 00
 (2.5390)  can1  4100209   [8]  E9 35 13 00 00 00 00 00
 (2.5400)  can1  8030C02   [8]  00 00 2A 68 2A 68 92 17
 (2.5400)  can1  4100208   [8]  6F 10 13 00 00 00 00 00
 (2.5450)  can1  595FF71   [8]  05 80 60 09 60 09 F5 5D
 (2.5450)  can1  596FF71   [8]  FD 7F FF FF FF FF FE B1
 (2.5470)  can1  586FF72   [8]  FE 7F FF FF FF FF F0 4D
 (2.5470)  can1  4100209   [8]  E9 35 13 00 00 00 00 00
 (2.5490)  can1  4100208   [8]  6F 10 13 00 00 00 00 00
 (2.5550)  can1  599FF71   [8]  1A E0 02 82 02 00 F7 D1
 (2.5560)  can1  585FF72   [8]  03 80 60 09 60 09 FC 8A
 (2.5560)  can1  5807202   [8]  03 80 00 00 E0 01 04 BF
 (2.5570)  can1  5817202   [8]  01 00 10 27 10 27 07 E3
 (2.5580)  can1  5907102   [8]  05 80 00 00 E0 01 04 68
 (2.5590)  can1  4100209   [8]  E9 35 13 00 00 00 00 00
 (2.5600)  can1  5827202   [8]  FA 00 00 00 00 00 04 D4
 (2.5610)  can1  5917102   [8]  01 00 10 27 10 27 07 E3
 (2.5610)  can1  4100208   [8]  6F 10 13 00 00 00 00 00
 (2.5620)  can1  5837202   [8]  2C 41 06 00 00 00 04 E0
 (2.5620)  can1  5927102   [8]  FA 00 00 00 00 00 04 D4
 (2.5630)  can1  5937102   [8]  2C 41 06 00 00 00 04 E0
 (2.5630)  can1  5847270   [8]  00 00 00 00 00 00 04 9F
 (2.5640)  can1  5947102   [8]  00 00 00 00 00 00 04 9F
 (2.5650)  can1  89A0C02   [8]  00 00 00 00 00 00 00 00
 (2.5650)  can1  8030C02   [8]  00 00 2A 68 2A 68 92 17
 (2.5660)  can1  8580C02   [8]  FE FF FF FF 00 00 00 00
 (2.5670)  can1  8100302   [5]  01 00 0A 00 18
 (2.5670)  can1  595FF71   [8]  05 80 60 09 60 09 F6 5D
 (2.5680)  can1  596FF71   [8]  FE 7F FF FF FF FF FF 4D
 (2.5690)  can1  586FF72   [8]  FE 7F FF FF FF FF F1 4D
 (2.5700)  can1  587FF72   [8]  02 08 CA 0F FF FF F7 24
 (2.5700)  can1  4100209   [8]  E9 35 13 00 00 00 00 00
 (2.5710)  can1  4100208   [8]  6F 10 13 00 00 00 00 00
 (2.5720)  can1  18800401   [8]  0B 91 8D 8F 8D 9C 8D 00
 (2.5720)  can1  18840401   [8]  0B AA 8D A8 8D B6 8D 00
 (2.5730)  can1  18C00401   [8]  0B 89 31 D7 30 7E 31 00
 (2.5750)  can1  597FF71   [8]  02 08 E7 0F FF FF F7 CC
 (2.5750)  can1  598FF71   [8]  40 01 78 FF FF FF F7 CA
 (2.5770)  can1  89A0C02   [8]  00 00 00 00 00 00 00 00
 (2.5770)  can1  585FF72   [8]  03 80 60 09 60 09 FD 8A
 (2.5780)  can1  8030C02   [8]  00 00 2A 68 2A 68 92 17
 (2.5790)  can1  8580C02   [8]  FF FF FF FF 00 00 00 00
 (2.5800)  can1  4100209   [8]  E9 35 13 00 00 00 00 00
 (2.5800)  can1  4100208   [8]  6F 10 13 00 00 00 00 00
 (2.5810)  can1  8101201   [8]  E1 62 E0 8D 02 8A 67 00
 (2.5810)  can1  8010C01   [8]  5F 62 00 00 00 00 00 00
 (2.5830)  can1  595FF71   [8]  05 80 60 09 60 09 F7 5D
 (2.5830)  can1  596FF71   [8]  02 80 FF FF FF FF F0 63
 (2.5860)  can1  8100302   [5]  01 00 0A 00 18
 (2.5870)  can1  586FF72   [8]  01 80 FF FF FF FF F2 9F
 (2.5880)  can1  4100209   [8]  E9 35 13 00 00 00 00 00
 (2.5880)  can1  4100208   [8]  6F 10 13 00 00 00 00 00
 (2.5960)  can1  89A0C02   [8]  99 17 00 00 CC 0B 00 00
 (2.5960)  can1  585FF72   [8]  03 80 60 09 60 09 FE 8A
 (2.5970)  can1  8030C02   [8]  00 00 2A 68 2A 68 92 17
 (2.5980)  can1  8580C02   [8]  01 00 00 00 00 00 00 00
 (2.5990)  can1  4100209   [8]  E9 35 13 00 00 00 00 00
 (2.5990)  can1  4100208   [8]  6F 10 13 00 00 00 00 00
 (2.6030)  can1  595FF71   [8]  05 80 60 09 60 09 F8 5D
 (2.6040)  can1  596FF71   [8]  01 80 FF FF FF FF F1 9F
 (2.6060)  can1  586FF72   [8]  02 80 FF FF FF FF F3 63
 (2.6060)  can1  588FF72   [8]  90 01 55 FF FF FF F8 B6
 (2.6070)  can1  589FF72   [8]  1A D0 02 81 02 00 F8 87
 (2.6080)  can1  4100209   [8]  E9 35 13 00 00 00 00 00
 (2.6090)  can1  4100208   [8]  6F 10 13 00 00 00 00 00
 (2.6110)  can1  8100302   [5]  01 00 0A 00 18
 (2.6160)  can1  585FF72   [8]  03 80 60 09 60 09 FF 8A
 (2.6160)  can1  5807202   [8]  03 80 00 00 E0 01 05 BF
 (2.6170)  can1  5817202   [8]  01 00 10 27 10 27 08 E3
 (2.6180)  can1  5907102   [8]  05 80 00 00 E0 01 05 68
 (2.6190)  can1  4100209   [8]  E9 35 13 00 00 00 00 00
 (2.6200)  can1  5827202   [8]  FA 00 00 00 00 00 05 D4
 (2.6210)  can1  5917102   [8]  01 00 10 27 10 27 08 E3
 (2.6220)  can1  4100208   [8]  6F 10 13 00 00 00 00 00
 (2.6230)  can1  5837202   [8]  2C 41 06 00 00 00 05 E0
 (2.6240)  can1  5927102   [8]  FA 00 00 00 00 00 05 D4
 (2.6240)  can1  8041001   [8]  01 02 C0 32 04 AF 3B 00
 (2.6250)  can1  5847270   [8]  00 00 00 00 00 00 05 9F
 (2.6250)  can1  5937102   [8]  2C 41 06 00 00 00 05 E0
 (2.6260)  can1  5947102   [8]  00 00 00 00 00 00 05 9F
 (2.6260)  can1  8580C02   [8]  00 00 01 00 00 00 00 00
 (2.6270)  can1  89A0C02   [8]  CC 0B 00 00 99 17 00 00
 (2.6280)  can1  18800401   [8]  0C 90 8D 4B 8D 46 8D 00
 (2.6290)  can1  18840401   [8]  0C A9 8D 64 8D 5F 8D 00
 (2.6290)  can1  8030C02   [8]  00 00 2A 68 2A 68 92 17
 (2.6290)  can1  18C00401   [8]  0C A7 30 34 31 61 30 00
 (2.6300)  can1  595FF71   [8]  05 80 60 09 60 09 F9 5D
 (2.6310)  can1  596FF71   [8]  00 80 FF FF FF FF F2 CB
 (2.6310)  can1  586FF72   [8]  00 80 FF FF FF FF F4 CB
 (2.6320)  can1  4100209   [8]  E9 35 13 00 00 00 00 00
 (2.6320)  can1  4100208   [8]  6F 10 13 00 00 00 00 00
 (2.6330)  can1  1948FF72   [8]  00 C0 00 55 FF FF 18 2B
 (2.6360)  can1  8100302   [5]  01 00 0A 00 18
 (2.6360)  can1  585FF72   [8]  03 80 60 09 60 09 F0 8A
 (2.6370)  can1  8580C02   [8]  00 00 00 00 00 00 00 00
 (2.6380)  can1  89A0C02   [8]  00 00 00 00 00 00 00 00
 (2.6380)  can1  4100209   [8]  E9 35 13 00 00 00 00 00
 (2.6390)  can1  8030C02   [8]  00 00 2A 68 2A 68 92 17
 (2.6390)  can1  4100208   [8]  6F 10 13 00 00 00 00 00
 (2.6450)  can1  595FF71   [8]  05 80 60 09 60 09 FA 5D
 (2.6460)  can1  596FF71   [8]  FD 7F FF FF FF FF F3 B1
 (2.6470)  can1  586FF72   [8]  00 80 FF FF FF FF F5 CB
 (2.6480)  can1  4100209   [8]  E9 35 13 00 00 00 00 00
 (2.6480)  can1  4100208   [8]  6F 10 13 00 00 00 00 00
 (2.6530)  can1  599FF71   [8]  1A E0 02 82 02 00 F8 D1
 (2.6560)  can1  89A0C02   [8]  00 00 00 00 00 00 00 00
 (2.6560)  can1  585FF72   [8]  03 80 60 09 60 09 F1 8A
 (2.6570)  can1  8030C02   [8]  00 00 2A 68 2A 68 92 17
 (2.6580)  can1  8580C02   [8]  FE FF 00 00 00 00 00 00
 (2.6590)  can1  4100209   [8]  E9 35 13 00 00 00 00 00
 (2.6590)  can1  4100208   [8]  6F 10 13 00 00 00 00 00
 (2.6600)  can1  1948FF71   [8]  00 C0 00 55 FF FF 18 2B
 (2.6620)  can1  8100302   [5]  01 00 0A 00 18
 (2.6630)  can1  595FF71   [8]  05 80 60 09 60 09 FB 5D
 (2.6630)  can1  596FF71   [8]  00 80 FF FF FF FF F4 CB
 (2.6660)  can1  586FF72   [8]  00 80 FF FF FF FF F6 CB
 (2.6670)  can1  587FF72   [8]  FF 07 CD 0F FF FF F8 5F
 (2.6670)  can1  4100209   [8]  E9 35 13 00 00 00 00 00
 (2.6680)  can1  4100208   [8]  6F 10 13 00 00 00 00 00
 (2.6710)  can1  18800401   [8]  0D 67 8D 96 8D 7C 8D 00
 (2.6710)  can1  18840401   [8]  0D 81 8D AF 8D 94 8D 00
 (2.6720)  can1  18C00401   [8]  0D D6 30 97 2F E7 2F 00
 (2.6730)  can1  597FF71   [8]  09 08 E7 0F FF FF F8 CE
 (2.6730)  can1  598FF71   [8]  40 01 78 FF FF FF F8 CA
 (2.6780)  can1  5807202   [8]  03 80 00 00 E0 01 06 BF
 (2.6790)  can1  5817202   [8]  01 00 10 27 10 27 09 E3
 (2.6800)  can1  585FF72   [8]  03 80 60 09 60 09 F2 8A
 (2.6810)  can1  5907102   [8]  05 80 00 00 E0 01 06 68
 (2.6810)  can1  4100209   [8]  E9 35 13 00 00 00 00 00
 (2.6820)  can1  5827202   [8]  FA 00 00 00 00 00 06 D4
 (2.6830)  can1  5917102   [8]  01 00 10 27 10 27 09 E3
 (2.6840)  can1  4100208   [8]  6F 10 13 00 00 00 00 00
 (2.6850)  can1  5837202   [8]  2C 41 06 00 00 00 06 E0
 (2.6850)  can1  5927102   [8]  FA 00 00 00 00 00 06 D4
 (2.6860)  can1  1949FF71   [8]  0D 90 00 0D C0 00 19 83
 (2.6870)  can1  5847270   [8]  00 00 00 00 00 00 06 9F
 (2.6870)  can1  5937102   [8]  2C 41 06 00 00 00 06 E0
 (2.6880)  can1  5947102   [8]  00 00 00 00 00 00 06 9F
 (2.6890)  can1  8010C01   [8]  63 62 00 00 00 00 00 00
 (2.6900)  can1  8101201   [8]  E1 62 DF 8D 02 8A 5A 00
 (2.6900)  can1  8580C02   [8]  00 00 00 00 00 00 00 00
 (2.6910)  can1  89A0C02   [8]  00 00 00 00 00 00 00 00
 (2.6910)  can1  8030C02   [8]  00 00 2A 68 2A 68 92 17
 (2.6920)  can1  1949FF72   [8]  0D 80 00 0D B0 00 19 63
 (2.6920)  can1  194AFF71   [8]  32 37 58 86 85 58 1A 3E
 (2.6930)  can1  194AFF72   [8]  5E 77 57 77 75 57 1A 89
 (2.6930)  can1  194BFF71   [8]  86 F5 FF FF FF FF 1B 92
 (2.6940)  can1  194BFF72   [8]  77 F5 FF FF FF FF 1B 83
 (2.6940)  can1  194CFF71   [8]  FF FF FF FF FF FF 1C 16
 (2.6950)  can1  595FF71   [8]  05 80 60 09 60 09 FC 5D
 (2.6960)  can1  596FF71   [8]  FF 7F FF FF FF FF F5 19
 (2.6970)  can1  194CFF72   [8]  FF FF FF FF FF FF 1C 16
 (2.6980)  can1  8100302   [5]  01 00 0A 00 18
 (2.6980)  can1  586FF72   [8]  00 80 FF FF FF FF F7 CB
 (2.6990)  can1  4100209   [8]  E9 35 13 00 00 00 00 00
 (2.6990)  can1  4100208   [8]  6F 10 13 00 00 00 00 00
 (2.7000)  can1  89A0C02   [8]  00 00 00 00 00 00 00 00
 (2.7000)  can1  585FF72   [8]  03 80 60 09 60 09 F3 8A
 (2.7010)  can1  8030C02   [8]  00 00 2A 68 2A 68 92 17
 (2.7010)  can1  8580C02   [8]  00 00 00 00 00 00 00 00
 (2.7020)  can1  4100209   [8]  E9 35 13 00 00 00 00 00
 (2.7020)  can1  4100208   [8]  6F 10 13 00 00 00 00 00
 (2.7030)  can1  595FF71   [8]  05 80 60 09 60 09 FD 5D
 (2.7030)  can1  596FF71   [8]  01 80 FF FF FF FF F6 9F
 (2.7060)  can1  586FF72   [8]  01 80 FF FF FF FF F8 9F
 (2.7060)  can1  588FF72   [8]  90 01 55 FF FF FF F9 B6
 (2.7070)  can1  589FF72   [8]  1A D0 02 81 02 00 F9 87
 (2.7080)  can1  4100209   [8]  E9 35 13 00 00 00 00 00
 (2.7080)  can1  4100208   [8]  6F 10 13 00 00 00 00 00
 (2.7110)  can1  8100302   [5]  01 00 0A 00 18
 (2.7160)  can1  89A0C02   [8]  CC 0B 00 00 CC 0B 00 00
 (2.7170)  can1  585FF72   [8]  03 80 60 09 60 09 F4 8A
 (2.7180)  can1  8030C02   [8]  00 00 2A 68 2A 68 92 17
 (2.7180)  can1  8580C02   [8]  00 00 00 00 00 00 00 00
 (2.7190)  can1  4100209   [8]  E9 35 13 00 00 00 00 00
 (2.7190)  can1  4100208   [8]  6F 10 13 00 00 00 00 00
 (2.7200)  can1  8041001   [8]  01 02 C0 32 04 AF 3B 00
 (2.7210)  can1  18800401   [8]  0E 42 8D 2E 8D F3 8C 00
 (2.7210)  can1  18840401   [8]  0E 57 8D 46 8D 0D 8D 00
 (2.7220)  can1  18C00401   [8]  0E 48 2F 86 30 50 30 00
 (2.7230)  can1  595FF71   [8]  05 80 60 09 60 09 FE 5D
 (2.7230)  can1  596FF71   [8]  FC 7F FF FF FF FF F7 E5
 (2.7260)  can1  586FF72   [8]  01 80 FF FF FF FF F9 9F
 (2.7270)  can1  4100209   [8]  E9 35 13 00 00 00 00 00
 (2.7290)  can1  4100208   [8]  6F 10 13 00 00 00 00 00
 (2.7360)  can1  5807202   [8]  03 80 00 00 E0 01 07 BF
 (2.7370)  can1  5817202   [8]  01 00 10 27 10 27 0A E3
 (2.7380)  can1  585FF72   [8]  03 80 60 09 60 09 F5 8A
 (2.7390)  can1  5907102   [8]  05 80 00 00 E0 01 07 68
 (2.7390)  can1  4100209   [8]  E9 35 13 00 00 00 00 00
 (2.7400)  can1  5827202   [8]  FA 00 00 00 00 00 07 D4
 (2.7410)  can1  5917102   [8]  01 00 10 27 10 27 0A E3
 (2.7420)  can1  4100208   [8]  6F 10 13 00 00 00 00 00
 (2.7420)  can1  5837202   [8]  2C 41 06 00 00 00 07 E0
 (2.7430)  can1  5927102   [8]  FA 00 00 00 00 00 07 D4
 (2.7440)  can1  5937102   [8]  2C 41 06 00 00 00 07 E0
 (2.7440)  can1  5847270   [8]  00 00 00 00 00 00 07 9F
 (2.7450)  can1  5947102   [8]  00 00 00 00 00 00 07 9F
 (2.7450)  can1  8100302   [5]  01 00 0A 00 18
 (2.7460)  can1  8580C02   [8]  FE FF 00 00 00 00 00 00
 (2.7460)  can1  89A0C02   [8]  00 00 00 00 CC 0B 00 00
 (2.7470)  can1  8030C02   [8]  00 00 2A 68 2A 68 92 17
 (2.7480)  can1  595FF71   [8]  05 80 60 09 60 09 FF 5D
 (2.7480)  can1  596FF71   [8]  FE 7F FF FF FF FF F8 4D
 (2.7490)  can1  586FF72   [8]  FE 7F FF FF FF FF FA 4D
 (2.7490)  can1  4100209   [8]  E9 35 13 00 00 00 00 00
 (2.7500)  can1  4100208   [8]  6F 10 13 00 00 00 00 00
 (2.7550)  can1  599FF71   [8]  1A E0 02 82 02 00 F9 D1
 (2.7570)  can1  89A0C02   [8]  00 00 00 00 00 00 00 00
 (2.7580)  can1  585FF72   [8]  03 80 60 09 60 09 F6 8A
 (2.7590)  can1  8030C02   [8]  00 00 2A 68 2A 68 92 17
 (2.7590)  can1  8580C02   [8]  FF FF FF FF 00 00 00 00
 (2.7600)  can1  4100209   [8]  E9 35 13 00 00 00 00 00
 (2.7600)  can1  4100208   [8]  6F 10 13 00 00 00 00 00
 (2.7610)  can1  8100302   [5]  01 00 0A 00 18
 (2.7630)  can1  595FF71   [8]  05 80 60 09 60 09 F0 5D
 (2.7630)  can1  596FF71   [8]  FE 7F FF FF FF FF F9 4D
 (2.7660)  can1  586FF72   [8]  00 80 FF FF FF FF FB CB
 (2.7660)  can1  587FF72   [8]  06 08 CD 0F FF FF F9 21
 (2.7680)  can1  4100209   [8]  E9 35 13 00 00 00 00 00
 (2.7680)  can1  4100208   [8]  6F 10 13 00 00 00 00 00
 (2.7710)  can1  404FF03   [1]  00
 (2.7720)  can1  18800401   [8]  0F A5 8C 47 8D 76 8D 00
 (2.7720)  can1  18840401   [8]  0F BC 8C 5A 8D 8E 8D 00
 (2.7730)  can1  18C00401   [8]  0F 25 31 A2 30 70 31 00
 (2.7740)  can1  8250C03   [8]  36 00 46 01 00 00 21 00
 (2.7740)  can1  8840C03   [8]  68 00 13 00 23 00 06 00
 (2.7750)  can1  88D0C03   [8]  2D 00 00 00 60 00 71 00
 (2.7750)  can1  597FF71   [8]  07 08 E7 0F FF FF F9 E7
 (2.7760)  can1  598FF71   [8]  40 01 78 FF FF FF F9 CA
 (2.7770)  can1  89A0C02   [8]  00 00 00 00 00 00 00 00
 (2.7770)  can1  585FF72   [8]  03 80 60 09 60 09 F7 8A
 (2.7780)  can1  8030C02   [8]  00 00 2A 68 2A 68 92 17
 (2.7790)  can1  8580C02   [8]  FF FF 00 00 00 00 00 00
 (2.7790)  can1  4100209   [8]  E9 35 13 00 00 00 00 00
 (2.7800)  can1  4100208   [8]  6F 10 13 00 00 00 00 00
 (2.7820)  can1  8101201   [8]  E2 62 E3 8D 02 8A 5B 00
 (2.7820)  can1  8010C01   [8]  61 62 00 00 00 00 00 00
 (2.7830)  can1  595FF71   [8]  05 80 60 09 60 09 F1 5D
 (2.7830)  can1  596FF71   [8]  FE 7F FF FF FF FF FA 4D
 (2.7860)  can1  8100302   [5]  01 00 0A 00 18
 (2.7870)  can1  586FF72   [8]  01 80 FF FF FF FF FC 9F
 (2.7890)  can1  4100209   [8]  E9 35 13 00 00 00 00 00
 (2.7900)  can1  4100208   [8]  6F 10 13 00 00 00 00 00
 (2.7960)  can1  585FF72   [8]  03 80 60 09 60 09 F8 8A
 (2.7960)  can1  5807202   [8]  03 80 00 00 E0 01 08 BF
 (2.7970)  can1  5817202   [8]  01 00 10 27 10 27 0B E3
 (2.7980)  can1  5907102   [8]  05 80 00 00 E0 01 08 68
 (2.7990)  can1  4100209   [8]  E9 35 13 00 00 00 00 00
 (2.7990)  can1  5827202   [8]  FA 00 00 00 00 00 08 D4
 (2.8000)  can1  5917102   [8]  01 00 10 27 10 27 0B E3
 (2.8010)  can1  4100208   [8]  6F 10 13 00 00 00 00 00
 (2.8020)  can1  5837202   [8]  2C 41 06 00 00 00 08 E0
 (2.8020)  can1  5927102   [8]  FA 00 00 00 00 00 08 D4
 (2.8030)  can1  5937102   [8]  2C 41 06 00 00 00 08 E0
 (2.8030)  can1  5847270   [8]  00 00 00 00 00 00 08 9F
 (2.8040)  can1  5947102   [8]  00 00 00 00 00 00 08 9F
 (2.8050)  can1  89A0C02   [8]  00 00 00 00 CC 0B 00 00
 (2.8050)  can1  8030C02   [8]  00 00 2A 68 2A 68 92 17
 (2.8060)  can1  8580C02   [8]  FF FF 00 00 00 00 00 00
 (2.8070)  can1  404FF07   [1]  00
 (2.8070)  can1  595FF71   [8]  05 80 60 09 60 09 F2 5D
 (2.8070)  can1  596FF71   [8]  FF 7F FF FF FF FF FB 19
 (2.8080)  can1  586FF72   [8]  00 80 FF FF FF FF FD CB
 (2.8090)  can1  588FF72   [8]  90 01 55 FF FF FF FA B6
 (2.8100)  can1  589FF72   [8]  1A D0 02 81 02 00 FA 87
 (2.8100)  can1  4100209   [8]  E9 35 13 00 00 00 00 00
 (2.8110)  can1  4100208   [8]  6F 10 13 00 00 00 00 00
 (2.8120)  can1  8100302   [5]  01 00 0A 00 18
 (2.8160)  can1  89A0C02   [8]  00 00 00 00 00 00 00 00
 (2.8160)  can1  585FF72   [8]  03 80 60 09 60 09 F9 8A
 (2.8170)  can1  8030C02   [8]  00 00 2A 68 2A 68 92 17
 (2.8180)  can1  8580C02   [8]  00 00 00 00 00 00 00 00
 (2.8180)  can1  4100209   [8]  E9 35 13 00 00 00 00 00
 (2.8190)  can1  4100208   [8]  6F 10 13 00 00 00 00 00
 (2.8200)  can1  404FF01   [1]  00
 (2.8200)  can1  8041001   [8]  01 02 C0 32 04 AF 3B 00
 (2.8210)  can1  8120C01   [8]  05 00 00 00 00 00 00 00
 (2.8220)  can1  80F1201   [4]  78 0F 00 00
 (2.8230)  can1  18800401   [8]  10 6F 8D 71 8D 5F 8D 00
 (2.8230)  can1  18840401   [8]  10 86 8D 89 8D 78 8D 00
 (2.8240)  can1  18C00401   [8]  10 B1 30 7B 31 52 30 00
 (2.8250)  can1  595FF71   [8]  05 80 60 09 60 09 F3 5D
 (2.8250)  can1  596FF71   [8]  00 80 FF FF FF FF FC CB
 (2.8260)  can1  586FF72   [8]  FF 7F FF FF FF FF FE 19
 (2.8280)  can1  4100209   [8]  E9 35 13 00 00 00 00 00
 (2.8280)  can1  4100208   [8]  6F 10 13 00 00 00 00 00
 (2.8360)  can1  404FF02   [1]  00
 (2.8360)  can1  585FF72   [8]  03 80 60 09 60 09 FA 8A
 (2.8370)  can1  8100302   [5]  01 00 0A 00 18
 (2.8380)  can1  89A0C02   [8]  00 00 00 00 00 00 00 00
 (2.8380)  can1  8580C02   [8]  00 00 00 00 00 00 00 00
 (2.8390)  can1  4100209   [8]  E9 35 13 00 00 00 00 00
 (2.8390)  can1  8030C02   [8]  00 00 2A 68 2A 68 92 17
 (2.8400)  can1  4100208   [8]  6F 10 13 00 00 00 00 00
 (2.8430)  can1  595FF71   [8]  05 80 60 09 60 09 F4 5D
 (2.8440)  can1  596FF71   [8]  02 80 FF FF FF FF FD 63
 (2.8460)  can1  586FF72   [8]  FF 7F FF FF FF FF FF 19
 (2.8470)  can1  4100209   [8]  E9 35 13 00 00 00 00 00
 (2.8480)  can1  4100208   [8]  6F 10 13 00 00 00 00 00
 (2.8530)  can1  599FF71   [8]  1A E0 02 82 02 00 FA D1
 (2.8560)  can1  5807202   [8]  03 80 00 00 E0 01 09 BF
 (2.8560)  can1  5817202   [8]  01 00 10 27 10 27 0C E3
 (2.8570)  can1  585FF72   [8]  03 80 60 09 60 09 FB 8A
 (2.8580)  can1  5907102   [8]  05 80 00 00 E0 01 09 68
 (2.8590)  can1  4100209   [8]  E9 35 13 00 00 00 00 00
 (2.8590)  can1  5827202   [8]  FA 00 00 00 00 00 09 D4
 (2.8610)  can1  5917102   [8]  01 00 10 27 10 27 0C E3
 (2.8620)  can1  4100208   [8]  6F 10 13 00 00 00 00 00
 (2.8620)  can1  5837202   [8]  2C 41 06 00 00 00 09 E0
 (2.8630)  can1  5927102   [8]  FA 00 00 00 00 00 09 D4
 (2.8630)  can1  5937102   [8]  2C 41 06 00 00 00 09 E0
 (2.8640)  can1  5847270   [8]  00 00 00 00 00 00 09 9F
 (2.8650)  can1  5947102   [8]  00 00 00 00 00 00 09 9F
 (2.8650)  can1  89A0C02   [8]  99 17 00 00 00 00 00 00
 (2.8660)  can1  8030C02   [8]  00 00 2A 68 2A 68 92 17
 (2.8670)  can1  8580C02   [8]  01 00 00 00 00 00 00 00
 (2.8670)  can1  8100302   [5]  01 00 0A 00 18
 (2.8680)  can1  595FF71   [8]  05 80 60 09 60 09 F5 5D
 (2.8690)  can1  596FF71   [8]  FE 7F FF FF FF FF FE 4D
 (2.8700)  can1  586FF72   [8]  00 80 FF FF FF FF F0 CB
 (2.8710)  can1  587FF72   [8]  00 08 CD 0F FF FF FA F6
 (2.8710)  can1  4100209   [8]  E9 35 13 00 00 00 00 00
 (2.8720)  can1  4100208   [8]  6F 10 13 00 00 00 00 00
 (2.8730)  can1  18101203   [4]  17 2D 4F 08
 (2.8730)  can1  18800401   [8]  11 24 8D 08 8D 44 8D 00
 (2.8730)  can1  18840401   [8]  11 3C 8D 21 8D 58 8D 00
 (2.8740)  can1  18C00401   [8]  11 55 31 07 30 0B 31 00
 (2.8750)  can1  597FF71   [8]  0C 08 E4 0F FF FF FA 15
 (2.8750)  can1  598FF71   [8]  40 01 78 FF FF FF FA CA
 (2.8760)  can1  89A0C02   [8]  00 00 00 00 00 00 00 00
 (2.8760)  can1  585FF72   [8]  03 80 60 09 60 09 FC 8A
 (2.8770)  can1  8030C02   [8]  00 00 2A 68 2A 68 92 17
 (2.8780)  can1  8580C02   [8]  FF FF 00 00 00 00 00 00
 (2.8780)  can1  4100209   [8]  E9 35 13 00 00 00 00 00
 (2.8790)  can1  4100208   [8]  6F 10 13 00 00 00 00 00
 (2.8830)  can1  8101201   [8]  E2 62 DE 8D 01 8A 52 00
 (2.8840)  can1  8010C01   [8]  62 62 00 00 00 00 00 00
 (2.8850)  can1  595FF71   [8]  05 80 60 09 60 09 F6 5D
 (2.8850)  can1  596FF71   [8]  01 80 FF FF FF FF FF 9F
 (2.8870)  can1  8100302   [5]  01 00 0A 00 18
 (2.8870)  can1  528FF72   [8]  03 00 35 00 00 00 34 00
 (2.8880)  can1  529FF72   [8]  03 00 43 00 0A 00 03 00
 (2.8880)  can1  52AFF72   [8]  13 13 13 13 13 13 19 00
 (2.8890)  can1  4100209   [8]  E9 35 13 00 00 00 00 00
 (2.8900)  can1  52BFF72   [8]  11 16 11 13 00 FF 00 00
 (2.8900)  can1  52CFF72   [8]  00 00 EF FF EF FF 3A 00
 (2.8910)  can1  586FF72   [8]  01 80 FF FF FF FF F1 9F
 (2.8910)  can1  4100208   [8]  6F 10 13 00 00 00 00 00
 (2.8920)  can1  1948FF72   [8]  00 C0 00 55 FF FF 1D 30
 (2.8930)  can1  528FF71   [8]  00 00 5A 00 00 00 56 00
 (2.8930)  can1  529FF71   [8]  07 00 50 00 0C 00 05 00
 (2.8940)  can1  52AFF71   [8]  14 14 14 14 14 14 14 00
 (2.8950)  can1  52BFF71   [8]  10 14 10 14 00 FF 00 00
 (2.8960)  can1  52CFF71   [8]  00 00 EF FF EF FF 3A 00
 (2.8970)  can1  89A0C02   [8]  CC 0B 00 00 CC 0B 00 00
 (2.8980)  can1  585FF72   [8]  03 80 60 09 60 09 FD 8A
 (2.8980)  can1  8030C02   [8]  00 00 2A 68 2A 68 92 17
 (2.8990)  can1  8580C02   [8]  00 00 00 00 00 00 00 00
 (2.9000)  can1  4100209   [8]  E9 35 13 00 00 00 00 00
 (2.9000)  can1  4100208   [8]  6F 10 13 00 00 00 00 00
 (2.9030)  can1  595FF71   [8]  05 80 60 09 60 09 F7 5D
 (2.9030)  can1  596FF71   [8]  FC 7F FF FF FF FF F0 E5
 (2.9060)  can1  586FF72   [8]  01 80 FF FF FF FF F2 9F
 (2.9060)  can1  588FF72   [8]  90 01 55 FF FF FF FB B6
 (2.9070)  can1  589FF72   [8]  1A D0 02 81 02 00 FB 87
 (2.9080)  can1  4100209   [8]  E9 35 13 00 00 00 00 00
 (2.9090)  can1  4100208   [8]  6F 10 13 00 00 00 00 00
 (2.9110)  can1  8100302   [5]  01 00 0A 00 18
 (2.9130)  can1  1948FF71   [8]  00 C0 00 55 FF FF 1D 30
 (2.9170)  can1  585FF72   [8]  03 80 60 09 60 09 FE 8A
 (2.9180)  can1  5807202   [8]  03 80 00 00 E0 01 0A BF
 (2.9190)  can1  5817202   [8]  01 00 10 27 10 27 0D E3
 (2.9200)  can1  5907102   [8]  05 80 00 00 E0 01 0A 68
 (2.9210)  can1  4100209   [8]  E9 35 13 00 00 00 00 00
 (2.9220)  can1  5827202   [8]  FA 00 00 00 00 00 0A D4
 (2.9220)  can1  5917102   [8]  01 00 10 27 10 27 0D E3
 (2.9230)  can1  5927102   [8]  FA 00 00 00 00 00 0A D4
 (2.9240)  can1  4100208   [8]  6F 10 13 00 00 00 00 00
 (2.9240)  can1  5837202   [8]  2C 41 06 00 00 00 0A E0
 (2.9250)  can1  5937102   [8]  2C 41 06 00 00 00 0A E0
 (2.9250)  can1  5847270   [8]  00 00 00 00 00 00 0A 9F
 (2.9260)  can1  5947102   [8]  00 00 00 00 00 00 0A 9F
 (2.9270)  can1  8041001   [8]  01 02 C0 32 04 AF 3B 00
 (2.9280)  can1  89A0C02   [8]  00 00 00 00 CC 0B 00 00
 (2.9280)  can1  8030C02   [8]  00 00 2A 68 2A 68 92 17
 (2.9290)  can1  8580C02   [8]  FE FF 00 00 00 00 00 00
 (2.9300)  can1  18800401   [8]  12 87 8D 75 8D 3F 8D 00
 (2.9300)  can1  18840401   [8]  12 9F 8D 8C 8D 57 8D 00
 (2.9310)  can1  18C00401   [8]  12 5D 30 71 2F 13 2F 00
 (2.9310)  can1  595FF71   [8]  05 80 60 09 60 09 F8 5D
 (2.9320)  can1  596FF71   [8]  FE 7F FF FF FF FF F1 4D
 (2.9320)  can1  586FF72   [8]  01 80 FF FF FF FF F3 9F
 (2.9330)  can1  4100209   [8]  E9 35 13 00 00 00 00 00
 (2.9340)  can1  4100208   [8]  6F 10 13 00 00 00 00 00
 (2.9350)  can1  1949FF71   [8]  0D 80 00 0C A0 00 1E 57
 (2.9360)  can1  194AFF71   [8]  33 67 58 86 65 58 1F 54
 (2.9360)  can1  194BFF71   [8]  86 F5 FF FF FF FF 20 97
 (2.9370)  can1  194CFF71   [8]  FF FF FF FF FF FF 21 1B
 (2.9380)  can1  585FF72   [8]  03 80 60 09 60 09 FF 8A
 (2.9380)  can1  8100302   [5]  01 00 0A 00 18
 (2.9390)  can1  8580C02   [8]  FF FF 00 00 00 00 00 00
 (2.9400)  can1  89A0C02   [8]  00 00 00 00 CC 0B 00 00
 (2.9400)  can1  8030C02   [8]  00 00 2A 68 2A 68 92 17
 (2.9410)  can1  4100209   [8]  E9 35 13 00 00 00 00 00
 (2.9420)  can1  1949FF72   [8]  0D 80 00 0D 90 00 1E 48
 (2.9420)  can1  194AFF72   [8]  5E A7 57 77 A5 57 1F EE
 (2.9430)  can1  4100208   [8]  6F 10 13 00 00 00 00 00
 (2.9430)  can1  194BFF72   [8]  77 F5 FF FF FF FF 20 88
 (2.9440)  can1  194CFF72   [8]  FF FF FF FF FF FF 21 1B
 (2.9440)  can1  595FF71   [8]  05 80 60 09 60 09 F9 5D
 (2.9450)  can1  596FF71   [8]  01 80 FF FF FF FF F2 9F
 (2.9460)  can1  586FF72   [8]  01 80 FF FF FF FF F4 9F
 (2.9470)  can1  4100209   [8]  E9 35 13 00 00 00 00 00
 (2.9480)  can1  4100208   [8]  6F 10 13 00 00 00 00 00
 (2.9530)  can1  599FF71   [8]  1A E0 02 82 02 00 FB D1
 (2.9570)  can1  585FF72   [8]  03 80 60 09 60 09 F0 8A
 (2.9580)  can1  8030C02   [8]  00 00 2A 68 2A 68 92 17
 (2.9590)  can1  8580C02   [8]  00 00 00 00 00 00 00 00
 (2.9600)  can1  89A0C02   [8]  CC 0B 00 00 CC 0B 00 00
 (2.9600)  can1  4100209   [8]  E9 35 13 00 00 00 00 00
 (2.9610)  can1  4100208   [8]  6F 10 13 00 00 00 00 00
 (2.9620)  can1  8100302   [5]  01 00 0A 00 18
 (2.9630)  can1  595FF71   [8]  05 80 60 09 60 09 FA 5D
 (2.9630)  can1  596FF71   [8]  FF 7F FF FF FF FF F3 19
 (2.9660)  can1  586FF72   [8]  01 80 FF FF FF FF F5 9F
 (2.9660)  can1  587FF72   [8]  FF 07 CD 0F FF FF FB 5F
 (2.9680)  can1  4100209   [8]  E9 35 13 00 00 00 00 00
 (2.9680)  can1  4100208   [8]  6F 10 13 00 00 00 00 00
 (2.9710)  can1  18800401   [8]  13 3E 8D F8 8C 27 8D 00
 (2.9710)  can1  18840401   [8]  13 55 8D 23 8D 40 8D 00
 (2.9720)  can1  18C00401   [8]  13 00 30 FA 2F BB 30 00
 (2.9730)  can1  597FF71   [8]  0A 08 E7 0F FF FF FB 32
 (2.9730)  can1  598FF71   [8]  40 01 78 FF FF FF FB CA
 (2.9760)  can1  585FF72   [8]  03 80 60 09 60 09 F1 8A
 (2.9770)  can1  5807202   [8]  03 80 00 00 E0 01 0B BF
 (2.9780)  can1  5817202   [8]  01 00 10 27 10 27 0E E3
 (2.9790)  can1  5907102   [8]  05 80 00 00 E0 01 0B 68
 (2.9790)  can1  4100209   [8]  E9 35 13 00 00 00 00 00
 (2.9800)  can1  5827202   [8]  FA 00 00 00 00 00 0B D4
 (2.9810)  can1  5917102   [8]  01 00 10 27 10 27 0E E3
 (2.9810)  can1  5927102   [8]  FA 00 00 00 00 00 0B D4
 (2.9820)  can1  4100208   [8]  6F 10 13 00 00 00 00 00
 (2.9830)  can1  5837202   [8]  2C 41 06 00 00 00 0B E0
 (2.9840)  can1  5937102   [8]  2C 41 06 00 00 00 0B E0
 (2.9840)  can1  5847270   [8]  00 00 00 00 00 00 0B 9F
 (2.9850)  can1  5947102   [8]  00 00 00 00 00 00 0B 9F
 (2.9860)  can1  89A0C02   [8]  00 00 00 00 CC 0B 00 00
 (2.9860)  can1  8030C02   [8]  00 00 2A 68 2A 68 92 17
 (2.9870)  can1  8580C02   [8]  00 00 00 00 00 00 00 00
 (2.9880)  can1  8101201   [8]  DF 62 E0 8D 02 8A 69 00
 (2.9880)  can1  8010C01   [8]  60 62 00 00 00 00 00 00
 (2.9890)  can1  595FF71   [8]  05 80 60 09 60 09 FB 5D
 (2.9890)  can1  596FF71   [8]  00 80 FF FF FF FF F4 CB
 (2.9900)  can1  586FF72   [8]  01 80 FF FF FF FF F6 9F
 (2.9910)  can1  8100302   [5]  01 00 0A 00 18
 (2.9910)  can1  4100209   [8]  E9 35 13 00 00 00 00 00
 (2.9920)  can1  4100208   [8]  6F 10 13 00 00 00 00 00
 (2.9960)  can1  585FF72   [8]  03 80 60 09 60 09 F2 8A
 (2.9960)  can1  8030C02   [8]  00 00 2A 68 2A 68 92 17
 (2.9970)  can1  8580C02   [8]  00 00 00 00 00 00 00 00
 (2.9980)  can1  89A0C02   [8]  00 00 00 00 CC 0B 00 00
 (2.9990)  can1  4100209   [8]  E9 35 13 00 00 00 00 00
 (2.9990)  can1  4100208   [8]  6F 10 13 00 00 00 00 00
 (3.0030)  can1  595FF71   [8]  05 80 60 09 60 09 FC 5D
 (3.0030)  can1  596FF71   [8]  FE 7F FF FF FF FF F5 4D
 (3.0060)  can1  586FF72   [8]  FF 7F FF FF FF FF F7 19
 (3.0060)  can1  588FF72   [8]  90 01 55 FF FF FF FC B6
 (3.0070)  can1  589FF72   [8]  1A D0 02 81 02 00 FC 87
 (3.0080)  can1  4100209   [8]  E9 35 13 00 00 00 00 00
 (3.0090)  can1  4100208   [8]  6F 10 13 00 00 00 00 00
 (3.0110)  can1  8100302   [5]  01 00 0A 00 18
 (3.0160)  can1  585FF72   [8]  03 80 60 09 60 09 F3 8A
 (3.0160)  can1  8030C02   [8]  00 00 2A 68 2A 68 92 17
 (3.0170)  can1  8580C02   [8]  FF FF 00 00 00 00 00 00
 (3.0180)  can1  89A0C02   [8]  00 00 00 00 00 00 00 00
 (3.0190)  can1  4100209   [8]  E9 35 13 00 00 00 00 00
 (3.0200)  can1  4100208   [8]  6F 10 13 00 00 00 00 00
 (3.0210)  can1  8041001   [8]  01 02 C0 32 04 AF 3B 00
 (3.0210)  can1  18800401   [8]  14 58 8D 6E 8D 70 8D 00
 (3.0220)  can1  18840401   [8]  14 6F 8D 8D 8D 8A 8D 00
 (3.0220)  can1  18C00401   [8]  14 2E 30 D9 30 38 30 00
 (3.0240)  can1  595FF71   [8]  05 80 60 09 60 09 FD 5D
 (3.0240)  can1  596FF71   [8]  FF 7F FF FF FF FF F6 19
 (3.0260)  can1  586FF72   [8]  01 80 FF FF FF FF F8 9F
 (3.0280)  can1  4100209   [8]  E9 35 13 00 00 00 00 00
 (3.0280)  can1  4100208   [8]  6F 10 13 00 00 00 00 00
 (3.0360)  can1  585FF72   [8]  03 80 60 09 60 09 F4 8A
 (3.0360)  can1  5807202   [8]  03 80 00 00 E0 01 0C BF
 (3.0370)  can1  5817202   [8]  01 00 10 27 10 27 0F E3
 (3.0380)  can1  5907102   [8]  05 80 00 00 E0 01 0C 68
 (3.0390)  can1  4100209   [8]  E9 35 13 00 00 00 00 00
 (3.0400)  can1  5827202   [8]  FA 00 00 00 00 00 0C D4
 (3.0410)  can1  5917102   [8]  01 00 10 27 10 27 0F E3
 (3.0410)  can1  5927102   [8]  FA 00 00 00 00 00 0C D4
 (3.0420)  can1  4100208   [8]  6F 10 13 00 00 00 00 00
 (3.0610)  can1  5837202   [8]  2C 41 06 00 00 00 0C E0
 (3.0620)  can1  5937102   [8]  2C 41 06 00 00 00 0C E0
 (3.0630)  can1  5847270   [8]  00 00 00 00 00 00 0C 9F
 (3.0640)  can1  5947102   [8]  00 00 00 00 00 00 0C 9F
 (3.0640)  can1  8100302   [5]  01 00 0A 00 18
 (3.0640)  can1  8580C02   [8]  00 00 00 00 00 00 00 00
 (3.0650)  can1  89A0C02   [8]  00 00 00 00 CC 0B 00 00
 (3.0650)  can1  8030C02   [8]  00 00 2A 68 2A 68 92 17
 (3.0660)  can1  595FF71   [8]  05 80 60 09 60 09 FE 5D
 (3.0670)  can1  596FF71   [8]  00 80 FF FF FF FF F7 CB
 (3.0680)  can1  586FF72   [8]  03 80 FF FF FF FF F9 37
 (3.0690)  can1  4100209   [8]  E9 35 13 00 00 00 00 00
 (3.0700)  can1  4100208   [8]  6F 10 13 00 00 00 00 00
 (3.0700)  can1  599FF71   [8]  1A E0 02 82 02 00 FC D1
 (3.0710)  can1  585FF72   [8]  03 80 60 09 60 09 F5 8A
 (3.0720)  can1  8030C02   [8]  00 00 2A 68 2A 68 92 17
 (3.0720)  can1  8580C02   [8]  00 00 02 00 00 00 00 00
 (3.0720)  can1  89A0C02   [8]  00 00 00 00 66 23 00 00
 (3.0730)  can1  4100209   [8]  E9 35 13 00 00 00 00 00
 (3.0740)  can1  4100208   [8]  6F 10 13 00 00 00 00 00
 (3.0740)  can1  8100302   [5]  01 00 0A 00 18
 (3.0750)  can1  595FF71   [8]  05 80 60 09 60 09 FF 5D
 (3.0750)  can1  596FF71   [8]  00 80 FF FF FF FF F8 CB
 (3.0760)  can1  586FF72   [8]  01 80 FF FF FF FF FA 9F
 (3.0770)  can1  587FF72   [8]  02 08 CA 0F FF FF FC 24
 (3.0770)  can1  4100209   [8]  E9 35 13 00 00 00 00 00
 (3.0780)  can1  4100208   [8]  6F 10 13 00 00 00 00 00
 (3.0790)  can1  18800401   [8]  15 97 8D 7B 8D 3E 8D 00
 (3.0800)  can1  18840401   [8]  15 B0 8D 93 8D 57 8D 00
