 (1.4230)  can1  585FF72   [8]  04 80 60 09 60 09 F3 09
 (1.4720)  can1  586FF72   [8]  FD 7F FF FF FF FF F7 B1
 (1.4730)  can1  1949FF72   [8]  0D 80 00 0D 90 00 1D 47
 (1.4740)  can1  194AFF72   [8]  70 77 57 77 75 57 1E 9F
 (1.4740)  can1  194BFF72   [8]  77 F5 FF FF FF FF 1F 87
 (1.4750)  can1  588FF72   [8]  C0 01 52 FF FF FF FC 22
 (1.4760)  can1  589FF72   [8]  1A E0 02 82 02 00 FC D1
 (1.4760)  can1  4100209   [8]  A3 35 13 00 00 00 00 00
 (1.4770)  can1  4100208   [8]  22 10 13 00 00 00 00 00
 (1.4770)  can1  89A0C02   [8]  00 00 00 00 00 00 00 00
 (1.4770)  can1  8030C02   [8]  00 00 2A 68 2A 68 92 17
 (1.4770)  can1  8580C02   [8]  FF FF 00 00 00 00 00 00
 (1.4780)  can1  1949FF71   [8]  0D 80 00 0D 90 00 31 5B
 (1.4780)  can1  194AFF71   [8]  3A A7 57 86 65 58 32 AD
 (1.4780)  can1  194BFF71   [8]  8B F5 FF FF FF FF 33 AF
 (1.4790)  can1  194CFF71   [8]  FF FF FF FF FF FF 34 2E
 (1.4790)  can1  585FF72   [8]  04 80 60 09 60 09 F5 09
 (1.4790)  can1  586FF72   [8]  03 80 FF FF FF FF F9 37
 (1.4800)  can1  4100209   [8]  A3 35 13 00 00 00 00 00
 (1.4800)  can1  4100208   [8]  22 10 13 00 00 00 00 00
 (1.4800)  can1  595FF71   [8]  05 80 60 09 60 09 FF 5D
 (1.4810)  can1  596FF71   [8]  FF 7F FF FF FF FF F7 19
 (1.4810)  can1  1949FF72   [8]  0D 80 00 0C 90 00 31 5A
 (1.4810)  can1  194AFF72   [8]  70 A7 57 7A 75 57 32 E6
 (1.4810)  can1  194BFF72   [8]  77 F5 FF FF FF FF 33 9B
 (1.4820)  can1  194CFF72   [8]  FF FF FF FF FF FF 34 2E
 (1.4820)  can1  8100302   [5]  01 00 0A 00 14
 (1.4830)  can1  4100209   [8]  A3 35 13 00 00 00 00 00
 (1.4830)  can1  4100208   [8]  22 10 13 00 00 00 00 00
 (1.4830)  can1  89A0C02   [8]  00 00 00 00 66 23 00 00
 (1.4830)  can1  8030C02   [8]  00 00 2A 68 2A 68 92 17
 (1.4830)  can1  8580C02   [8]  00 00 02 00 00 00 00 00
 (1.4840)  can1  8041001   [8]  02 02 00 32 04 B7 3B 00
 (1.4840)  can1  585FF72   [8]  04 80 60 09 60 09 F6 09
 (1.4840)  can1  586FF72   [8]  FE 7F FF FF FF FF FA 4D
 (1.4840)  can1  18800401   [8]  02 E1 8C 51 8D 34 8D 00
 (1.4850)  can1  18840401   [8]  02 FC 8C 6C 8D 4E 8D 00
 (1.4850)  can1  18C00401   [8]  02 E8 30 6C 30 C2 30 00
 (1.4850)  can1  4100209   [8]  A3 35 13 00 00 00 00 00
 (1.4850)  can1  4100208   [8]  22 10 13 00 00 00 00 00
 (1.4860)  can1  595FF71   [8]  05 80 60 09 60 09 F0 5D
 (1.4860)  can1  596FF71   [8]  02 80 FF FF FF FF F8 63
 (1.4860)  can1  599FF71   [8]  1A E0 02 82 02 00 FC D1
 (1.4860)  can1  587FF72   [8]  00 08 C3 0F FF FF FC 02
 (1.4870)  can1  4100209   [8]  A3 35 13 00 00 00 00 00
 (1.4870)  can1  4100208   [8]  22 10 13 00 00 00 00 00
 (1.4870)  can1  5807202   [8]  04 80 00 00 E0 01 05 3C
 (1.4870)  can1  5817202   [8]  01 00 10 27 10 27 08 E3
 (1.4880)  can1  5907102   [8]  05 80 00 00 E0 01 05 68
 (1.4880)  can1  5917102   [8]  01 00 10 27 10 27 08 E3
 (1.4880)  can1  5827202   [8]  FA 00 00 00 00 00 05 D4
 (1.4890)  can1  5927102   [8]  FA 00 00 00 00 00 05 D4
 (1.4890)  can1  5837202   [8]  2C 41 06 00 00 00 05 E0
 (1.4890)  can1  5847270   [8]  00 00 00 00 00 00 05 9F
 (1.4900)  can1  5937102   [8]  2C 41 06 00 00 00 05 E0
 (1.4900)  can1  5947102   [8]  00 00 00 00 00 00 05 9F
 (1.4900)  can1  8100302   [5]  01 00 0A 00 14
 (1.4900)  can1  89A0C02   [8]  99 17 00 00 00 00 00 00
 (1.4900)  can1  585FF72   [8]  04 80 60 09 60 09 F7 09
 (1.4910)  can1  586FF72   [8]  FF 7F FF FF FF FF FB 19
 (1.4910)  can1  8030C02   [8]  00 00 2A 68 2A 68 92 17
 (1.4910)  can1  8580C02   [8]  01 00 FF FF 00 00 00 00
 (1.4920)  can1  4100209   [8]  A3 35 13 00 00 00 00 00
 (1.4920)  can1  4100208   [8]  22 10 13 00 00 00 00 00
 (1.4930)  can1  595FF71   [8]  05 80 60 09 60 09 F1 5D
 (1.4930)  can1  596FF71   [8]  01 80 FF FF FF FF F9 9F
 (1.4930)  can1  4100209   [8]  A3 35 13 00 00 00 00 00
 (1.4940)  can1  4100208   [8]  22 10 13 00 00 00 00 00
 (1.4940)  can1  89A0C02   [8]  CC 0B 00 00 00 00 00 00
 (1.4940)  can1  8030C02   [8]  00 00 2A 68 2A 68 92 17
 (1.4940)  can1  8580C02   [8]  00 00 00 00 00 00 00 00
 (1.4950)  can1  597FF71   [8]  08 08 DB 0F FF FF FC B1
 (1.4950)  can1  598FF71   [8]  50 01 77 FF FF FF FC 58
 (1.4950)  can1  585FF72   [8]  04 80 60 09 60 09 F8 09
 (1.4960)  can1  586FF72   [8]  FE 7F FF FF FF FF FC 4D
 (1.4960)  can1  8101201   [8]  B1 62 9C 8D DF 89 71 00
 (1.4970)  can1  8010C01   [8]  33 62 00 00 00 00 00 00
 (1.4970)  can1  8100302   [5]  01 00 0A 00 14
 (1.4980)  can1  4100209   [8]  A3 35 13 00 00 00 00 00
 (1.4990)  can1  4100208   [8]  22 10 13 00 00 00 00 00
 (1.5020)  can1  595FF71   [8]  05 80 60 09 60 09 F2 5D
 (1.5020)  can1  596FF71   [8]  FF 7F FF FF FF FF FA 19
 (1.5050)  can1  404FF03   [1]  00
 (1.5050)  can1  18800401   [8]  03 01 8D E6 8C 19 8D 00
 (1.5060)  can1  18840401   [8]  03 1C 8D 01 8D 33 8D 00
 (1.5070)  can1  18C00401   [8]  03 5F 30 87 30 0E 30 00
 (1.5080)  can1  8250C03   [8]  64 00 6B 01 00 00 17 00
 (1.5080)  can1  8840C03   [8]  78 00 17 00 20 00 07 00
 (1.5080)  can1  88D0C03   [8]  13 00 00 00 65 00 67 00
 (1.5080)  can1  4100209   [8]  A3 35 13 00 00 00 00 00
 (1.5090)  can1  4100208   [8]  22 10 13 00 00 00 00 00
 (1.5110)  can1  89A0C02   [8]  00 00 00 00 00 00 00 00
 (1.5120)  can1  8030C02   [8]  00 00 2A 68 2A 68 92 17
 (1.5120)  can1  8580C02   [8]  00 00 FF FF 00 00 00 00
 (1.5150)  can1  585FF72   [8]  04 80 60 09 60 09 F9 09
 (1.5150)  can1  586FF72   [8]  00 80 FF FF FF FF FD CB
 (1.5180)  can1  4100209   [8]  A3 35 13 00 00 00 00 00
 (1.5190)  can1  4100208   [8]  22 10 13 00 00 00 00 00
 (1.5210)  can1  8100302   [5]  01 00 0A 00 14
 (1.5220)  can1  595FF71   [8]  05 80 60 09 60 09 F3 5D
 (1.5230)  can1  596FF71   [8]  FD 7F FF FF FF FF FB B1
 (1.5250)  can1  588FF72   [8]  C0 01 52 FF FF FF FD 22
 (1.5260)  can1  589FF72   [8]  1A E0 02 82 02 00 FD D1
 (1.5280)  can1  4100209   [8]  A3 35 13 00 00 00 00 00
 (1.5290)  can1  4100208   [8]  22 10 13 00 00 00 00 00
 (1.5310)  can1  5807202   [8]  04 80 00 00 E0 01 06 3C
 (1.5320)  can1  5817202   [8]  01 00 10 27 10 27 09 E3
 (1.5320)  can1  5907102   [8]  05 80 00 00 E0 01 06 68
 (1.5330)  can1  5917102   [8]  01 00 10 27 10 27 09 E3
 (1.5330)  can1  5827202   [8]  FA 00 00 00 00 00 06 D4
 (1.5330)  can1  5927102   [8]  FA 00 00 00 00 00 06 D4
 (1.5340)  can1  404FF07   [1]  00
 (1.5350)  can1  5837202   [8]  2C 41 06 00 00 00 06 E0
 (1.5350)  can1  5847270   [8]  00 00 00 00 00 00 06 9F
 (1.5360)  can1  5937102   [8]  2C 41 06 00 00 00 06 E0
 (1.5360)  can1  5947102   [8]  00 00 00 00 00 00 06 9F
 (1.5360)  can1  8580C02   [8]  FE FF 00 00 00 00 00 00
 (1.5370)  can1  89A0C02   [8]  00 00 00 00 00 00 00 00
 (1.5370)  can1  585FF72   [8]  04 80 60 09 60 09 FA 09
 (1.5380)  can1  586FF72   [8]  00 80 FF FF FF FF FE CB
 (1.5380)  can1  8030C02   [8]  00 00 2A 68 2A 68 92 17
 (1.5380)  can1  4100209   [8]  A3 35 13 00 00 00 00 00
 (1.5390)  can1  4100208   [8]  22 10 13 00 00 00 00 00
 (1.5420)  can1  595FF71   [8]  05 80 60 09 60 09 F4 5D
 (1.5420)  can1  596FF71   [8]  FF 7F FF FF FF FF FC 19
 (1.5460)  can1  8100302   [5]  01 00 0A 00 14
 (1.5480)  can1  4100209   [8]  A3 35 13 00 00 00 00 00
 (1.5490)  can1  4100208   [8]  22 10 13 00 00 00 00 00
 (1.5510)  can1  89A0C02   [8]  00 00 00 00 00 00 00 00
 (1.5520)  can1  8030C02   [8]  00 00 2A 68 2A 68 92 17
 (1.5520)  can1  8580C02   [8]  00 00 00 00 00 00 00 00
 (1.5530)  can1  404FF01   [1]  00
 (1.5530)  can1  8041001   [8]  02 02 00 32 04 B7 3B 00
 (1.5550)  can1  585FF72   [8]  04 80 60 09 60 09 FB 09
 (1.5550)  can1  586FF72   [8]  00 80 FF FF FF FF FF CB
 (1.5560)  can1  8120C01   [8]  01 00 00 00 00 00 00 00
 (1.5560)  can1  80F1201   [4]  1C 11 00 00
 (1.5560)  can1  18800401   [8]  04 36 8D 23 8D C1 89 00
 (1.5570)  can1  18840401   [8]  04 51 8D 3D 8D DD 89 00
 (1.5570)  can1  18C00401   [8]  04 A0 2F 4F 2F 76 30 00
 (1.5580)  can1  4100209   [8]  A3 35 13 00 00 00 00 00
 (1.5590)  can1  4100208   [8]  22 10 13 00 00 00 00 00
 (1.5620)  can1  595FF71   [8]  05 80 60 09 60 09 F5 5D
 (1.5620)  can1  596FF71   [8]  01 80 FF FF FF FF FD 9F
 (1.5630)  can1  599FF71   [8]  1A E0 02 82 02 00 FD D1
 (1.5650)  can1  587FF72   [8]  01 08 C3 0F FF FF FD 56
 (1.5680)  can1  4100209   [8]  A3 35 13 00 00 00 00 00
 (1.5690)  can1  4100208   [8]  22 10 13 00 00 00 00 00
 (1.5710)  can1  404FF02   [1]  00
 (1.5710)  can1  8100302   [5]  01 00 0A 00 14
 (1.5720)  can1  89A0C02   [8]  CC 0B 00 00 00 00 00 00
 (1.5720)  can1  8580C02   [8]  00 00 00 00 00 00 00 00
 (1.5720)  can1  8030C02   [8]  00 00 2A 68 2A 68 92 17
 (1.5750)  can1  585FF72   [8]  04 80 60 09 60 09 FC 09
 (1.5750)  can1  586FF72   [8]  00 80 FF FF FF FF F0 CB
 (1.5780)  can1  4100209   [8]  A3 35 13 00 00 00 00 00
 (1.5790)  can1  4100208   [8]  22 10 13 00 00 00 00 00
 (1.5820)  can1  595FF71   [8]  05 80 60 09 60 09 F6 5D
 (1.5820)  can1  596FF71   [8]  FF 7F FF FF FF FF FE 19
 (1.5880)  can1  4100209   [8]  A3 35 13 00 00 00 00 00
 (1.5890)  can1  4100208   [8]  22 10 13 00 00 00 00 00
 (1.5910)  can1  5807202   [8]  04 80 00 00 E0 01 07 3C
 (1.5920)  can1  5817202   [8]  01 00 10 27 10 27 0A E3
 (1.5920)  can1  5907102   [8]  05 80 00 00 E0 01 07 68
 (1.5930)  can1  597FF71   [8]  07 08 DB 0F FF FF FD CC
 (1.5930)  can1  5827202   [8]  FA 00 00 00 00 00 07 D4
 (1.5940)  can1  5917102   [8]  01 00 10 27 10 27 0A E3
 (1.5950)  can1  5927102   [8]  FA 00 00 00 00 00 07 D4
 (1.5950)  can1  5837202   [8]  2C 41 06 00 00 00 07 E0
 (1.5960)  can1  5937102   [8]  2C 41 06 00 00 00 07 E0
 (1.5960)  can1  598FF71   [8]  40 01 78 FF FF FF FD CA
 (1.5970)  can1  5847270   [8]  00 00 00 00 00 00 07 9F
 (1.5970)  can1  5947102   [8]  00 00 00 00 00 00 07 9F
 (1.5970)  can1  89A0C02   [8]  00 00 00 00 00 00 00 00
 (1.5980)  can1  585FF72   [8]  04 80 60 09 60 09 FD 09
 (1.5980)  can1  586FF72   [8]  FE 7F FF FF FF FF F1 4D
 (1.5980)  can1  8030C02   [8]  00 00 2A 68 2A 68 92 17
 (1.5980)  can1  8580C02   [8]  00 00 00 00 00 00 00 00
 (1.5990)  can1  8100302   [5]  01 00 0A 00 14
 (1.5990)  can1  8101201   [8]  B2 62 9C 8D DD 89 5F 00
 (1.5990)  can1  8010C01   [8]  36 62 00 00 00 00 00 00
 (1.5990)  can1  4100209   [8]  A3 35 13 00 00 00 00 00
 (1.6000)  can1  4100208   [8]  22 10 13 00 00 00 00 00
 (1.6020)  can1  595FF71   [8]  05 80 60 09 60 09 F7 5D
 (1.6020)  can1  596FF71   [8]  FF 7F FF FF FF FF FF 19
 (1.6050)  can1  18101203   [4]  36 2D E4 07
 (1.6050)  can1  18800401   [8]  05 17 8D EC 8C 05 8D 00
 (1.6060)  can1  18840401   [8]  05 31 8D 03 8D 1C 8D 00
 (1.6060)  can1  18C00401   [8]  05 AB 30 D7 30 35 31 00
 (1.6080)  can1  4100209   [8]  A3 35 13 00 00 00 00 00
 (1.6090)  can1  4100208   [8]  22 10 13 00 00 00 00 00
 (1.6110)  can1  89A0C02   [8]  00 00 00 00 00 00 00 00
 (1.6110)  can1  8030C02   [8]  00 00 2A 68 2A 68 92 17
 (1.6120)  can1  8580C02   [8]  00 00 FF FF 00 00 00 00
 (1.6150)  can1  585FF72   [8]  04 80 60 09 60 09 FE 09
 (1.6150)  can1  586FF72   [8]  01 80 FF FF FF FF F2 9F
 (1.6180)  can1  4100209   [8]  A3 35 13 00 00 00 00 00
 (1.6190)  can1  4100208   [8]  22 10 13 00 00 00 00 00
 (1.6210)  can1  8100302   [5]  01 00 0A 00 14
 (1.6220)  can1  595FF71   [8]  05 80 60 09 60 09 F8 5D
 (1.6220)  can1  596FF71   [8]  FF 7F FF FF FF FF F0 19
 (1.6250)  can1  588FF72   [8]  C0 01 52 FF FF FF FE 22
 (1.6250)  can1  589FF72   [8]  1A E0 02 82 02 00 FE D1
 (1.6260)  can1  528FF72   [8]  FD FF 49 00 00 00 45 00
 (1.6260)  can1  529FF72   [8]  F5 FF 49 00 0B 00 04 00
 (1.6260)  can1  52AFF72   [8]  14 14 14 14 14 14 1C 00
 (1.6270)  can1  52BFF72   [8]  11 16 11 14 00 FF 00 00
 (1.6270)  can1  52CFF72   [8]  00 00 EF FF EF FF 3A 00
 (1.6280)  can1  4100209   [8]  A3 35 13 00 00 00 00 00
 (1.6290)  can1  4100208   [8]  22 10 13 00 00 00 00 00
 (1.6310)  can1  89A0C02   [8]  00 00 00 00 CC 0B 00 00
 (1.6320)  can1  8030C02   [8]  00 00 2A 68 2A 68 92 17
 (1.6320)  can1  8580C02   [8]  00 00 00 00 00 00 00 00
 (1.6330)  can1  528FF71   [8]  FB FF 5E 00 00 00 56 00
 (1.6340)  can1  529FF71   [8]  0E 00 4B 00 0C 00 05 00
 (1.6340)  can1  52AFF71   [8]  15 15 15 15 15 15 15 00
 (1.6350)  can1  52BFF71   [8]  10 14 10 15 00 FF 00 00
 (1.6350)  can1  52CFF71   [8]  00 00 EF FF EF FF 3A 00
 (1.6360)  can1  585FF72   [8]  04 80 60 09 60 09 FF 09
 (1.6370)  can1  586FF72   [8]  FF 7F FF FF FF FF F3 19
 (1.6390)  can1  4100209   [8]  A3 35 13 00 00 00 00 00
 (1.6390)  can1  4100208   [8]  22 10 13 00 00 00 00 00
 (1.6420)  can1  595FF71   [8]  05 80 60 09 60 09 F9 5D
 (1.6420)  can1  596FF71   [8]  01 80 FF FF FF FF F1 9F
 (1.6460)  can1  8100302   [5]  01 00 0A 00 14
 (1.6480)  can1  4100209   [8]  A3 35 13 00 00 00 00 00
 (1.6490)  can1  4100208   [8]  22 10 13 00 00 00 00 00
 (1.6510)  can1  5807202   [8]  04 80 00 00 E0 01 08 3C
 (1.6520)  can1  5817202   [8]  01 00 10 27 10 27 0B E3
 (1.6520)  can1  5907102   [8]  05 80 00 00 E0 01 08 68
 (1.6520)  can1  5917102   [8]  01 00 10 27 10 27 0B E3
 (1.6530)  can1  5827202   [8]  FA 00 00 00 00 00 08 D4
 (1.6530)  can1  5927102   [8]  FA 00 00 00 00 00 08 D4
 (1.6540)  can1  8041001   [8]  02 02 00 32 04 B7 3B 00
 (1.6560)  can1  5837202   [8]  2C 41 06 00 00 00 08 E0
 (1.6570)  can1  5847270   [8]  00 00 00 00 00 00 08 9F
 (1.6570)  can1  5937102   [8]  2C 41 06 00 00 00 08 E0
 (1.6570)  can1  5947102   [8]  00 00 00 00 00 00 08 9F
 (1.6580)  can1  89A0C02   [8]  CC 0B 00 00 00 00 00 00
 (1.6580)  can1  585FF72   [8]  04 80 60 09 60 09 F0 09
 (1.6580)  can1  586FF72   [8]  FD 7F FF FF FF FF F4 B1
 (1.6590)  can1  8030C02   [8]  00 00 2A 68 2A 68 92 17
 (1.6590)  can1  8580C02   [8]  00 00 00 00 00 00 00 00
 (1.6590)  can1  18800401   [8]  06 27 8D 57 8D 66 8D 00
 (1.6600)  can1  18840401   [8]  06 3E 8D 72 8D 7F 8D 00
 (1.6600)  can1  18C00401   [8]  06 C5 30 6B 31 BC 30 00
 (1.6600)  can1  4100209   [8]  A3 35 13 00 00 00 00 00
 (1.6600)  can1  4100208   [8]  22 10 13 00 00 00 00 00
 (1.6610)  can1  1948FF72   [8]  00 C0 00 55 FF FF 35 48
 (1.6620)  can1  595FF71   [8]  05 80 60 09 60 09 FA 5D
 (1.6620)  can1  596FF71   [8]  FD 7F FF FF FF FF F2 B1
 (1.6630)  can1  599FF71   [8]  1A E0 02 82 02 00 FE D1
 (1.6650)  can1  587FF72   [8]  02 08 C3 0F FF FF FE AA
 (1.6680)  can1  4100209   [8]  A3 35 13 00 00 00 00 00
 (1.6690)  can1  4100208   [8]  22 10 13 00 00 00 00 00
 (1.6710)  can1  8100302   [5]  01 00 0A 00 14
 (1.6710)  can1  8580C02   [8]  FE FF FE FF 00 00 00 00
 (1.6720)  can1  89A0C02   [8]  00 00 00 00 00 00 00 00
 (1.6720)  can1  8030C02   [8]  00 00 2A 68 2A 68 92 17
 (1.6750)  can1  585FF72   [8]  04 80 60 09 60 09 F1 09
 (1.6750)  can1  586FF72   [8]  FE 7F FF FF FF FF F5 4D
 (1.6770)  can1  1948FF71   [8]  00 C0 00 55 FF FF 35 48
 (1.6780)  can1  4100209   [8]  A3 35 13 00 00 00 00 00
 (1.6790)  can1  4100208   [8]  22 10 13 00 00 00 00 00
 (1.6820)  can1  595FF71   [8]  05 80 60 09 60 09 FB 5D
 (1.6820)  can1  596FF71   [8]  FE 7F FF FF FF FF F3 4D
 (1.6870)  can1  1949FF71   [8]  0D 80 00 0D A0 00 36 70
 (1.6870)  can1  194AFF71   [8]  3A 67 58 86 65 58 37 73
 (1.6880)  can1  194BFF71   [8]  8B F5 FF FF FF FF 38 B4
 (1.6890)  can1  194CFF71   [8]  FF FF FF FF FF FF 39 33
 (1.6890)  can1  4100209   [8]  A3 35 13 00 00 00 00 00
 (1.6890)  can1  4100208   [8]  22 10 13 00 00 00 00 00
 (1.6910)  can1  89A0C02   [8]  00 00 00 00 00 00 00 00
 (1.6920)  can1  8030C02   [8]  00 00 2A 68 2A 68 92 17
 (1.6920)  can1  8580C02   [8]  FF FF FF FF 00 00 00 00
 (1.6920)  can1  597FF71   [8]  08 08 E0 0F FF FF FE E0
 (1.6930)  can1  598FF71   [8]  40 01 78 FF FF FF FE CA
 (1.6950)  can1  585FF72   [8]  04 80 60 09 60 09 F2 09
 (1.6950)  can1  586FF72   [8]  02 80 FF FF FF FF F6 63
 (1.6960)  can1  1949FF72   [8]  0D 80 00 0D A0 00 36 70
 (1.6960)  can1  194AFF72   [8]  70 07 58 7A 75 57 37 4C
 (1.6970)  can1  194BFF72   [8]  7D F5 FF FF FF FF 38 A6
 (1.6970)  can1  8100302   [5]  01 00 0A 00 14
 (1.6980)  can1  194CFF72   [8]  FF FF FF FF FF FF 39 33
 (1.6980)  can1  8101201   [8]  B3 62 9E 8D DD 89 5A 00
 (1.6980)  can1  8010C01   [8]  32 62 00 00 00 00 00 00
 (1.6990)  can1  4100209   [8]  A3 35 13 00 00 00 00 00
 (1.6990)  can1  4100208   [8]  22 10 13 00 00 00 00 00
 (1.7020)  can1  595FF71   [8]  05 80 60 09 60 09 FC 5D
 (1.7020)  can1  596FF71   [8]  00 80 FF FF FF FF F4 CB
 (1.7050)  can1  18800401   [8]  07 67 8D 49 8D 07 8D 00
 (1.7060)  can1  18840401   [8]  07 80 8D 62 8D 20 8D 00
 (1.7060)  can1  18C00401   [8]  07 77 31 AB 30 71 31 00
 (1.7080)  can1  4100209   [8]  A3 35 13 00 00 00 00 00
 (1.7090)  can1  4100208   [8]  22 10 13 00 00 00 00 00
 (1.7110)  can1  5807202   [8]  04 80 00 00 E0 01 09 3C
 (1.7120)  can1  5817202   [8]  01 00 10 27 10 27 0C E3
 (1.7120)  can1  5907102   [8]  05 80 00 00 E0 01 09 68
 (1.7130)  can1  5917102   [8]  01 00 10 27 10 27 0C E3
 (1.7130)  can1  5827202   [8]  FA 00 00 00 00 00 09 D4
 (1.7140)  can1  5927102   [8]  FA 00 00 00 00 00 09 D4
 (1.7140)  can1  5837202   [8]  2C 41 06 00 00 00 09 E0
 (1.7140)  can1  5847270   [8]  00 00 00 00 00 00 09 9F
 (1.7150)  can1  5937102   [8]  2C 41 06 00 00 00 09 E0
 (1.7150)  can1  5947102   [8]  00 00 00 00 00 00 09 9F
 (1.7160)  can1  8580C02   [8]  00 00 01 00 00 00 00 00
 (1.7160)  can1  89A0C02   [8]  00 00 00 00 99 17 00 00
 (1.7170)  can1  585FF72   [8]  04 80 60 09 60 09 F3 09
 (1.7170)  can1  586FF72   [8]  FC 7F FF FF FF FF F7 E5
 (1.7170)  can1  8030C02   [8]  00 00 2A 68 2A 68 92 17
 (1.7180)  can1  4100209   [8]  A3 35 13 00 00 00 00 00
 (1.7190)  can1  4100208   [8]  22 10 13 00 00 00 00 00
 (1.7210)  can1  8100302   [5]  01 00 0A 00 14
 (1.7220)  can1  595FF71   [8]  05 80 60 09 60 09 FD 5D
 (1.7220)  can1  596FF71   [8]  01 80 FF FF FF FF F5 9F
 (1.7250)  can1  588FF72   [8]  C0 01 52 FF FF FF FF 22
 (1.7250)  can1  589FF72   [8]  1A E0 02 82 02 00 FF D1
 (1.7280)  can1  4100209   [8]  A3 35 13 00 00 00 00 00
 (1.7290)  can1  4100208   [8]  22 10 13 00 00 00 00 00
 (1.7310)  can1  89A0C02   [8]  CC 0B 00 00 00 00 00 00
 (1.7320)  can1  8030C02   [8]  00 00 2A 68 2A 68 92 17
 (1.7320)  can1  8580C02   [8]  00 00 FE FF 00 00 00 00
 (1.7350)  can1  585FF72   [8]  04 80 60 09 60 09 F4 09
 (1.7350)  can1  586FF72   [8]  FC 7F FF FF FF FF F8 E5
 (1.7380)  can1  4100209   [8]  A3 35 13 00 00 00 00 00
 (1.7390)  can1  4100208   [8]  22 10 13 00 00 00 00 00
 (1.7420)  can1  595FF71   [8]  05 80 60 09 60 09 FE 5D
 (1.7420)  can1  596FF71   [8]  01 80 FF FF FF FF F6 9F
 (1.7460)  can1  8100302   [5]  01 00 0A 00 14
 (1.7480)  can1  4100209   [8]  A3 35 13 00 00 00 00 00
 (1.7490)  can1  4100208   [8]  22 10 13 00 00 00 00 00
 (1.7510)  can1  89A0C02   [8]  CC 0B 00 00 00 00 00 00
 (1.7520)  can1  8030C02   [8]  00 00 2A 68 2A 68 92 17
 (1.7520)  can1  8580C02   [8]  00 00 FE FF 00 00 00 00
 (1.7530)  can1  8041001   [8]  02 02 00 32 04 B7 3B 00
 (1.7550)  can1  585FF72   [8]  04 80 60 09 60 09 F5 09
 (1.7550)  can1  586FF72   [8]  02 80 FF FF FF FF F9 63
 (1.7560)  can1  18800401   [8]  08 EC 8C FA 89 76 8D 00
 (1.7570)  can1  18840401   [8]  08 06 8D 08 8A 8F 8D 00
 (1.7570)  can1  18C00401   [8]  08 5D 30 62 31 0C 30 00
 (1.7580)  can1  4100209   [8]  A3 35 13 00 00 00 00 00
 (1.7590)  can1  4100208   [8]  22 10 13 00 00 00 00 00
 (1.7620)  can1  595FF71   [8]  05 80 60 09 60 09 FF 5D
 (1.7620)  can1  596FF71   [8]  FD 7F FF FF FF FF F7 B1
 (1.7630)  can1  599FF71   [8]  1A E0 02 82 02 00 FF D1
 (1.7650)  can1  587FF72   [8]  03 08 C3 0F FF FF FF FE
 (1.7680)  can1  4100209   [8]  A3 35 13 00 00 00 00 00
 (1.7690)  can1  4100208   [8]  22 10 13 00 00 00 00 00
 (1.7710)  can1  5807202   [8]  04 80 00 00 E0 01 0A 3C
 (1.7720)  can1  5817202   [8]  01 00 10 27 10 27 0D E3
 (1.7730)  can1  5907102   [8]  05 80 00 00 E0 01 0A 68
 (1.7730)  can1  5917102   [8]  01 00 10 27 10 27 0D E3
 (1.7740)  can1  5827202   [8]  FA 00 00 00 00 00 0A D4
 (1.7740)  can1  5927102   [8]  FA 00 00 00 00 00 0A D4
 (1.7740)  can1  5837202   [8]  2C 41 06 00 00 00 0A E0
 (1.7750)  can1  5847270   [8]  00 00 00 00 00 00 0A 9F
 (1.7750)  can1  5937102   [8]  2C 41 06 00 00 00 0A E0
 (1.7750)  can1  5947102   [8]  00 00 00 00 00 00 0A 9F
 (1.7760)  can1  8100302   [5]  01 00 0A 00 14
 (1.7760)  can1  89A0C02   [8]  00 00 00 00 99 17 00 00
 (1.7760)  can1  585FF72   [8]  04 80 60 09 60 09 F6 09
 (1.7770)  can1  586FF72   [8]  FF 7F FF FF FF FF FA 19
 (1.7770)  can1  8030C02   [8]  00 00 2A 68 2A 68 92 17
 (1.7770)  can1  8580C02   [8]  FE FF 01 00 00 00 00 00
 (1.7780)  can1  4100209   [8]  A3 35 13 00 00 00 00 00
 (1.7790)  can1  4100208   [8]  22 10 13 00 00 00 00 00
 (1.7820)  can1  595FF71   [8]  05 80 60 09 60 09 F0 5D
 (1.7820)  can1  596FF71   [8]  01 80 FF FF FF FF F8 9F
 (1.7880)  can1  4100209   [8]  A3 35 13 00 00 00 00 00
 (1.7890)  can1  4100208   [8]  22 10 13 00 00 00 00 00
 (1.7910)  can1  89A0C02   [8]  CC 0B 00 00 00 00 00 00
 (1.7920)  can1  8030C02   [8]  00 00 2A 68 2A 68 92 17
 (1.7920)  can1  597FF71   [8]  0A 08 DD 0F FF FF FF D6
 (1.7920)  can1  598FF71   [8]  40 01 78 FF FF FF FF CA
 (1.7930)  can1  8580C02   [8]  00 00 00 00 00 00 00 00
 (1.7950)  can1  585FF72   [8]  04 80 60 09 60 09 F7 09
 (1.7950)  can1  586FF72   [8]  01 80 FF FF FF FF FB 9F
 (1.7960)  can1  8100302   [5]  01 00 0A 00 14
 (1.7980)  can1  4100209   [8]  A3 35 13 00 00 00 00 00
 (1.7990)  can1  8010C01   [8]  33 62 00 00 00 00 00 00
 (1.8000)  can1  8101201   [8]  AF 62 9F 8D DD 89 57 00
 (1.8000)  can1  4100208   [8]  22 10 13 00 00 00 00 00
 (1.8020)  can1  595FF71   [8]  05 80 60 09 60 09 F1 5D
 (1.8020)  can1  596FF71   [8]  FE 7F FF FF FF FF F9 4D
 (1.8050)  can1  18800401   [8]  09 61 8D 2F 8D 13 8D 00
 (1.8060)  can1  18840401   [8]  09 7B 8D 49 8D 2C 8D 00
 (1.8060)  can1  18C00401   [8]  09 D1 30 E0 2F BD 30 00
 (1.8080)  can1  4100209   [8]  A3 35 13 00 00 00 00 00
 (1.8090)  can1  4100208   [8]  22 10 13 00 00 00 00 00
 (1.8110)  can1  89A0C02   [8]  00 00 00 00 CC 0B 00 00
 (1.8120)  can1  8030C02   [8]  00 00 2A 68 2A 68 92 17
 (1.8120)  can1  8580C02   [8]  FF FF 00 00 00 00 00 00
 (1.8150)  can1  585FF72   [8]  04 80 60 09 60 09 F8 09
 (1.8160)  can1  586FF72   [8]  FE 7F FF FF FF FF FC 4D
 (1.8180)  can1  4100209   [8]  A3 35 13 00 00 00 00 00
 (1.8190)  can1  4100208   [8]  22 10 13 00 00 00 00 00
 (1.8210)  can1  8100302   [5]  01 00 0A 00 14
 (1.8220)  can1  595FF71   [8]  05 80 60 09 60 09 F2 5D
 (1.8220)  can1  596FF71   [8]  00 80 FF FF FF FF FA CB
 (1.8250)  can1  588FF72   [8]  C0 01 52 FF FF FF F0 22
 (1.8250)  can1  589FF72   [8]  1A E0 02 82 02 00 F0 D1
 (1.8280)  can1  4100209   [8]  A3 35 13 00 00 00 00 00
 (1.8290)  can1  4100208   [8]  22 10 13 00 00 00 00 00
 (1.8310)  can1  5807202   [8]  04 80 00 00 E0 01 0B 3C
 (1.8320)  can1  5817202   [8]  01 00 10 27 10 27 0E E3
 (1.8320)  can1  5907102   [8]  05 80 00 00 E0 01 0B 68
 (1.8320)  can1  5917102   [8]  01 00 10 27 10 27 0E E3
 (1.8330)  can1  5827202   [8]  FA 00 00 00 00 00 0B D4
 (1.8340)  can1  5927102   [8]  FA 00 00 00 00 00 0B D4
 (1.8340)  can1  5837202   [8]  2C 41 06 00 00 00 0B E0
 (1.8350)  can1  5847270   [8]  00 00 00 00 00 00 0B 9F
 (1.8350)  can1  5937102   [8]  2C 41 06 00 00 00 0B E0
 (1.8350)  can1  5947102   [8]  00 00 00 00 00 00 0B 9F
 (1.8360)  can1  8580C02   [8]  00 00 FF FF 00 00 00 00
 (1.8360)  can1  89A0C02   [8]  00 00 00 00 00 00 00 00
 (1.8360)  can1  585FF72   [8]  04 80 60 09 60 09 F9 09
 (1.8370)  can1  586FF72   [8]  01 80 FF FF FF FF FD 9F
 (1.8370)  can1  8030C02   [8]  00 00 2A 68 2A 68 92 17
 (1.8380)  can1  4100209   [8]  A3 35 13 00 00 00 00 00
 (1.8390)  can1  4100208   [8]  22 10 13 00 00 00 00 00
 (1.8420)  can1  595FF71   [8]  05 80 60 09 60 09 F3 5D
 (1.8420)  can1  596FF71   [8]  FF 7F FF FF FF FF FB 19
 (1.8460)  can1  8100302   [5]  01 00 0A 00 14
 (1.8480)  can1  4100209   [8]  A3 35 13 00 00 00 00 00
 (1.8490)  can1  4100208   [8]  22 10 13 00 00 00 00 00
 (1.8510)  can1  89A0C02   [8]  00 00 00 00 CC 0B 00 00
 (1.8510)  can1  8030C02   [8]  00 00 2A 68 2A 68 92 17
 (1.8520)  can1  8580C02   [8]  00 00 00 00 00 00 00 00
 (1.8530)  can1  8041001   [8]  02 02 00 32 04 B7 3B 00
 (1.8550)  can1  585FF72   [8]  04 80 60 09 60 09 FA 09
 (1.8550)  can1  586FF72   [8]  01 80 FF FF FF FF FE 9F
 (1.8560)  can1  18800401   [8]  0A C3 8C FF 8C 26 8D 00
 (1.8560)  can1  18840401   [8]  0A DE 8C 17 8D 3F 8D 00
 (1.8570)  can1  18C00401   [8]  0A BA 30 5B 31 F2 30 00
 (1.8580)  can1  4100209   [8]  A3 35 13 00 00 00 00 00
 (1.8590)  can1  4100208   [8]  22 10 13 00 00 00 00 00
 (1.8620)  can1  595FF71   [8]  05 80 60 09 60 09 F4 5D
 (1.8620)  can1  596FF71   [8]  01 80 FF FF FF FF FC 9F
 (1.8620)  can1  599FF71   [8]  1A E0 02 82 02 00 F0 D1
 (1.8650)  can1  587FF72   [8]  02 08 C1 0F FF FF F0 EF
 (1.8680)  can1  4100209   [8]  A3 35 13 00 00 00 00 00
 (1.8690)  can1  4100208   [8]  22 10 13 00 00 00 00 00
 (1.8710)  can1  8100302   [5]  01 00 0A 00 14
 (1.8710)  can1  8580C02   [8]  00 00 00 00 00 00 00 00
 (1.8720)  can1  89A0C02   [8]  CC 0B 00 00 CC 0B 00 00
 (1.8720)  can1  8030C02   [8]  00 00 2A 68 2A 68 92 17
 (1.8750)  can1  585FF72   [8]  04 80 60 09 60 09 FB 09
 (1.8750)  can1  586FF72   [8]  FE 7F FF FF FF FF FF 4D
 (1.8780)  can1  4100209   [8]  A3 35 13 00 00 00 00 00
 (1.8790)  can1  4100208   [8]  22 10 13 00 00 00 00 00
 (1.8820)  can1  595FF71   [8]  05 80 60 09 60 09 F5 5D
 (1.8820)  can1  596FF71   [8]  02 80 FF FF FF FF FD 63
 (1.8880)  can1  4100209   [8]  A3 35 13 00 00 00 00 00
 (1.8890)  can1  4100208   [8]  22 10 13 00 00 00 00 00
 (1.8910)  can1  5807202   [8]  04 80 00 00 E0 01 0C 3C
 (1.8920)  can1  5817202   [8]  01 00 10 27 10 27 0F E3
 (1.8920)  can1  5907102   [8]  05 80 00 00 E0 01 0C 68
 (1.8920)  can1  597FF71   [8]  0D 08 DD 0F FF FF F0 55
 (1.8930)  can1  5827202   [8]  FA 00 00 00 00 00 0C D4
 (1.8930)  can1  5917102   [8]  01 00 10 27 10 27 0F E3
 (1.8930)  can1  5927102   [8]  FA 00 00 00 00 00 0C D4
 (1.8940)  can1  5837202   [8]  2C 41 06 00 00 00 0C E0
 (1.8940)  can1  5937102   [8]  2C 41 06 00 00 00 0C E0
 (1.8950)  can1  598FF71   [8]  50 01 77 FF FF FF F0 58
 (1.8950)  can1  5847270   [8]  00 00 00 00 00 00 0C 9F
 (1.8960)  can1  5947102   [8]  00 00 00 00 00 00 0C 9F
 (1.8960)  can1  585FF72   [8]  04 80 60 09 60 09 FC 09
 (1.8970)  can1  586FF72   [8]  01 80 FF FF FF FF F0 9F
 (1.8970)  can1  8030C02   [8]  00 00 2A 68 2A 68 92 17
 (1.8970)  can1  8580C02   [8]  01 00 FF FF 00 00 00 00
 (1.8970)  can1  89A0C02   [8]  99 17 00 00 00 00 00 00
 (1.8980)  can1  8100302   [5]  01 00 0A 00 14
 (1.8980)  can1  4100209   [8]  A3 35 13 00 00 00 00 00
 (1.8990)  can1  4100208   [8]  22 10 13 00 00 00 00 00
 (1.9000)  can1  8010C01   [8]  34 62 00 00 00 00 00 00
 (1.9000)  can1  8101201   [8]  B1 62 9D 8D DD 89 67 00
 (1.9020)  can1  595FF71   [8]  05 80 60 09 60 09 F6 5D
 (1.9020)  can1  596FF71   [8]  00 80 FF FF FF FF FE CB
 (1.9050)  can1  18800401   [8]  0B 51 8D 4E 8D 5D 8D 00
 (1.9060)  can1  18840401   [8]  0B 6A 8D 67 8D 77 8D 00
 (1.9060)  can1  18C00401   [8]  0B 97 31 F9 30 87 31 00
 (1.9080)  can1  4100209   [8]  A3 35 13 00 00 00 00 00
 (1.9090)  can1  4100208   [8]  22 10 13 00 00 00 00 00
 (1.9110)  can1  89A0C02   [8]  00 00 00 00 CC 0B 00 00
 (1.9120)  can1  8030C02   [8]  00 00 2A 68 2A 68 92 17
 (1.9120)  can1  8580C02   [8]  00 00 00 00 00 00 00 00
 (1.9150)  can1  585FF72   [8]  04 80 60 09 60 09 FD 09
 (1.9150)  can1  586FF72   [8]  01 80 FF FF FF FF F1 9F
 (1.9160)  can1  1948FF72   [8]  00 C0 00 55 FF FF 3A 4D
 (1.9180)  can1  4100209   [8]  A3 35 13 00 00 00 00 00
 (1.9190)  can1  4100208   [8]  22 10 13 00 00 00 00 00
 (1.9210)  can1  8100302   [5]  01 00 0A 00 14
 (1.9220)  can1  595FF71   [8]  05 80 60 09 60 09 F7 5D
 (1.9220)  can1  596FF71   [8]  02 80 FF FF FF FF FF 63
 (1.9250)  can1  588FF72   [8]  C0 01 52 FF FF FF F1 22
 (1.9250)  can1  589FF72   [8]  1A E0 02 82 02 00 F1 D1
 (1.9280)  can1  4100209   [8]  A3 35 13 00 00 00 00 00
 (1.9290)  can1  4100208   [8]  22 10 13 00 00 00 00 00
 (1.9310)  can1  89A0C02   [8]  99 17 00 00 CC 0B 00 00
 (1.9320)  can1  8030C02   [8]  00 00 2A 68 2A 68 92 17
 (1.9320)  can1  8580C02   [8]  01 00 00 00 00 00 00 00
 (1.9320)  can1  1948FF71   [8]  00 C0 00 55 FF FF 3A 4D
 (1.9350)  can1  585FF72   [8]  04 80 60 09 60 09 FE 09
 (1.9350)  can1  586FF72   [8]  FF 7F FF FF FF FF F2 19
 (1.9380)  can1  4100209   [8]  A3 35 13 00 00 00 00 00
 (1.9390)  can1  4100208   [8]  22 10 13 00 00 00 00 00
 (1.9420)  can1  595FF71   [8]  05 80 60 09 60 09 F8 5D
 (1.9420)  can1  596FF71   [8]  02 80 FF FF FF FF F0 63
 (1.9420)  can1  1949FF71   [8]  0D 80 00 0D 90 00 3B 65
 (1.9430)  can1  194AFF71   [8]  3A 67 58 86 65 58 3C 78
 (1.9430)  can1  194BFF71   [8]  88 F5 FF FF FF FF 3D B6
 (1.9440)  can1  194CFF71   [8]  FF FF FF FF FF FF 3E 38
 (1.9460)  can1  8100302   [5]  01 00 0A 00 14
 (1.9480)  can1  4100209   [8]  A3 35 13 00 00 00 00 00
 (1.9490)  can1  4100208   [8]  22 10 13 00 00 00 00 00
 (1.9500)  can1  1949FF72   [8]  0D 80 00 0D 90 00 3B 65
 (1.9500)  can1  194AFF72   [8]  70 07 58 77 A5 57 3C 7E
 (1.9510)  can1  194BFF72   [8]  7A F5 FF FF FF FF 3D A8
 (1.9510)  can1  194CFF72   [8]  FF FF FF FF FF FF 3E 38
 (1.9520)  can1  5807202   [8]  04 80 00 00 E0 01 0D 3C
 (1.9520)  can1  5817202   [8]  01 00 10 27 10 27 00 E3
 (1.9530)  can1  5907102   [8]  05 80 00 00 E0 01 0D 68
 (1.9530)  can1  5917102   [8]  01 00 10 27 10 27 00 E3
 (1.9540)  can1  5827202   [8]  FA 00 00 00 00 00 0D D4
 (1.9540)  can1  5927102   [8]  FA 00 00 00 00 00 0D D4
 (1.9550)  can1  8041001   [8]  02 02 00 32 04 B7 3B 00
 (1.9550)  can1  5837202   [8]  2C 41 06 00 00 00 0D E0
 (1.9560)  can1  5847270   [8]  00 00 00 00 00 00 0D 9F
 (1.9560)  can1  5937102   [8]  2C 41 06 00 00 00 0D E0
 (1.9570)  can1  5947102   [8]  00 00 00 00 00 00 0D 9F
 (1.9570)  can1  89A0C02   [8]  99 17 00 00 00 00 00 00
 (1.9570)  can1  585FF72   [8]  04 80 60 09 60 09 FF 09
 (1.9580)  can1  586FF72   [8]  00 80 FF FF FF FF F3 CB
 (1.9580)  can1  8030C02   [8]  00 00 2A 68 2A 68 92 17
 (1.9580)  can1  8580C02   [8]  01 00 00 00 00 00 00 00
 (1.9580)  can1  18800401   [8]  0C 50 8D 08 8D 01 8D 00
 (1.9590)  can1  18840401   [8]  0C 69 8D 21 8D 1A 8D 00
 (1.9590)  can1  18C00401   [8]  0C CC 30 3F 31 84 30 00
 (1.9590)  can1  4100209   [8]  A3 35 13 00 00 00 00 00
 (1.9590)  can1  4100208   [8]  22 10 13 00 00 00 00 00
 (1.9620)  can1  595FF71   [8]  05 80 60 09 60 09 F9 5D
 (1.9620)  can1  596FF71   [8]  03 80 FF FF FF FF F1 37
 (1.9620)  can1  599FF71   [8]  1A E0 02 82 02 00 F1 D1
 (1.9650)  can1  587FF72   [8]  03 08 C1 0F FF FF F1 BB
 (1.9680)  can1  4100209   [8]  A3 35 13 00 00 00 00 00
 (1.9690)  can1  4100208   [8]  22 10 13 00 00 00 00 00
 (1.9710)  can1  8100302   [5]  01 00 0A 00 14
 (1.9720)  can1  8580C02   [8]  02 00 00 00 00 00 00 00
 (1.9720)  can1  89A0C02   [8]  66 23 00 00 00 00 00 00
 (1.9730)  can1  8030C02   [8]  00 00 2A 68 2A 68 92 17
 (1.9750)  can1  585FF72   [8]  04 80 60 09 60 09 F0 09
 (1.9750)  can1  586FF72   [8]  FF 7F FF FF FF FF F4 19
 (1.9780)  can1  4100209   [8]  A3 35 13 00 00 00 00 00
 (1.9790)  can1  4100208   [8]  22 10 13 00 00 00 00 00
 (1.9820)  can1  595FF71   [8]  05 80 60 09 60 09 FA 5D
 (1.9820)  can1  596FF71   [8]  FF 7F FF FF FF FF F2 19
 (1.9880)  can1  4100209   [8]  A3 35 13 00 00 00 00 00
 (1.9890)  can1  4100208   [8]  22 10 13 00 00 00 00 00
 (1.9910)  can1  89A0C02   [8]  00 00 00 00 00 00 00 00
 (1.9920)  can1  8030C02   [8]  00 00 2A 68 2A 68 92 17
 (1.9920)  can1  597FF71   [8]  0A 08 E0 0F FF FF F1 48
 (1.9930)  can1  598FF71   [8]  50 01 77 FF FF FF F1 58
 (1.9930)  can1  8580C02   [8]  00 00 00 00 00 00 00 00
 (1.9950)  can1  585FF72   [8]  04 80 60 09 60 09 F1 09
 (1.9950)  can1  586FF72   [8]  FF 7F FF FF FF FF F5 19
 (1.9960)  can1  8100302   [5]  01 00 0A 00 14
 (1.9980)  can1  4100209   [8]  A3 35 13 00 00 00 00 00
 (1.9990)  can1  4100208   [8]  22 10 13 00 00 00 00 00
 (2.0000)  can1  8101201   [8]  B7 62 9F 8D DD 89 54 00
 (2.0010)  can1  8010C01   [8]  37 62 00 00 00 00 00 00
 (2.0020)  can1  595FF71   [8]  05 80 60 09 60 09 FB 5D
 (2.0020)  can1  596FF71   [8]  00 80 FF FF FF FF F3 CB
 (2.0050)  can1  18800401   [8]  0D 25 8D 53 8D 35 8D 00
 (2.0060)  can1  18840401   [8]  0D 3D 8D 6C 8D 4F 8D 00
 (2.0060)  can1  18C00401   [8]  0D E4 30 B5 2F F6 2F 00
 (2.0080)  can1  4100209   [8]  A3 35 13 00 00 00 00 00
 (2.0090)  can1  4100208   [8]  22 10 13 00 00 00 00 00
 (2.0110)  can1  5807202   [8]  04 80 00 00 E0 01 0E 3C
 (2.0120)  can1  5817202   [8]  01 00 10 27 10 27 01 E3
 (2.0120)  can1  5907102   [8]  05 80 00 00 E0 01 0E 68
 (2.0130)  can1  5917102   [8]  01 00 10 27 10 27 01 E3
 (2.0140)  can1  5827202   [8]  FA 00 00 00 00 00 0E D4
 (2.0140)  can1  5927102   [8]  FA 00 00 00 00 00 0E D4
 (2.0150)  can1  5837202   [8]  2C 41 06 00 00 00 0E E0
 (2.0160)  can1  5847270   [8]  00 00 00 00 00 00 0E 9F
 (2.0160)  can1  5937102   [8]  2C 41 06 00 00 00 0E E0
 (2.0170)  can1  5947102   [8]  00 00 00 00 00 00 0E 9F
 (2.0170)  can1  8580C02   [8]  00 00 00 00 00 00 00 00
 (2.0170)  can1  89A0C02   [8]  00 00 00 00 00 00 00 00
 (2.0180)  can1  585FF72   [8]  04 80 60 09 60 09 F2 09
 (2.0280)  can1  586FF72   [8]  FF 7F FF FF FF FF F6 19
 (2.0290)  can1  8030C02   [8]  00 00 2A 68 2A 68 92 17
 (2.0290)  can1  4100209   [8]  A3 35 13 00 00 00 00 00
 (2.0300)  can1  4100208   [8]  22 10 13 00 00 00 00 00
 (2.0300)  can1  8100302   [5]  01 00 0A 00 14
 (2.0300)  can1  595FF71   [8]  05 80 60 09 60 09 FC 5D
 (2.0300)  can1  596FF71   [8]  00 80 FF FF FF FF F4 CB
 (2.0310)  can1  588FF72   [8]  C0 01 52 FF FF FF F2 22
 (2.0310)  can1  589FF72   [8]  1A E0 02 82 02 00 F2 D1
 (2.0310)  can1  4100209   [8]  A3 35 13 00 00 00 00 00
 (2.0320)  can1  4100208   [8]  22 10 13 00 00 00 00 00
 (2.0320)  can1  89A0C02   [8]  00 00 00 00 00 00 00 00
 (2.0330)  can1  8030C02   [8]  00 00 2A 68 2A 68 92 17
 (2.0330)  can1  8580C02   [8]  00 00 00 00 00 00 00 00
 (2.0350)  can1  585FF72   [8]  04 80 60 09 60 09 F3 09
 (2.0350)  can1  586FF72   [8]  00 80 FF FF FF FF F7 CB
 (2.0380)  can1  4100209   [8]  A3 35 13 00 00 00 00 00
 (2.0390)  can1  4100208   [8]  22 10 13 00 00 00 00 00
 (2.0420)  can1  595FF71   [8]  05 80 60 09 60 09 FD 5D
 (2.0420)  can1  596FF71   [8]  FE 7F FF FF FF FF F5 4D
 (2.0460)  can1  8100302   [5]  01 00 0A 00 14
 (2.0480)  can1  4100209   [8]  A3 35 13 00 00 00 00 00
 (2.0490)  can1  4100208   [8]  22 10 13 00 00 00 00 00
 (2.0510)  can1  89A0C02   [8]  00 00 00 00 00 00 00 00
 (2.0520)  can1  8030C02   [8]  00 00 2A 68 2A 68 92 17
 (2.0520)  can1  8580C02   [8]  FF FF 00 00 00 00 00 00
 (2.0530)  can1  8041001   [8]  02 02 00 32 04 B7 3B 00
 (2.0550)  can1  585FF72   [8]  04 80 60 09 60 09 F4 09
 (2.0550)  can1  586FF72   [8]  FE 7F FF FF FF FF F8 4D
 (2.0560)  can1  18800401   [8]  0E FD 8C EA 8C A8 8C 00
 (2.0560)  can1  18840401   [8]  0E 12 8D 01 8D C4 8C 00
 (2.0560)  can1  18C00401   [8]  0E 75 2F 92 30 7B 30 00
 (2.0580)  can1  4100209   [8]  A3 35 13 00 00 00 00 00
 (2.0590)  can1  4100208   [8]  22 10 13 00 00 00 00 00
 (2.0620)  can1  595FF71   [8]  05 80 60 09 60 09 FE 5D
 (2.0620)  can1  596FF71   [8]  FD 7F FF FF FF FF F6 B1
 (2.0620)  can1  599FF71   [8]  1A E0 02 82 02 00 F2 D1
 (2.0650)  can1  587FF72   [8]  01 08 C3 0F FF FF F2 56
 (2.0680)  can1  4100209   [8]  A3 35 13 00 00 00 00 00
 (2.0690)  can1  4100208   [8]  22 10 13 00 00 00 00 00
 (2.0710)  can1  5807202   [8]  04 80 00 00 E0 01 0F 3C
 (2.0720)  can1  5817202   [8]  01 00 10 27 10 27 02 E3
 (2.0730)  can1  5907102   [8]  05 80 00 00 E0 01 0F 68
 (2.0730)  can1  5917102   [8]  01 00 10 27 10 27 02 E3
 (2.0730)  can1  5827202   [8]  FA 00 00 00 00 00 0F D4
 (2.0740)  can1  5927102   [8]  FA 00 00 00 00 00 0F D4
 (2.0740)  can1  5837202   [8]  2C 41 06 00 00 00 0F E0
 (2.0750)  can1  5847270   [8]  00 00 00 00 00 00 0F 9F
 (2.0750)  can1  5937102   [8]  2C 41 06 00 00 00 0F E0
 (2.0760)  can1  5947102   [8]  00 00 00 00 00 00 0F 9F
 (2.0760)  can1  8100302   [5]  01 00 0A 00 14
 (2.0770)  can1  89A0C02   [8]  00 00 00 00 00 00 00 00
 (2.0770)  can1  585FF72   [8]  04 80 60 09 60 09 F5 09
 (2.0780)  can1  586FF72   [8]  01 80 FF FF FF FF F9 9F
 (2.0780)  can1  8030C02   [8]  00 00 2A 68 2A 68 92 17
 (2.0780)  can1  8580C02   [8]  FE FF FF FF 00 00 00 00
 (2.0790)  can1  4100209   [8]  A3 35 13 00 00 00 00 00
 (2.0790)  can1  4100208   [8]  22 10 13 00 00 00 00 00
 (2.0820)  can1  595FF71   [8]  05 80 60 09 60 09 FF 5D
 (2.0820)  can1  596FF71   [8]  FE 7F FF FF FF FF F7 4D
 (2.0880)  can1  4100209   [8]  A3 35 13 00 00 00 00 00
 (2.0890)  can1  4100208   [8]  22 10 13 00 00 00 00 00
 (2.0910)  can1  89A0C02   [8]  00 00 00 00 CC 0B 00 00
 (2.0920)  can1  8030C02   [8]  00 00 2A 68 2A 68 92 17
 (2.0920)  can1  597FF71   [8]  0A 08 E0 0F FF FF F2 48
 (2.0920)  can1  598FF71   [8]  50 01 77 FF FF FF F2 58
 (2.0930)  can1  8580C02   [8]  FF FF 00 00 00 00 00 00
 (2.0950)  can1  585FF72   [8]  04 80 60 09 60 09 F6 09
 (2.0950)  can1  586FF72   [8]  FF 7F FF FF FF FF FA 19
 (2.0960)  can1  8100302   [5]  01 00 0A 00 14
 (2.0980)  can1  4100209   [8]  A3 35 13 00 00 00 00 00
 (2.0990)  can1  4100208   [8]  22 10 13 00 00 00 00 00
 (2.1010)  can1  8101201   [8]  B3 62 9F 8D DE 89 5E 00
 (2.1020)  can1  595FF71   [8]  05 80 60 09 60 09 F0 5D
 (2.1030)  can1  596FF71   [8]  FD 7F FF FF FF FF F8 B1
 (2.1030)  can1  8010C01   [8]  34 62 00 00 00 00 00 00
 (2.1050)  can1  18101203   [4]  FE 2C 22 08
 (2.1050)  can1  18800401   [8]  0F 63 8C 06 8D 32 8D 00
 (2.1060)  can1  18840401   [8]  0F 7A 8C 19 8D 4A 8D 00
 (2.1060)  can1  18C00401   [8]  0F 2F 31 C7 30 78 31 00
 (2.1080)  can1  4100209   [8]  A3 35 13 00 00 00 00 00
 (2.1090)  can1  4100208   [8]  22 10 13 00 00 00 00 00
 (2.1110)  can1  89A0C02   [8]  00 00 00 00 00 00 00 00
 (2.1120)  can1  8030C02   [8]  00 00 2A 68 2A 68 92 17
 (2.1120)  can1  8580C02   [8]  FE FF 00 00 00 00 00 00
 (2.1150)  can1  585FF72   [8]  04 80 60 09 60 09 F7 09
 (2.1150)  can1  586FF72   [8]  00 80 FF FF FF FF FB CB
 (2.1180)  can1  4100209   [8]  A3 35 13 00 00 00 00 00
 (2.1190)  can1  4100208   [8]  22 10 13 00 00 00 00 00
 (2.1210)  can1  8100302   [5]  01 00 0A 00 14
 (2.1220)  can1  595FF71   [8]  05 80 60 09 60 09 F1 5D
 (2.1220)  can1  596FF71   [8]  FF 7F FF FF FF FF F9 19
 (2.1250)  can1  588FF72   [8]  C0 01 52 FF FF FF F3 22
 (2.1250)  can1  528FF72   [8]  02 00 48 00 00 00 45 00
 (2.1250)  can1  529FF72   [8]  F5 FF 49 00 0B 00 04 00
 (2.1260)  can1  52CFF72   [8]  00 00 EF FF EF FF 3A 00
 (2.1260)  can1  589FF72   [8]  1A E0 02 82 02 00 F3 D1
 (2.1280)  can1  4100209   [8]  A3 35 13 00 00 00 00 00
 (2.1290)  can1  4100208   [8]  22 10 13 00 00 00 00 00
 (2.1310)  can1  5807202   [8]  04 80 00 00 E0 01 00 3C
 (2.1320)  can1  5817202   [8]  01 00 10 27 10 27 03 E3
 (2.1320)  can1  528FF71   [8]  FE FF 5A 00 00 00 56 00
 (2.1330)  can1  529FF71   [8]  0E 00 4B 00 0B 00 05 00
 (2.1330)  can1  52CFF71   [8]  00 00 EF FF EF FF 3A 00
 (2.1330)  can1  5827202   [8]  FA 00 00 00 00 00 00 D4
 (2.1340)  can1  5907102   [8]  05 80 00 00 E0 01 00 68
 (2.1340)  can1  5917102   [8]  01 00 10 27 10 27 03 E3
 (2.1340)  can1  5927102   [8]  FA 00 00 00 00 00 00 D4
 (2.1350)  can1  5837202   [8]  2C 41 06 00 00 00 00 E0
 (2.1350)  can1  5847270   [8]  00 00 00 00 00 00 00 9F
 (2.1360)  can1  5937102   [8]  2C 41 06 00 00 00 00 E0
 (2.1360)  can1  585FF72   [8]  04 80 60 09 60 09 F8 09
 (2.1370)  can1  586FF72   [8]  00 80 FF FF FF FF FC CB
 (2.1370)  can1  5947102   [8]  00 00 00 00 00 00 00 9F
 (2.1370)  can1  8580C02   [8]  00 00 00 00 00 00 00 00
 (2.1370)  can1  89A0C02   [8]  00 00 00 00 00 00 00 00
 (2.1380)  can1  8030C02   [8]  00 00 2A 68 2A 68 92 17
 (2.1380)  can1  4100209   [8]  A3 35 13 00 00 00 00 00
 (2.1390)  can1  4100208   [8]  22 10 13 00 00 00 00 00
 (2.1420)  can1  595FF71   [8]  05 80 60 09 60 09 F2 5D
 (2.1420)  can1  596FF71   [8]  00 80 FF FF FF FF FA CB
 (2.1460)  can1  8100302   [5]  01 00 0A 00 14
 (2.1480)  can1  4100209   [8]  A3 35 13 00 00 00 00 00
 (2.1490)  can1  4100208   [8]  22 10 13 00 00 00 00 00
 (2.1510)  can1  89A0C02   [8]  00 00 00 00 00 00 00 00
 (2.1520)  can1  8030C02   [8]  00 00 2A 68 2A 68 92 17
 (2.1520)  can1  8580C02   [8]  00 00 00 00 00 00 00 00
 (2.1530)  can1  8041001   [8]  02 02 00 32 04 B7 3B 00
 (2.1550)  can1  585FF72   [8]  04 80 60 09 60 09 F9 09
 (2.1550)  can1  586FF72   [8]  FF 7F FF FF FF FF FD 19
 (2.1550)  can1  18800401   [8]  10 2C 8D 31 8D 1E 8D 00
 (2.1560)  can1  18840401   [8]  10 45 8D 4A 8D 38 8D 00
 (2.1560)  can1  18C00401   [8]  10 D4 30 85 31 7F 30 00
 (2.1580)  can1  4100209   [8]  A3 35 13 00 00 00 00 00
 (2.1590)  can1  4100208   [8]  22 10 13 00 00 00 00 00
 (2.1620)  can1  595FF71   [8]  05 80 60 09 60 09 F3 5D
 (2.1620)  can1  596FF71   [8]  02 80 FF FF FF FF FB 63
 (2.1620)  can1  599FF71   [8]  1A E0 02 82 02 00 F3 D1
 (2.1650)  can1  587FF72   [8]  00 08 C1 0F FF FF F3 47
 (2.1680)  can1  4100209   [8]  A3 35 13 00 00 00 00 00
 (2.1690)  can1  4100208   [8]  22 10 13 00 00 00 00 00
 (2.1700)  can1  1948FF72   [8]  00 C0 00 55 FF FF 3F 52
 (2.1710)  can1  8100302   [5]  01 00 0A 00 14
 (2.1710)  can1  8580C02   [8]  01 00 00 00 00 00 00 00
 (2.1720)  can1  89A0C02   [8]  99 17 00 00 00 00 00 00
 (2.1720)  can1  8030C02   [8]  00 00 2A 68 2A 68 92 17
 (2.1750)  can1  585FF72   [8]  04 80 60 09 60 09 FA 09
 (2.1760)  can1  586FF72   [8]  02 80 FF FF FF FF FE 63
 (2.1780)  can1  4100209   [8]  A3 35 13 00 00 00 00 00
 (2.1790)  can1  4100208   [8]  22 10 13 00 00 00 00 00
 (2.1820)  can1  595FF71   [8]  05 80 60 09 60 09 F4 5D
 (2.1820)  can1  596FF71   [8]  00 80 FF FF FF FF FC CB
 (2.1870)  can1  1948FF71   [8]  00 C0 00 55 FF FF 3F 52
 (2.1880)  can1  4100209   [8]  A3 35 13 00 00 00 00 00
 (2.1890)  can1  4100208   [8]  22 10 13 00 00 00 00 00
 (2.1910)  can1  5807202   [8]  04 80 00 00 E0 01 01 3C
 (2.1920)  can1  5817202   [8]  01 00 10 27 10 27 04 E3
 (2.1920)  can1  5907102   [8]  05 80 00 00 E0 01 01 68
 (2.1920)  can1  597FF71   [8]  0F 08 DD 0F FF FF F3 FD
 (2.1930)  can1  5827202   [8]  FA 00 00 00 00 00 01 D4
 (2.1930)  can1  5917102   [8]  01 00 10 27 10 27 04 E3
 (2.1940)  can1  5927102   [8]  FA 00 00 00 00 00 01 D4
 (2.1940)  can1  5837202   [8]  2C 41 06 00 00 00 01 E0
 (2.1940)  can1  5937102   [8]  2C 41 06 00 00 00 01 E0
 (2.1950)  can1  598FF71   [8]  50 01 77 FF FF FF F3 58
 (2.1960)  can1  5847270   [8]  00 00 00 00 00 00 01 9F
 (2.1960)  can1  5947102   [8]  00 00 00 00 00 00 01 9F
 (2.1960)  can1  89A0C02   [8]  00 00 00 00 99 17 00 00
 (2.1970)  can1  585FF72   [8]  04 80 60 09 60 09 FB 09
 (2.1970)  can1  586FF72   [8]  01 80 FF FF FF FF FF 9F
 (2.1980)  can1  8030C02   [8]  00 00 2A 68 2A 68 92 17
 (2.1980)  can1  8580C02   [8]  00 00 01 00 00 00 00 00
 (2.1980)  can1  8100302   [5]  01 00 0A 00 14
 (2.1980)  can1  1949FF71   [8]  0C 80 00 0D C0 00 40 99
 (2.1990)  can1  194AFF71   [8]  3A 67 58 86 65 58 41 7D
 (2.1990)  can1  194BFF71   [8]  8B F5 FF FF FF FF 42 BE
 (2.1990)  can1  194CFF71   [8]  FF FF FF FF FF FF 43 3D
 (2.2000)  can1  4100209   [8]  A3 35 13 00 00 00 00 00
 (2.2000)  can1  4100208   [8]  22 10 13 00 00 00 00 00
 (2.2020)  can1  595FF71   [8]  05 80 60 09 60 09 F5 5D
 (2.2020)  can1  596FF71   [8]  FD 7F FF FF FF FF FD B1
 (2.2030)  can1  8101201   [8]  B5 62 A1 8D DE 89 5E 00
 (2.2030)  can1  8010C01   [8]  37 62 00 00 00 00 00 00
 (2.2050)  can1  1949FF72   [8]  0D 80 00 0D 90 00 40 6A
 (2.2050)  can1  194AFF72   [8]  70 77 57 77 55 57 41 A2
 (2.2050)  can1  194BFF72   [8]  77 F5 FF FF FF FF 42 AA
 (2.2060)  can1  18800401   [8]  11 DE 8C C1 8C F4 8C 00
 (2.2060)  can1  18840401   [8]  11 F9 8C DC 8C 10 8D 00
 (2.2070)  can1  18C00401   [8]  11 60 31 31 30 17 31 00
 (2.2070)  can1  194CFF72   [8]  FF FF FF FF FF FF 43 3D
 (2.2080)  can1  4100209   [8]  A3 35 13 00 00 00 00 00
 (2.2090)  can1  4100208   [8]  22 10 13 00 00 00 00 00
 (2.2110)  can1  89A0C02   [8]  00 00 00 00 CC 0B 00 00
 (2.2120)  can1  8030C02   [8]  00 00 2A 68 2A 68 92 17
 (2.2120)  can1  8580C02   [8]  FE FF 00 00 00 00 00 00
 (2.2150)  can1  585FF72   [8]  04 80 60 09 60 09 FC 09
 (2.2150)  can1  586FF72   [8]  00 80 FF FF FF FF F0 CB
 (2.2180)  can1  4100209   [8]  A3 35 13 00 00 00 00 00
 (2.2190)  can1  4100208   [8]  22 10 13 00 00 00 00 00
 (2.2210)  can1  8100302   [5]  01 00 0A 00 14
 (2.2220)  can1  595FF71   [8]  05 80 60 09 60 09 F6 5D
 (2.2220)  can1  596FF71   [8]  01 80 FF FF FF FF FE 9F
 (2.2250)  can1  588FF72   [8]  C0 01 52 FF FF FF F4 22
 (2.2250)  can1  589FF72   [8]  1A E0 02 82 02 00 F4 D1
 (2.2280)  can1  4100209   [8]  A3 35 13 00 00 00 00 00
 (2.2290)  can1  4100208   [8]  22 10 13 00 00 00 00 00
 (2.2310)  can1  89A0C02   [8]  CC 0B 00 00 00 00 00 00
 (2.2320)  can1  8030C02   [8]  00 00 2A 68 2A 68 92 17
 (2.2320)  can1  8580C02   [8]  00 00 00 00 00 00 00 00
 (2.2350)  can1  585FF72   [8]  04 80 60 09 60 09 FD 09
 (2.2360)  can1  586FF72   [8]  02 80 FF FF FF FF F1 63
 (2.2380)  can1  4100209   [8]  A3 35 13 00 00 00 00 00
 (2.2390)  can1  4100208   [8]  22 10 13 00 00 00 00 00
 (2.2420)  can1  595FF71   [8]  05 80 60 09 60 09 F7 5D
 (2.2420)  can1  596FF71   [8]  FD 7F FF FF FF FF FF B1
 (2.2460)  can1  8100302   [5]  01 00 0A 00 14
 (2.2480)  can1  4100209   [8]  A3 35 13 00 00 00 00 00
 (2.2490)  can1  4100208   [8]  22 10 13 00 00 00 00 00
 (2.2510)  can1  5807202   [8]  04 80 00 00 E0 01 02 3C
 (2.2520)  can1  5817202   [8]  01 00 10 27 10 27 05 E3
 (2.2520)  can1  5907102   [8]  05 80 00 00 E0 01 02 68
 (2.2520)  can1  5917102   [8]  01 00 10 27 10 27 05 E3
 (2.2530)  can1  5827202   [8]  FA 00 00 00 00 00 02 D4
 (2.2540)  can1  5927102   [8]  FA 00 00 00 00 00 02 D4
 (2.2540)  can1  8041001   [8]  02 02 00 32 04 B7 3B 00
 (2.2540)  can1  5837202   [8]  2C 41 06 00 00 00 02 E0
 (2.2550)  can1  5847270   [8]  00 00 00 00 00 00 02 9F
 (2.2550)  can1  5937102   [8]  2C 41 06 00 00 00 02 E0
 (2.2560)  can1  5947102   [8]  00 00 00 00 00 00 02 9F
 (2.2560)  can1  8580C02   [8]  FE FF 01 00 00 00 00 00
 (2.2560)  can1  89A0C02   [8]  00 00 00 00 99 17 00 00
 (2.2570)  can1  585FF72   [8]  04 80 60 09 60 09 FE 09
 (2.2570)  can1  586FF72   [8]  FE 7F FF FF FF FF F2 4D
 (2.2580)  can1  8030C02   [8]  00 00 2A 68 2A 68 92 17
 (2.2580)  can1  18800401   [8]  12 44 8D 2F 8D F7 8C 00
 (2.2580)  can1  18840401   [8]  12 5F 8D 4A 8D 11 8D 00
 (2.2590)  can1  18C00401   [8]  12 6A 30 97 2F 44 2F 00
 (2.2590)  can1  4100209   [8]  A3 35 13 00 00 00 00 00
 (2.2590)  can1  4100208   [8]  22 10 13 00 00 00 00 00
 (2.2620)  can1  595FF71   [8]  05 80 60 09 60 09 F8 5D
 (2.2620)  can1  596FF71   [8]  00 80 FF FF FF FF F0 CB
 (2.2620)  can1  599FF71   [8]  1A E0 02 82 02 00 F4 D1
 (2.2650)  can1  587FF72   [8]  04 08 C3 0F FF FF F4 7D
 (2.2690)  can1  4100209   [8]  A3 35 13 00 00 00 00 00
 (2.2690)  can1  4100208   [8]  22 10 13 00 00 00 00 00
 (2.2710)  can1  8100302   [5]  01 00 0A 00 14
 (2.2710)  can1  8580C02   [8]  00 00 FF FF 00 00 00 00
 (2.2720)  can1  89A0C02   [8]  00 00 00 00 00 00 00 00
 (2.2720)  can1  8030C02   [8]  00 00 2A 68 2A 68 92 17
 (2.2750)  can1  585FF72   [8]  04 80 60 09 60 09 FF 09
 (2.2750)  can1  586FF72   [8]  FE 7F FF FF FF FF F3 4D
 (2.2780)  can1  4100209   [8]  A3 35 13 00 00 00 00 00
 (2.2790)  can1  4100208   [8]  22 10 13 00 00 00 00 00
 (2.2820)  can1  595FF71   [8]  05 80 60 09 60 09 F9 5D
 (2.2820)  can1  596FF71   [8]  00 80 FF FF FF FF F1 CB
 (2.2880)  can1  4100209   [8]  A3 35 13 00 00 00 00 00
 (2.2890)  can1  4100208   [8]  22 10 13 00 00 00 00 00
 (2.2910)  can1  89A0C02   [8]  00 00 00 00 00 00 00 00
 (2.2920)  can1  8030C02   [8]  00 00 2A 68 2A 68 92 17
 (2.2920)  can1  8580C02   [8]  00 00 FF FF 00 00 00 00
 (2.2920)  can1  597FF71   [8]  0C 08 DD 0F FF FF F4 01
 (2.2930)  can1  598FF71   [8]  50 01 77 FF FF FF F4 58
 (2.2950)  can1  585FF72   [8]  04 80 60 09 60 09 F0 09
 (2.2960)  can1  586FF72   [8]  01 80 FF FF FF FF F4 9F
 (2.2960)  can1  8100302   [5]  01 00 0A 00 14
 (2.2980)  can1  4100209   [8]  A3 35 13 00 00 00 00 00
 (2.2990)  can1  4100208   [8]  22 10 13 00 00 00 00 00
 (2.3020)  can1  595FF71   [8]  05 80 60 09 60 09 FA 5D
 (2.3020)  can1  596FF71   [8]  FE 7F FF FF FF FF F2 4D
 (2.3030)  can1  8101201   [8]  B4 62 9D 8D DE 89 58 00
 (2.3040)  can1  8010C01   [8]  35 62 00 00 00 00 00 00
 (2.3050)  can1  18800401   [8]  13 F5 8C C8 8C DF 8C 00
 (2.3060)  can1  18840401   [8]  13 10 8D D4 8C FB 8C 00
 (2.3060)  can1  18C00401   [8]  13 14 30 25 30 C7 30 00
 (2.3080)  can1  4100209   [8]  A3 35 13 00 00 00 00 00
 (2.3090)  can1  4100208   [8]  22 10 13 00 00 00 00 00
 (2.3110)  can1  5807202   [8]  04 80 00 00 E0 01 03 3C
 (2.3120)  can1  5817202   [8]  01 00 10 27 10 27 06 E3
 (2.3120)  can1  5907102   [8]  05 80 00 00 E0 01 03 68
 (2.3130)  can1  5917102   [8]  01 00 10 27 10 27 06 E3
 (2.3130)  can1  5827202   [8]  FA 00 00 00 00 00 03 D4
 (2.3140)  can1  5927102   [8]  FA 00 00 00 00 00 03 D4
 (2.3140)  can1  5837202   [8]  2C 41 06 00 00 00 03 E0
 (2.3150)  can1  5847270   [8]  00 00 00 00 00 00 03 9F
 (2.3150)  can1  5937102   [8]  2C 41 06 00 00 00 03 E0
 (2.3150)  can1  5947102   [8]  00 00 00 00 00 00 03 9F
 (2.3160)  can1  8580C02   [8]  FF FF 00 00 00 00 00 00
 (2.3160)  can1  89A0C02   [8]  00 00 00 00 CC 0B 00 00
 (2.3160)  can1  585FF72   [8]  04 80 60 09 60 09 F1 09
 (2.3170)  can1  586FF72   [8]  FF 7F FF FF FF FF F5 19
 (2.3170)  can1  8030C02   [8]  00 00 2A 68 2A 68 92 17
 (2.3180)  can1  4100209   [8]  A3 35 13 00 00 00 00 00
 (2.3190)  can1  4100208   [8]  22 10 13 00 00 00 00 00
 (2.3210)  can1  8100302   [5]  01 00 0A 00 14
 (2.3220)  can1  595FF71   [8]  05 80 60 09 60 09 FB 5D
 (2.3220)  can1  596FF71   [8]  00 80 FF FF FF FF F3 CB
 (2.3250)  can1  588FF72   [8]  C0 01 52 FF FF FF F5 22
 (2.3250)  can1  589FF72   [8]  1A E0 02 82 02 00 F5 D1
 (2.3280)  can1  4100209   [8]  A3 35 13 00 00 00 00 00
 (2.3290)  can1  4100208   [8]  22 10 13 00 00 00 00 00
 (2.3310)  can1  89A0C02   [8]  00 00 00 00 00 00 00 00
 (2.3320)  can1  8030C02   [8]  00 00 2A 68 2A 68 92 17
 (2.3320)  can1  8580C02   [8]  00 00 00 00 00 00 00 00
 (2.3350)  can1  585FF72   [8]  04 80 60 09 60 09 F2 09
 (2.3350)  can1  586FF72   [8]  FF 7F FF FF FF FF F6 19
 (2.3380)  can1  4100209   [8]  A3 35 13 00 00 00 00 00
 (2.3390)  can1  4100208   [8]  22 10 13 00 00 00 00 00
 (2.3420)  can1  595FF71   [8]  05 80 60 09 60 09 FC 5D
 (2.3420)  can1  596FF71   [8]  02 80 FF FF FF FF F4 63
 (2.3460)  can1  8100302   [5]  01 00 0A 00 14
 (2.3480)  can1  4100209   [8]  A3 35 13 00 00 00 00 00
 (2.3490)  can1  4100208   [8]  22 10 13 00 00 00 00 00
 (2.3510)  can1  89A0C02   [8]  99 17 00 00 00 00 00 00
 (2.3520)  can1  8030C02   [8]  00 00 2A 68 2A 68 92 17
 (2.3520)  can1  8580C02   [8]  01 00 00 00 00 00 00 00
 (2.3530)  can1  8041001   [8]  02 02 00 32 04 B7 3B 00
 (2.3550)  can1  585FF72   [8]  04 80 60 09 60 09 F3 09
 (2.3550)  can1  586FF72   [8]  00 80 FF FF FF FF F7 CB
 (2.3550)  can1  18800401   [8]  14 1B 8D 2F 8D 32 8D 00
 (2.3560)  can1  18840401   [8]  14 33 8D 4C 8D 4B 8D 00
 (2.3560)  can1  18C00401   [8]  14 54 30 E2 30 58 30 00
 (2.3580)  can1  4100209   [8]  A3 35 13 00 00 00 00 00
 (2.3600)  can1  4100208   [8]  22 10 13 00 00 00 00 00
 (2.3620)  can1  595FF71   [8]  05 80 60 09 60 09 FD 5D
 (2.3620)  can1  596FF71   [8]  00 80 FF FF FF FF F5 CB
 (2.3620)  can1  599FF71   [8]  1A E0 02 82 02 00 F5 D1
 (2.3650)  can1  587FF72   [8]  FE 07 C6 0F FF FF F5 C0
 (2.3680)  can1  4100209   [8]  A3 35 13 00 00 00 00 00
 (2.3690)  can1  4100208   [8]  22 10 13 00 00 00 00 00
 (2.3710)  can1  5807202   [8]  04 80 00 00 E0 01 04 3C
 (2.3720)  can1  5817202   [8]  01 00 10 27 10 27 07 E3
 (2.3720)  can1  5907102   [8]  05 80 00 00 E0 01 04 68
 (2.3720)  can1  5917102   [8]  01 00 10 27 10 27 07 E3
 (2.3730)  can1  5827202   [8]  FA 00 00 00 00 00 04 D4
 (2.3740)  can1  5927102   [8]  FA 00 00 00 00 00 04 D4
 (2.3740)  can1  5837202   [8]  2C 41 06 00 00 00 04 E0
 (2.3750)  can1  5847270   [8]  00 00 00 00 00 00 04 9F
 (2.3750)  can1  5937102   [8]  2C 41 06 00 00 00 04 E0
 (2.3750)  can1  5947102   [8]  00 00 00 00 00 00 04 9F
 (2.3760)  can1  8100302   [5]  01 00 0A 00 14
 (2.3760)  can1  89A0C02   [8]  00 00 00 00 00 00 00 00
 (2.3770)  can1  585FF72   [8]  04 80 60 09 60 09 F4 09
 (2.3770)  can1  586FF72   [8]  FE 7F FF FF FF FF F8 4D
 (2.3770)  can1  8030C02   [8]  00 00 2A 68 2A 68 92 17
 (2.3770)  can1  8580C02   [8]  00 00 00 00 00 00 00 00
 (2.3780)  can1  4100209   [8]  A3 35 13 00 00 00 00 00
 (2.3800)  can1  4100208   [8]  22 10 13 00 00 00 00 00
 (2.3820)  can1  595FF71   [8]  05 80 60 09 60 09 FE 5D
 (2.3820)  can1  596FF71   [8]  FF 7F FF FF FF FF F6 19
 (2.3880)  can1  4100209   [8]  A3 35 13 00 00 00 00 00
 (2.3890)  can1  4100208   [8]  22 10 13 00 00 00 00 00
 (2.3910)  can1  89A0C02   [8]  00 00 00 00 00 00 00 00
 (2.3920)  can1  8030C02   [8]  00 00 2A 68 2A 68 92 17
 (2.3920)  can1  8580C02   [8]  00 00 FF FF 00 00 00 00
 (2.3920)  can1  597FF71   [8]  09 08 DD 0F FF FF F5 2A
 (2.3930)  can1  598FF71   [8]  50 01 77 FF FF FF F5 58
 (2.3950)  can1  585FF72   [8]  04 80 60 09 60 09 F5 09
 (2.3950)  can1  586FF72   [8]  01 80 FF FF FF FF F9 9F
 (2.3960)  can1  8100302   [5]  01 00 0A 00 14
 (2.3980)  can1  4100209   [8]  A3 35 13 00 00 00 00 00
 (2.3990)  can1  4100208   [8]  22 10 13 00 00 00 00 00
 (2.4020)  can1  595FF71   [8]  05 80 60 09 60 09 FF 5D
 (2.4020)  can1  596FF71   [8]  00 80 FF FF FF FF F7 CB
 (2.4040)  can1  8101201   [8]  B2 62 A1 8D DF 89 59 00
 (2.4050)  can1  8010C01   [8]  34 62 00 00 00 00 00 00
 (2.4060)  can1  18800401   [8]  15 56 8D 38 8D F7 8C 00
 (2.4060)  can1  18840401   [8]  15 72 8D 55 8D 14 8D 00
 (2.4070)  can1  18C00401   [8]  15 FA 30 0F 30 CC 30 00
 (2.4080)  can1  4100209   [8]  A3 35 13 00 00 00 00 00
 (2.4090)  can1  4100208   [8]  22 10 13 00 00 00 00 00
 (2.4110)  can1  89A0C02   [8]  00 00 00 00 CC 0B 00 00
 (2.4110)  can1  8030C02   [8]  00 00 2A 68 2A 68 92 17
 (2.4120)  can1  8580C02   [8]  00 00 00 00 00 00 00 00
 (2.4150)  can1  585FF72   [8]  04 80 60 09 60 09 F6 09
 (2.4150)  can1  586FF72   [8]  00 80 FF FF FF FF FA CB
 (2.4180)  can1  4100209   [8]  A3 35 13 00 00 00 00 00
 (2.4190)  can1  4100208   [8]  22 10 13 00 00 00 00 00
 (2.4210)  can1  8100302   [5]  01 00 0A 00 14
 (2.4220)  can1  595FF71   [8]  05 80 60 09 60 09 F0 5D
 (2.4220)  can1  596FF71   [8]  FF 7F FF FF FF FF F8 19
 (2.4250)  can1  588FF72   [8]  C0 01 52 FF FF FF F6 22
 (2.4260)  can1  589FF72   [8]  1A E0 02 82 02 00 F6 D1
 (2.4260)  can1  1948FF72   [8]  00 C0 00 55 FF FF 44 57
 (2.4280)  can1  4100209   [8]  A3 35 13 00 00 00 00 00
 (2.4290)  can1  4100208   [8]  22 10 13 00 00 00 00 00
 (2.4310)  can1  5807202   [8]  04 80 00 00 E0 01 05 3C
 (2.4320)  can1  5817202   [8]  01 00 10 27 10 27 08 E3
 (2.4320)  can1  5907102   [8]  05 80 00 00 E0 01 05 68
 (2.4320)  can1  5917102   [8]  01 00 10 27 10 27 08 E3
 (2.4330)  can1  5827202   [8]  FA 00 00 00 00 00 05 D4
 (2.4330)  can1  5927102   [8]  FA 00 00 00 00 00 05 D4
 (2.4340)  can1  5837202   [8]  2C 41 06 00 00 00 05 E0
 (2.4350)  can1  5847270   [8]  00 00 00 00 00 00 05 9F
 (2.4350)  can1  5937102   [8]  2C 41 06 00 00 00 05 E0
 (2.4350)  can1  5947102   [8]  00 00 00 00 00 00 05 9F
 (2.4360)  can1  8580C02   [8]  00 00 00 00 00 00 00 00
 (2.4360)  can1  89A0C02   [8]  00 00 00 00 00 00 00 00
 (2.4360)  can1  585FF72   [8]  04 80 60 09 60 09 F7 09
 (2.4370)  can1  586FF72   [8]  FE 7F FF FF FF FF FB 4D
 (2.4370)  can1  8030C02   [8]  00 00 2A 68 2A 68 92 17
 (2.4380)  can1  4100209   [8]  A3 35 13 00 00 00 00 00
 (2.4390)  can1  4100208   [8]  22 10 13 00 00 00 00 00
 (2.4420)  can1  595FF71   [8]  05 80 60 09 60 09 F1 5D
 (2.4420)  can1  596FF71   [8]  02 80 FF FF FF FF F9 63
 (2.4430)  can1  1948FF71   [8]  00 C0 00 55 FF FF 44 57
 (2.4460)  can1  8100302   [5]  01 00 0A 00 14
 (2.4490)  can1  4100209   [8]  A3 35 13 00 00 00 00 00
 (2.4490)  can1  4100208   [8]  22 10 13 00 00 00 00 00
 (2.4510)  can1  89A0C02   [8]  99 17 00 00 00 00 00 00
 (2.4520)  can1  8030C02   [8]  00 00 2A 68 2A 68 92 17
 (2.4520)  can1  8580C02   [8]  01 00 FF FF 00 00 00 00
 (2.4520)  can1  1949FF71   [8]  0D 80 00 0D A0 00 45 7F
 (2.4530)  can1  194AFF71   [8]  3A D7 57 83 65 58 46 EE
 (2.4530)  can1  194BFF71   [8]  86 F5 FF FF FF FF 47 BE
 (2.4530)  can1  194CFF71   [8]  FF FF FF FF FF FF 48 42
 (2.4540)  can1  8041001   [8]  02 02 00 32 04 B7 3B 00
 (2.4550)  can1  585FF72   [8]  04 80 60 09 60 09 F8 09
 (2.4550)  can1  586FF72   [8]  01 80 FF FF FF FF FC 9F
 (2.4550)  can1  18800401   [8]  16 DC 8C 27 8D 50 8D 00
 (2.4560)  can1  18840401   [8]  16 F5 8C 3C 8D 6A 8D 00
 (2.4570)  can1  18C00401   [8]  16 FE 2F 7B 30 82 2F 00
 (2.4580)  can1  4100209   [8]  A3 35 13 00 00 00 00 00
 (2.4590)  can1  4100208   [8]  22 10 13 00 00 00 00 00
 (2.4600)  can1  1949FF72   [8]  0D 80 00 0C A0 00 45 7E
 (2.4600)  can1  194AFF72   [8]  70 77 57 77 75 57 46 C7
 (2.4610)  can1  194BFF72   [8]  77 F5 FF FF FF FF 47 AF
 (2.4610)  can1  194CFF72   [8]  FF FF FF FF FF FF 48 42
 (2.4620)  can1  595FF71   [8]  05 80 60 09 60 09 F2 5D
 (2.4620)  can1  596FF71   [8]  FF 7F FF FF FF FF FA 19
 (2.4620)  can1  599FF71   [8]  1A E0 02 82 02 00 F6 D1
 (2.4650)  can1  587FF72   [8]  02 08 C3 0F FF FF F6 AA
 (2.4680)  can1  4100209   [8]  A3 35 13 00 00 00 00 00
 (2.4690)  can1  4100208   [8]  22 10 13 00 00 00 00 00
 (2.4710)  can1  8100302   [5]  01 00 0A 00 14
 (2.4720)  can1  8580C02   [8]  00 00 00 00 00 00 00 00
 (2.4720)  can1  89A0C02   [8]  00 00 00 00 CC 0B 00 00
 (2.4720)  can1  8030C02   [8]  00 00 2A 68 2A 68 92 17
 (2.4750)  can1  585FF72   [8]  04 80 60 09 60 09 F9 09
 (2.4750)  can1  586FF72   [8]  00 80 FF FF FF FF FD CB
 (2.4780)  can1  4100209   [8]  A3 35 13 00 00 00 00 00
 (2.4790)  can1  4100208   [8]  22 10 13 00 00 00 00 00
 (2.4820)  can1  595FF71   [8]  05 80 60 09 60 09 F3 5D
 (2.4820)  can1  596FF71   [8]  00 80 FF FF FF FF FB CB
 (2.4880)  can1  4100209   [8]  A3 35 13 00 00 00 00 00
 (2.4890)  can1  4100208   [8]  22 10 13 00 00 00 00 00
 (2.4910)  can1  5807202   [8]  04 80 00 00 E0 01 06 3C
 (2.4920)  can1  5817202   [8]  01 00 10 27 10 27 09 E3
 (2.4920)  can1  5907102   [8]  05 80 00 00 E0 01 06 68
 (2.4930)  can1  597FF71   [8]  07 08 DD 0F FF FF F6 03
 (2.4930)  can1  5827202   [8]  FA 00 00 00 00 00 06 D4
 (2.4940)  can1  5917102   [8]  01 00 10 27 10 27 09 E3
 (2.4940)  can1  5927102   [8]  FA 00 00 00 00 00 06 D4
 (2.4940)  can1  5837202   [8]  2C 41 06 00 00 00 06 E0
 (2.4950)  can1  5937102   [8]  2C 41 06 00 00 00 06 E0
 (2.4950)  can1  598FF71   [8]  40 01 78 FF FF FF F6 CA
 (2.4950)  can1  5847270   [8]  00 00 00 00 00 00 06 9F
 (2.4960)  can1  5947102   [8]  00 00 00 00 00 00 06 9F
 (2.4960)  can1  89A0C02   [8]  00 00 00 00 00 00 00 00
 (2.4970)  can1  585FF72   [8]  04 80 60 09 60 09 FA 09
 (2.4970)  can1  586FF72   [8]  00 80 FF FF FF FF FE CB
 (2.4980)  can1  8030C02   [8]  00 00 2A 68 2A 68 92 17
 (2.4980)  can1  8580C02   [8]  00 00 00 00 00 00 00 00
 (2.4980)  can1  8100302   [5]  01 00 0A 00 14
 (2.4980)  can1  4100209   [8]  A3 35 13 00 00 00 00 00
 (2.4990)  can1  4100208   [8]  22 10 13 00 00 00 00 00
 (2.5020)  can1  595FF71   [8]  05 80 60 09 60 09 F4 5D
 (2.5020)  can1  596FF71   [8]  FE 7F FF FF FF FF FC 4D
 (2.5050)  can1  404FF03   [1]  00
 (2.5050)  can1  8101201   [8]  B3 62 9E 8D DF 89 59 00
 (2.5060)  can1  8010C01   [8]  35 62 00 00 00 00 00 00
 (2.5060)  can1  18800401   [8]  17 39 8D 00 00 00 00 00
 (2.5070)  can1  18840401   [8]  17 54 8D 00 00 00 00 00
 (2.5070)  can1  18C00401   [8]  17 B0 2F 10 27 10 27 00
 (2.5080)  can1  8250C03   [8]  50 00 12 01 00 00 51 00
 (2.5080)  can1  8840C03   [8]  49 00 13 00 20 00 07 00
 (2.5090)  can1  88D0C03   [8]  2B 00 00 00 5D 00 67 00
 (2.5090)  can1  4100209   [8]  A3 35 13 00 00 00 00 00
 (2.5090)  can1  4100208   [8]  22 10 13 00 00 00 00 00
 (2.5110)  can1  89A0C02   [8]  00 00 00 00 00 00 00 00
 (2.5120)  can1  8030C02   [8]  00 00 2A 68 2A 68 92 17
 (2.5120)  can1  8580C02   [8]  FF FF 00 00 00 00 00 00
 (2.5150)  can1  585FF72   [8]  04 80 60 09 60 09 FB 09
 (2.5150)  can1  586FF72   [8]  00 80 FF FF FF FF FF CB
 (2.5180)  can1  4100209   [8]  A3 35 13 00 00 00 00 00
 (2.5190)  can1  4100208   [8]  22 10 13 00 00 00 00 00
 (2.5210)  can1  8100302   [5]  01 00 0A 00 14
 (2.5220)  can1  595FF71   [8]  05 80 60 09 60 09 F5 5D
 (2.5220)  can1  596FF71   [8]  FE 7F FF FF FF FF FD 4D
 (2.5250)  can1  588FF72   [8]  C0 01 52 FF FF FF F7 22
 (2.5260)  can1  589FF72   [8]  1A E0 02 82 02 00 F7 D1
 (2.5280)  can1  4100209   [8]  A3 35 13 00 00 00 00 00
 (2.5290)  can1  4100208   [8]  22 10 13 00 00 00 00 00
 (2.5310)  can1  89A0C02   [8]  00 00 00 00 00 00 00 00
 (2.5320)  can1  8030C02   [8]  00 00 2A 68 2A 68 92 17
 (2.5320)  can1  8580C02   [8]  FF FF 00 00 00 00 00 00
 (2.5330)  can1  404FF07   [1]  00
 (2.5350)  can1  585FF72   [8]  04 80 60 09 60 09 FC 09
 (2.5350)  can1  586FF72   [8]  FE 7F FF FF FF FF F0 4D
 (2.5380)  can1  4100209   [8]  A3 35 13 00 00 00 00 00
 (2.5390)  can1  4100208   [8]  22 10 13 00 00 00 00 00
 (2.5420)  can1  595FF71   [8]  05 80 60 09 60 09 F6 5D
 (2.5420)  can1  596FF71   [8]  FD 7F FF FF FF FF FE B1
 (2.5460)  can1  8100302   [5]  01 00 0A 00 14
 (2.5480)  can1  4100209   [8]  A3 35 13 00 00 00 00 00
 (2.5490)  can1  4100208   [8]  22 10 13 00 00 00 00 00
 (2.5510)  can1  5807202   [8]  04 80 00 00 E0 01 07 3C
 (2.5520)  can1  5817202   [8]  01 00 10 27 10 27 0A E3
 (2.5520)  can1  5907102   [8]  05 80 00 00 E0 01 07 68
 (2.5520)  can1  5917102   [8]  01 00 10 27 10 27 0A E3
 (2.5530)  can1  5827202   [8]  FA 00 00 00 00 00 07 D4
 (2.5530)  can1  5927102   [8]  FA 00 00 00 00 00 07 D4
 (2.5530)  can1  404FF01   [1]  00
 (2.5540)  can1  5837202   [8]  2C 41 06 00 00 00 07 E0
 (2.5540)  can1  5847270   [8]  00 00 00 00 00 00 07 9F
 (2.5540)  can1  5937102   [8]  2C 41 06 00 00 00 07 E0
 (2.5550)  can1  8041001   [8]  02 02 00 32 04 B7 3B 00
 (2.5560)  can1  5947102   [8]  00 00 00 00 00 00 07 9F
 (2.5560)  can1  8580C02   [8]  FE FF FF FF 00 00 00 00
 (2.5560)  can1  585FF72   [8]  04 80 60 09 60 09 FD 09
 (2.5570)  can1  586FF72   [8]  FF 7F FF FF FF FF F1 19
 (2.5570)  can1  8030C02   [8]  00 00 2A 68 2A 68 92 17
 (2.5570)  can1  80F1201   [4]  F0 0F 00 00
 (2.5580)  can1  8120C01   [8]  01 00 00 00 00 00 00 00
 (2.5580)  can1  89A0C02   [8]  00 00 00 00 00 00 00 00
 (2.5580)  can1  18800401   [8]  00 A0 8D B1 8C 69 8C 00
 (2.5580)  can1  18840401   [8]  00 B7 8D CB 8C 87 8C 00
 (2.5590)  can1  18C00401   [8]  00 4D 30 65 2F D8 30 00
 (2.5590)  can1  4100209   [8]  A3 35 13 00 00 00 00 00
 (2.5590)  can1  4100208   [8]  22 10 13 00 00 00 00 00
 (2.5620)  can1  595FF71   [8]  05 80 60 09 60 09 F7 5D
 (2.5620)  can1  596FF71   [8]  01 80 FF FF FF FF FF 9F
 (2.5630)  can1  599FF71   [8]  1A E0 02 82 02 00 F7 D1
 (2.5650)  can1  587FF72   [8]  05 08 C6 0F FF FF F7 16
 (2.5680)  can1  4100209   [8]  A3 35 13 00 00 00 00 00
 (2.5690)  can1  4100208   [8]  22 10 13 00 00 00 00 00
 (2.5710)  can1  404FF02   [1]  00
 (2.5710)  can1  8100302   [5]  01 00 0A 00 14
 (2.5720)  can1  8580C02   [8]  00 00 00 00 00 00 00 00
 (2.5720)  can1  89A0C02   [8]  CC 0B 00 00 00 00 00 00
 (2.5720)  can1  8030C02   [8]  00 00 2A 68 2A 68 92 17
 (2.5750)  can1  585FF72   [8]  04 80 60 09 60 09 FE 09
 (2.5750)  can1  586FF72   [8]  01 80 FF FF FF FF F2 9F
 (2.5780)  can1  4100209   [8]  A3 35 13 00 00 00 00 00
 (2.5790)  can1  4100208   [8]  22 10 13 00 00 00 00 00
 (2.5820)  can1  595FF71   [8]  05 80 60 09 60 09 F8 5D
 (2.5820)  can1  596FF71   [8]  FF 7F FF FF FF FF F0 19
 (2.5880)  can1  4100209   [8]  A3 35 13 00 00 00 00 00
 (2.5890)  can1  4100208   [8]  22 10 13 00 00 00 00 00
 (2.5910)  can1  89A0C02   [8]  00 00 00 00 CC 0B 00 00
 (2.5910)  can1  8030C02   [8]  00 00 2A 68 2A 68 92 17
 (2.5920)  can1  597FF71   [8]  0B 08 DD 0F FF FF F7 82
 (2.5920)  can1  598FF71   [8]  50 01 77 FF FF FF F7 58
 (2.5930)  can1  8580C02   [8]  00 00 00 00 00 00 00 00
 (2.5950)  can1  585FF72   [8]  04 80 60 09 60 09 FF 09
 (2.5950)  can1  586FF72   [8]  02 80 FF FF FF FF F3 63
 (2.5960)  can1  8100302   [5]  01 00 0A 00 14
 (2.5980)  can1  4100209   [8]  A3 35 13 00 00 00 00 00
 (2.5990)  can1  4100208   [8]  22 10 13 00 00 00 00 00
 (2.6020)  can1  595FF71   [8]  05 80 60 09 60 09 F9 5D
 (2.6020)  can1  596FF71   [8]  FC 7F FF FF FF FF F1 E5
 (2.6050)  can1  18101203   [4]  EA 2C 96 08
 (2.6060)  can1  18800401   [8]  01 95 8C D3 8C CB 8C 00
 (2.6060)  can1  18840401   [8]  01 AC 8C E9 8C E3 8C 00
 (2.6060)  can1  18C00401   [8]  01 39 30 0D 31 78 30 00
 (2.6070)  can1  8101201   [8]  B3 62 A0 8D DD 89 58 00
 (2.6070)  can1  8010C01   [8]  36 62 00 00 00 00 00 00
 (2.6090)  can1  4100209   [8]  A3 35 13 00 00 00 00 00
 (2.6090)  can1  4100208   [8]  22 10 13 00 00 00 00 00
 (2.6110)  can1  5807202   [8]  04 80 00 00 E0 01 08 3C
 (2.6120)  can1  5817202   [8]  01 00 10 27 10 27 0B E3
 (2.6120)  can1  5907102   [8]  05 80 00 00 E0 01 08 68
 (2.6120)  can1  5917102   [8]  01 00 10 27 10 27 0B E3
 (2.6130)  can1  5827202   [8]  FA 00 00 00 00 00 08 D4
 (2.6130)  can1  5927102   [8]  FA 00 00 00 00 00 08 D4
 (2.6140)  can1  5837202   [8]  2C 41 06 00 00 00 08 E0
 (2.6140)  can1  5847270   [8]  00 00 00 00 00 00 08 9F
 (2.6150)  can1  5937102   [8]  2C 41 06 00 00 00 08 E0
 (2.6150)  can1  5947102   [8]  00 00 00 00 00 00 08 9F
 (2.6160)  can1  8580C02   [8]  FE FF 01 00 00 00 00 00
 (2.6160)  can1  89A0C02   [8]  00 00 00 00 99 17 00 00
 (2.6160)  can1  585FF72   [8]  04 80 60 09 60 09 F0 09
 (2.6160)  can1  586FF72   [8]  FF 7F FF FF FF FF F4 19
 (2.6160)  can1  8030C02   [8]  00 00 2A 68 2A 68 92 17
 (2.6180)  can1  4100209   [8]  A3 35 13 00 00 00 00 00
 (2.6190)  can1  4100208   [8]  22 10 13 00 00 00 00 00
 (2.6210)  can1  8100302   [5]  01 00 0A 00 14
 (2.6220)  can1  595FF71   [8]  05 80 60 09 60 09 FA 5D
 (2.6220)  can1  596FF71   [8]  01 80 FF FF FF FF F2 9F
 (2.6250)  can1  588FF72   [8]  C0 01 52 FF FF FF F8 22
 (2.6250)  can1  528FF72   [8]  FB FF 45 00 00 00 45 00
 (2.6380)  can1  529FF72   [8]  F6 FF 49 00 0B 00 04 00
 (2.6380)  can1  52AFF72   [8]  14 14 14 14 14 14 1C 00
 (2.6390)  can1  52BFF72   [8]  11 16 11 14 00 FF 00 00
 (2.6390)  can1  52CFF72   [8]  00 00 EF FF EF FF 3A 00
 (2.6390)  can1  589FF72   [8]  1A E0 02 82 02 00 F8 D1
 (2.6400)  can1  4100209   [8]  A3 35 13 00 00 00 00 00
 (2.6400)  can1  4100208   [8]  22 10 13 00 00 00 00 00
 (2.6400)  can1  89A0C02   [8]  CC 0B 00 00 00 00 00 00
 (2.6410)  can1  8030C02   [8]  00 00 2A 68 2A 68 92 17
 (2.6410)  can1  528FF71   [8]  00 00 50 00 00 00 56 00
 (2.6410)  can1  529FF71   [8]  0E 00 4C 00 0B 00 05 00
 (2.6410)  can1  52AFF71   [8]  15 15 15 15 15 15 15 00
 (2.6420)  can1  52BFF71   [8]  10 14 10 15 00 FF 00 00
 (2.6420)  can1  52CFF71   [8]  00 00 EF FF EF FF 3A 00
 (2.6420)  can1  8580C02   [8]  00 00 00 00 00 00 00 00
 (2.6420)  can1  585FF72   [8]  04 80 60 09 60 09 F1 09
 (2.6430)  can1  586FF72   [8]  00 80 FF FF FF FF F5 CB
 (2.6430)  can1  4100209   [8]  A3 35 13 00 00 00 00 00
 (2.6430)  can1  4100208   [8]  22 10 13 00 00 00 00 00
 (2.6440)  can1  595FF71   [8]  05 80 60 09 60 09 FB 5D
 (2.6440)  can1  596FF71   [8]  FF 7F FF FF FF FF F3 19
 (2.6460)  can1  8100302   [5]  01 00 0A 00 14
 (2.6480)  can1  4100209   [8]  A3 35 13 00 00 00 00 00
 (2.6490)  can1  4100208   [8]  22 10 13 00 00 00 00 00
 (2.6510)  can1  89A0C02   [8]  00 00 00 00 00 00 00 00
 (2.6520)  can1  8030C02   [8]  00 00 2A 68 2A 68 92 17
 (2.6520)  can1  8580C02   [8]  00 00 00 00 00 00 00 00
 (2.6530)  can1  8041001   [8]  02 02 00 32 04 B3 3B 00
 (2.6550)  can1  585FF72   [8]  04 80 60 09 60 09 F2 09
 (2.6550)  can1  586FF72   [8]  FF 7F FF FF FF FF F6 19
 (2.6550)  can1  18800401   [8]  02 E6 8C 51 8D 38 8D 00
 (2.6560)  can1  18840401   [8]  02 FB 8C 6A 8D 4E 8D 00
 (2.6560)  can1  18C00401   [8]  02 E7 30 69 30 C2 30 00
 (2.6580)  can1  4100209   [8]  A3 35 13 00 00 00 00 00
 (2.6590)  can1  4100208   [8]  22 10 13 00 00 00 00 00
 (2.6620)  can1  595FF71   [8]  05 80 60 09 60 09 FC 5D
 (2.6620)  can1  596FF71   [8]  01 80 FF FF FF FF F4 9F
 (2.6620)  can1  599FF71   [8]  1A E0 02 82 02 00 F8 D1
 (2.6650)  can1  587FF72   [8]  02 08 C1 0F FF FF F8 EF
 (2.6690)  can1  4100209   [8]  A3 35 13 00 00 00 00 00
 (2.6690)  can1  4100208   [8]  22 10 13 00 00 00 00 00
 (2.6710)  can1  5807202   [8]  04 80 00 00 E0 01 09 3C
 (2.6720)  can1  5817202   [8]  01 00 10 27 10 27 0C E3
 (2.6720)  can1  5907102   [8]  05 80 00 00 E0 01 09 68
 (2.6720)  can1  5917102   [8]  01 00 10 27 10 27 0C E3
 (2.6730)  can1  5827202   [8]  FA 00 00 00 00 00 09 D4
 (2.6730)  can1  5927102   [8]  FA 00 00 00 00 00 09 D4
 (2.6730)  can1  5837202   [8]  2C 41 06 00 00 00 09 E0
 (2.6740)  can1  5847270   [8]  00 00 00 00 00 00 09 9F
 (2.6740)  can1  5937102   [8]  2C 41 06 00 00 00 09 E0
 (2.6740)  can1  5947102   [8]  00 00 00 00 00 00 09 9F
 (2.6750)  can1  8100302   [5]  01 00 0A 00 14
 (2.6750)  can1  585FF72   [8]  04 80 60 09 60 09 F3 09
 (2.6760)  can1  586FF72   [8]  01 80 FF FF FF FF F7 9F
 (2.6760)  can1  8030C02   [8]  00 00 2A 68 2A 68 92 17
 (2.6770)  can1  8580C02   [8]  00 00 00 00 00 00 00 00
 (2.6770)  can1  89A0C02   [8]  CC 0B 00 00 00 00 00 00
 (2.6780)  can1  4100209   [8]  A3 35 13 00 00 00 00 00
 (2.6790)  can1  4100208   [8]  22 10 13 00 00 00 00 00
 (2.6800)  can1  1948FF72   [8]  00 C0 00 55 FF FF 49 5C
 (2.6820)  can1  595FF71   [8]  05 80 60 09 60 09 FD 5D
 (2.6820)  can1  596FF71   [8]  FF 7F FF FF FF FF F5 19
 (2.6890)  can1  4100209   [8]  A3 35 13 00 00 00 00 00
 (2.6890)  can1  4100208   [8]  22 10 13 00 00 00 00 00
 (2.6910)  can1  89A0C02   [8]  00 00 00 00 CC 0B 00 00
 (2.6920)  can1  8030C02   [8]  00 00 2A 68 2A 68 92 17
 (2.6920)  can1  597FF71   [8]  09 08 DD 0F FF FF F8 2A
 (2.6930)  can1  598FF71   [8]  50 01 77 FF FF FF F8 58
 (2.6930)  can1  8580C02   [8]  00 00 00 00 00 00 00 00
 (2.6950)  can1  585FF72   [8]  04 80 60 09 60 09 F4 09
 (2.6950)  can1  586FF72   [8]  00 80 FF FF FF FF F8 CB
 (2.6960)  can1  8100302   [5]  01 00 0A 00 14
 (2.6970)  can1  1948FF71   [8]  00 C0 00 55 FF FF 49 5C
 (2.6980)  can1  4100209   [8]  A3 35 13 00 00 00 00 00
 (2.6990)  can1  4100208   [8]  22 10 13 00 00 00 00 00
 (2.7020)  can1  595FF71   [8]  05 80 60 09 60 09 FE 5D
 (2.7020)  can1  596FF71   [8]  FD 7F FF FF FF FF F6 B1
 (2.7050)  can1  18800401   [8]  03 04 8D E8 8C 16 8D 00
 (2.7060)  can1  18840401   [8]  03 1C 8D 01 8D 30 8D 00
 (2.7060)  can1  18C00401   [8]  03 5E 30 86 30 0F 30 00
 (2.7070)  can1  1949FF71   [8]  0D 80 00 0D B0 00 4A 94
 (2.7080)  can1  194AFF71   [8]  3A 67 58 86 65 58 4B 87
 (2.7080)  can1  194BFF71   [8]  86 F5 FF FF FF FF 4C C3
 (2.7090)  can1  8010C01   [8]  32 62 00 00 00 00 00 00
 (2.7090)  can1  8101201   [8]  B1 62 A3 8D DF 89 6E 00
 (2.7090)  can1  194CFF71   [8]  FF FF FF FF FF FF 4D 47
 (2.7100)  can1  4100209   [8]  A3 35 13 00 00 00 00 00
 (2.7100)  can1  4100208   [8]  22 10 13 00 00 00 00 00
 (2.7110)  can1  89A0C02   [8]  00 00 00 00 00 00 00 00
 (2.7120)  can1  8030C02   [8]  00 00 2A 68 2A 68 92 17
 (2.7120)  can1  8580C02   [8]  FE FF 00 00 00 00 00 00
 (2.7150)  can1  585FF72   [8]  04 80 60 09 60 09 F5 09
 (2.7150)  can1  586FF72   [8]  FE 7F FF FF FF FF F9 4D
 (2.7150)  can1  1949FF72   [8]  0D 80 00 0D 90 00 4A 74
 (2.7160)  can1  194AFF72   [8]  70 77 57 77 25 57 4B 7C
 (2.7170)  can1  194BFF72   [8]  77 F5 FF FF FF FF 4C B4
 (2.7170)  can1  194CFF72   [8]  FF FF FF FF FF FF 4D 47
 (2.7180)  can1  4100209   [8]  A3 35 13 00 00 00 00 00
 (2.7190)  can1  4100208   [8]  22 10 13 00 00 00 00 00
 (2.7210)  can1  8100302   [5]  01 00 0A 00 14
 (2.7220)  can1  595FF71   [8]  05 80 60 09 60 09 FF 5D
 (2.7220)  can1  596FF71   [8]  01 80 FF FF FF FF F7 9F
 (2.7250)  can1  588FF72   [8]  C0 01 52 FF FF FF F9 22
 (2.7250)  can1  589FF72   [8]  1A E0 02 82 02 00 F9 D1
 (2.7280)  can1  4100209   [8]  A3 35 13 00 00 00 00 00
 (2.7290)  can1  4100208   [8]  22 10 13 00 00 00 00 00
 (2.7310)  can1  5807202   [8]  04 80 00 00 E0 01 0A 3C
 (2.7320)  can1  5817202   [8]  01 00 10 27 10 27 0D E3
 (2.7320)  can1  5907102   [8]  05 80 00 00 E0 01 0A 68
 (2.7320)  can1  5917102   [8]  01 00 10 27 10 27 0D E3
 (2.7330)  can1  5827202   [8]  FA 00 00 00 00 00 0A D4
 (2.7340)  can1  5927102   [8]  FA 00 00 00 00 00 0A D4
 (2.7340)  can1  5837202   [8]  2C 41 06 00 00 00 0A E0
 (2.7340)  can1  5847270   [8]  00 00 00 00 00 00 0A 9F
 (2.7350)  can1  5937102   [8]  2C 41 06 00 00 00 0A E0
 (2.7350)  can1  5947102   [8]  00 00 00 00 00 00 0A 9F
 (2.7360)  can1  8580C02   [8]  00 00 FF FF 00 00 00 00
 (2.7360)  can1  585FF72   [8]  04 80 60 09 60 09 F6 09
 (2.7360)  can1  586FF72   [8]  FF 7F FF FF FF FF FA 19
 (2.7360)  can1  8030C02   [8]  00 00 2A 68 2A 68 92 17
 (2.7370)  can1  89A0C02   [8]  CC 0B 00 00 00 00 00 00
 (2.7380)  can1  4100209   [8]  A3 35 13 00 00 00 00 00
 (2.7390)  can1  4100208   [8]  22 10 13 00 00 00 00 00
 (2.7420)  can1  595FF71   [8]  05 80 60 09 60 09 F0 5D
 (2.7420)  can1  596FF71   [8]  FF 7F FF FF FF FF F8 19
 (2.7460)  can1  8100302   [5]  01 00 0A 00 14
 (2.7480)  can1  4100209   [8]  A3 35 13 00 00 00 00 00
 (2.7490)  can1  4100208   [8]  22 10 13 00 00 00 00 00
 (2.7510)  can1  89A0C02   [8]  00 00 00 00 00 00 00 00
 (2.7520)  can1  8030C02   [8]  00 00 2A 68 2A 68 92 17
 (2.7520)  can1  8580C02   [8]  00 00 00 00 00 00 00 00
 (2.7530)  can1  8041001   [8]  02 02 00 32 04 B3 3B 00
 (2.7550)  can1  585FF72   [8]  04 80 60 09 60 09 F7 09
 (2.7550)  can1  586FF72   [8]  01 80 FF FF FF FF FB 9F
 (2.7550)  can1  18800401   [8]  04 37 8D 25 8D C0 89 00
 (2.7560)  can1  18840401   [8]  04 51 8D 3D 8D DD 89 00
 (2.7570)  can1  18C00401   [8]  04 A2 2F 51 2F 74 30 00
 (2.7580)  can1  4100209   [8]  A3 35 13 00 00 00 00 00
 (2.7590)  can1  4100208   [8]  22 10 13 00 00 00 00 00
 (2.7620)  can1  595FF71   [8]  05 80 60 09 60 09 F1 5D
 (2.7620)  can1  596FF71   [8]  01 80 FF FF FF FF F9 9F
 (2.7620)  can1  599FF71   [8]  1A E0 02 82 02 00 F9 D1
 (2.7650)  can1  587FF72   [8]  01 08 C3 0F FF FF F9 56
 (2.7680)  can1  4100209   [8]  A3 35 13 00 00 00 00 00
 (2.7690)  can1  4100208   [8]  22 10 13 00 00 00 00 00
 (2.7710)  can1  8100302   [5]  01 00 0A 00 14
 (2.7720)  can1  8580C02   [8]  00 00 00 00 00 00 00 00
 (2.7720)  can1  89A0C02   [8]  CC 0B 00 00 CC 0B 00 00
 (2.7720)  can1  8030C02   [8]  00 00 2A 68 2A 68 92 17
 (2.7750)  can1  585FF72   [8]  04 80 60 09 60 09 F8 09
 (2.7750)  can1  586FF72   [8]  FE 7F FF FF FF FF FC 4D
 (2.7790)  can1  4100209   [8]  A3 35 13 00 00 00 00 00
 (2.7790)  can1  4100208   [8]  22 10 13 00 00 00 00 00
 (2.7820)  can1  595FF71   [8]  05 80 60 09 60 09 F2 5D
 (2.7820)  can1  596FF71   [8]  00 80 FF FF FF FF FA CB
 (2.7880)  can1  4100209   [8]  A3 35 13 00 00 00 00 00
 (2.7890)  can1  4100208   [8]  22 10 13 00 00 00 00 00
 (2.7910)  can1  5807202   [8]  04 80 00 00 E0 01 0B 3C
 (2.7920)  can1  5817202   [8]  01 00 10 27 10 27 0E E3
 (2.7920)  can1  5907102   [8]  05 80 00 00 E0 01 0B 68
 (2.7930)  can1  597FF71   [8]  0C 08 E2 0F FF FF F9 DA
 (2.7930)  can1  5827202   [8]  FA 00 00 00 00 00 0B D4
 (2.7930)  can1  5917102   [8]  01 00 10 27 10 27 0E E3
 (2.7940)  can1  5927102   [8]  FA 00 00 00 00 00 0B D4
 (2.7950)  can1  5837202   [8]  2C 41 06 00 00 00 0B E0
 (2.7950)  can1  5937102   [8]  2C 41 06 00 00 00 0B E0
 (2.7950)  can1  598FF71   [8]  50 01 77 FF FF FF F9 58
 (2.7960)  can1  5847270   [8]  00 00 00 00 00 00 0B 9F
 (2.7960)  can1  5947102   [8]  00 00 00 00 00 00 0B 9F
 (2.7960)  can1  585FF72   [8]  04 80 60 09 60 09 F9 09
 (2.7970)  can1  586FF72   [8]  FF 7F FF FF FF FF FD 19
 (2.7970)  can1  8030C02   [8]  00 00 2A 68 2A 68 92 17
 (2.7970)  can1  8580C02   [8]  00 00 FF FF 00 00 00 00
 (2.7980)  can1  89A0C02   [8]  00 00 00 00 00 00 00 00
 (2.7980)  can1  8100302   [5]  01 00 0A 00 14
 (2.7980)  can1  4100209   [8]  A3 35 13 00 00 00 00 00
 (2.7990)  can1  4100208   [8]  22 10 13 00 00 00 00 00
 (2.8020)  can1  595FF71   [8]  05 80 60 09 60 09 F3 5D
 (2.8020)  can1  596FF71   [8]  01 80 FF FF FF FF FB 9F
 (2.8050)  can1  18800401   [8]  05 19 8D 05 8D FE 8C 00
 (2.8060)  can1  18840401   [8]  05 32 8D 11 8D 19 8D 00
 (2.8060)  can1  18C00401   [8]  05 AC 30 D7 30 35 31 00
 (2.8080)  can1  8101201   [8]  B5 62 A1 8D DD 89 59 00
 (2.8090)  can1  4100209   [8]  A3 35 13 00 00 00 00 00
 (2.8100)  can1  8010C01   [8]  36 62 00 00 00 00 00 00
 (2.8100)  can1  4100208   [8]  22 10 13 00 00 00 00 00
 (2.8110)  can1  89A0C02   [8]  CC 0B 00 00 00 00 00 00
 (2.8120)  can1  8030C02   [8]  00 00 2A 68 2A 68 92 17
 (2.8120)  can1  8580C02   [8]  00 00 00 00 00 00 00 00
 (2.8150)  can1  585FF72   [8]  04 80 60 09 60 09 FA 09
 (2.8150)  can1  586FF72   [8]  FF 7F FF FF FF FF FE 19
 (2.8180)  can1  4100209   [8]  A3 35 13 00 00 00 00 00
 (2.8190)  can1  4100208   [8]  22 10 13 00 00 00 00 00
 (2.8210)  can1  8100302   [5]  01 00 0A 00 14
 (2.8220)  can1  595FF71   [8]  05 80 60 09 60 09 F4 5D
 (2.8220)  can1  596FF71   [8]  00 80 FF FF FF FF FC CB
 (2.8250)  can1  588FF72   [8]  C0 01 52 FF FF FF FA 22
 (2.8250)  can1  589FF72   [8]  1A E0 02 82 02 00 FA D1
 (2.8290)  can1  4100209   [8]  A3 35 13 00 00 00 00 00
 (2.8290)  can1  4100208   [8]  22 10 13 00 00 00 00 00
 (2.8310)  can1  89A0C02   [8]  00 00 00 00 00 00 00 00
 (2.8320)  can1  8030C02   [8]  00 00 2A 68 2A 68 92 17
 (2.8320)  can1  8580C02   [8]  00 00 00 00 00 00 00 00
 (2.8350)  can1  585FF72   [8]  04 80 60 09 60 09 FB 09
 (2.8350)  can1  586FF72   [8]  01 80 FF FF FF FF FF 9F
 (2.8380)  can1  4100209   [8]  A3 35 13 00 00 00 00 00
 (2.8390)  can1  4100208   [8]  22 10 13 00 00 00 00 00
 (2.8420)  can1  595FF71   [8]  05 80 60 09 60 09 F5 5D
 (2.8420)  can1  596FF71   [8]  FF 7F FF FF FF FF FD 19
 (2.8460)  can1  8100302   [5]  01 00 0A 00 14
 (2.8490)  can1  4100209   [8]  A3 35 13 00 00 00 00 00
 (2.8490)  can1  4100208   [8]  22 10 13 00 00 00 00 00
 (2.8510)  can1  5807202   [8]  04 80 00 00 E0 01 0C 3C
 (2.8520)  can1  5817202   [8]  01 00 10 27 10 27 0F E3
 (2.8520)  can1  5907102   [8]  05 80 00 00 E0 01 0C 68
 (2.8520)  can1  5917102   [8]  01 00 10 27 10 27 0F E3
 (2.8530)  can1  5827202   [8]  FA 00 00 00 00 00 0C D4
 (2.8530)  can1  5927102   [8]  FA 00 00 00 00 00 0C D4
 (2.8530)  can1  8041001   [8]  02 02 00 32 04 B3 3B 00
 (2.8540)  can1  5837202   [8]  2C 41 06 00 00 00 0C E0
 (2.8550)  can1  5847270   [8]  00 00 00 00 00 00 0C 9F
 (2.8550)  can1  5937102   [8]  2C 41 06 00 00 00 0C E0
 (2.8560)  can1  5947102   [8]  00 00 00 00 00 00 0C 9F
 (2.8560)  can1  89A0C02   [8]  00 00 00 00 CC 0B 00 00
 (2.8560)  can1  585FF72   [8]  04 80 60 09 60 09 FC 09
 (2.8570)  can1  586FF72   [8]  FD 7F FF FF FF FF F0 B1
 (2.8570)  can1  8030C02   [8]  00 00 2A 68 2A 68 92 17
 (2.8570)  can1  8580C02   [8]  00 00 00 00 00 00 00 00
 (2.8570)  can1  18800401   [8]  06 24 8D 5A 8D 65 8D 00
 (2.8580)  can1  18840401   [8]  06 3C 8D 72 8D 7E 8D 00
 (2.8580)  can1  18C00401   [8]  06 C5 30 6C 31 BB 30 00
 (2.8580)  can1  4100209   [8]  A3 35 13 00 00 00 00 00
 (2.8590)  can1  4100208   [8]  22 10 13 00 00 00 00 00
 (2.8620)  can1  595FF71   [8]  05 80 60 09 60 09 F6 5D
 (2.8620)  can1  596FF71   [8]  FE 7F FF FF FF FF FE 4D
 (2.8630)  can1  599FF71   [8]  1A E0 02 82 02 00 FA D1
 (2.8650)  can1  587FF72   [8]  00 08 C3 0F FF FF FA 02
 (2.8690)  can1  4100209   [8]  A3 35 13 00 00 00 00 00
 (2.8690)  can1  4100208   [8]  22 10 13 00 00 00 00 00
 (2.8710)  can1  8100302   [5]  01 00 0A 00 14
 (2.8710)  can1  8580C02   [8]  FF FF FE FF 00 00 00 00
 (2.8720)  can1  89A0C02   [8]  00 00 00 00 00 00 00 00
 (2.8720)  can1  8030C02   [8]  00 00 2A 68 2A 68 92 17
 (2.8750)  can1  585FF72   [8]  04 80 60 09 60 09 FD 09
 (2.8750)  can1  586FF72   [8]  00 80 FF FF FF FF F1 CB
 (2.8790)  can1  4100209   [8]  A3 35 13 00 00 00 00 00
 (2.8790)  can1  4100208   [8]  22 10 13 00 00 00 00 00
 (2.8820)  can1  595FF71   [8]  05 80 60 09 60 09 F7 5D
 (2.8820)  can1  596FF71   [8]  FF 7F FF FF FF FF FF 19
 (2.8890)  can1  4100209   [8]  A3 35 13 00 00 00 00 00
 (2.8890)  can1  4100208   [8]  22 10 13 00 00 00 00 00
 (2.8910)  can1  89A0C02   [8]  00 00 00 00 00 00 00 00
 (2.8920)  can1  8030C02   [8]  00 00 2A 68 2A 68 92 17
 (2.8920)  can1  597FF71   [8]  09 08 DD 0F FF FF FA 2A
 (2.8920)  can1  598FF71   [8]  50 01 77 FF FF FF FA 58
 (2.8930)  can1  8580C02   [8]  00 00 00 00 00 00 00 00
 (2.8950)  can1  585FF72   [8]  04 80 60 09 60 09 FE 09
 (2.8950)  can1  586FF72   [8]  00 80 FF FF FF FF F2 CB
 (2.8960)  can1  8100302   [5]  01 00 0A 00 14
 (2.8980)  can1  4100209   [8]  A3 35 13 00 00 00 00 00
 (2.8990)  can1  4100208   [8]  22 10 13 00 00 00 00 00
 (2.9020)  can1  595FF71   [8]  05 80 60 09 60 09 F8 5D
 (2.9020)  can1  596FF71   [8]  FF 7F FF FF FF FF F0 19
 (2.9050)  can1  18800401   [8]  07 6A 8D 4C 8D 08 8D 00
 (2.9060)  can1  18840401   [8]  07 81 8D 64 8D 20 8D 00
 (2.9060)  can1  18C00401   [8]  07 78 31 AA 30 71 31 00
 (2.9080)  can1  4100209   [8]  A3 35 13 00 00 00 00 00
 (2.9090)  can1  4100208   [8]  22 10 13 00 00 00 00 00
 (2.9100)  can1  8010C01   [8]  37 62 00 00 00 00 00 00
 (2.9100)  can1  8101201   [8]  B3 62 9D 8D DD 89 50 00
 (2.9110)  can1  5807202   [8]  04 80 00 00 E0 01 0D 3C
 (2.9120)  can1  5817202   [8]  01 00 10 27 10 27 00 E3
 (2.9120)  can1  5907102   [8]  05 80 00 00 E0 01 0D 68
 (2.9120)  can1  5917102   [8]  01 00 10 27 10 27 00 E3
 (2.9130)  can1  5827202   [8]  FA 00 00 00 00 00 0D D4
 (2.9130)  can1  5927102   [8]  FA 00 00 00 00 00 0D D4
 (2.9140)  can1  5837202   [8]  2C 41 06 00 00 00 0D E0
 (2.9140)  can1  5847270   [8]  00 00 00 00 00 00 0D 9F
 (2.9150)  can1  5937102   [8]  2C 41 06 00 00 00 0D E0
 (2.9150)  can1  5947102   [8]  00 00 00 00 00 00 0D 9F
 (2.9160)  can1  8580C02   [8]  00 00 00 00 00 00 00 00
 (2.9160)  can1  585FF72   [8]  04 80 60 09 60 09 FF 09
 (2.9160)  can1  586FF72   [8]  FE 7F FF FF FF FF F3 4D
 (2.9160)  can1  8030C02   [8]  00 00 2A 68 2A 68 92 17
 (2.9170)  can1  89A0C02   [8]  00 00 00 00 00 00 00 00
 (2.9180)  can1  4100209   [8]  A3 35 13 00 00 00 00 00
 (2.9190)  can1  4100208   [8]  22 10 13 00 00 00 00 00
 (2.9210)  can1  8100302   [5]  01 00 0A 00 14
 (2.9220)  can1  595FF71   [8]  05 80 60 09 60 09 F9 5D
 (2.9220)  can1  596FF71   [8]  FF 7F FF FF FF FF F1 19
 (2.9250)  can1  588FF72   [8]  C0 01 52 FF FF FF FB 22
 (2.9250)  can1  589FF72   [8]  1A E0 02 82 02 00 FB D1
 (2.9290)  can1  4100209   [8]  A3 35 13 00 00 00 00 00
 (2.9290)  can1  4100208   [8]  22 10 13 00 00 00 00 00
 (2.9310)  can1  89A0C02   [8]  00 00 00 00 00 00 00 00
 (2.9320)  can1  8030C02   [8]  00 00 2A 68 2A 68 92 17
 (2.9320)  can1  8580C02   [8]  00 00 FF FF 00 00 00 00
 (2.9350)  can1  585FF72   [8]  04 80 60 09 60 09 F0 09
 (2.9350)  can1  586FF72   [8]  FF 7F FF FF FF FF F4 19
 (2.9350)  can1  1948FF72   [8]  00 C0 00 55 FF FF 4E 61
 (2.9380)  can1  4100209   [8]  A3 35 13 00 00 00 00 00
 (2.9390)  can1  4100208   [8]  22 10 13 00 00 00 00 00
 (2.9420)  can1  595FF71   [8]  05 80 60 09 60 09 FA 5D
 (2.9420)  can1  596FF71   [8]  FD 7F FF FF FF FF F2 B1
 (2.9460)  can1  8100302   [5]  01 00 0A 00 14
 (2.9490)  can1  4100209   [8]  A3 35 13 00 00 00 00 00
 (2.9490)  can1  4100208   [8]  22 10 13 00 00 00 00 00
 (2.9510)  can1  89A0C02   [8]  00 00 00 00 00 00 00 00
 (2.9520)  can1  8030C02   [8]  00 00 2A 68 2A 68 92 17
 (2.9520)  can1  8580C02   [8]  FE FF 00 00 00 00 00 00
 (2.9520)  can1  1948FF71   [8]  00 C0 00 55 FF FF 4E 61
 (2.9530)  can1  8041001   [8]  02 02 00 32 04 B3 3B 00
 (2.9550)  can1  585FF72   [8]  04 80 60 09 60 09 F1 09
 (2.9550)  can1  586FF72   [8]  FE 7F FF FF FF FF F5 4D
 (2.9560)  can1  18800401   [8]  08 EE 8C EB 89 77 8D 00
 (2.9560)  can1  18840401   [8]  08 07 8D 03 8A 90 8D 00
 (2.9560)  can1  18C00401   [8]  08 5C 30 62 31 0B 30 00
 (2.9590)  can1  4100209   [8]  A3 35 13 00 00 00 00 00
 (2.9590)  can1  4100208   [8]  22 10 13 00 00 00 00 00
 (2.9620)  can1  595FF71   [8]  05 80 60 09 60 09 FB 5D
 (2.9620)  can1  596FF71   [8]  03 80 FF FF FF FF F3 37
 (2.9630)  can1  599FF71   [8]  1A E0 02 82 02 00 FB D1
 (2.9630)  can1  1949FF71   [8]  0D 80 00 0D C0 00 4F A9
 (2.9630)  can1  194AFF71   [8]  39 A7 57 86 65 58 50 CA
 (2.9640)  can1  194BFF71   [8]  86 F5 FF FF FF FF 51 C8
 (2.9640)  can1  194CFF71   [8]  FF FF FF FF FF FF 52 4C
 (2.9650)  can1  587FF72   [8]  06 08 C3 0F FF FF FB D5
 (2.9680)  can1  4100209   [8]  A3 35 13 00 00 00 00 00
 (2.9690)  can1  4100208   [8]  22 10 13 00 00 00 00 00
 (2.9700)  can1  1949FF72   [8]  0D 80 00 0D A0 00 4F 89
 (2.9710)  can1  194AFF72   [8]  70 77 57 77 25 57 50 81
 (2.9710)  can1  194BFF72   [8]  75 F5 FF FF FF FF 51 B7
 (2.9710)  can1  194CFF72   [8]  FF FF FF FF FF FF 52 4C
 (2.9720)  can1  5807202   [8]  04 80 00 00 E0 01 0E 3C
 (2.9730)  can1  5817202   [8]  01 00 10 27 10 27 01 E3
 (2.9730)  can1  5907102   [8]  05 80 00 00 E0 01 0E 68
 (2.9730)  can1  5827202   [8]  FA 00 00 00 00 00 0E D4
 (2.9740)  can1  5917102   [8]  01 00 10 27 10 27 01 E3
 (2.9740)  can1  5927102   [8]  FA 00 00 00 00 00 0E D4
 (2.9740)  can1  5837202   [8]  2C 41 06 00 00 00 0E E0
 (2.9750)  can1  5937102   [8]  2C 41 06 00 00 00 0E E0
 (2.9750)  can1  5847270   [8]  00 00 00 00 00 00 0E 9F
 (2.9750)  can1  5947102   [8]  00 00 00 00 00 00 0E 9F
 (2.9760)  can1  8100302   [5]  01 00 0A 00 14
 (2.9770)  can1  585FF72   [8]  04 80 60 09 60 09 F2 09
 (2.9770)  can1  586FF72   [8]  FF 7F FF FF FF FF F6 19
 (2.9780)  can1  8030C02   [8]  00 00 2A 68 2A 68 92 17
 (2.9780)  can1  8580C02   [8]  02 00 FF FF 00 00 00 00
 (2.9780)  can1  89A0C02   [8]  66 23 00 00 00 00 00 00
 (2.9790)  can1  4100209   [8]  A3 35 13 00 00 00 00 00
 (2.9800)  can1  4100208   [8]  22 10 13 00 00 00 00 00
 (2.9820)  can1  595FF71   [8]  05 80 60 09 60 09 FC 5D
 (2.9820)  can1  596FF71   [8]  02 80 FF FF FF FF F4 63
 (2.9890)  can1  4100209   [8]  A3 35 13 00 00 00 00 00
 (2.9890)  can1  4100208   [8]  22 10 13 00 00 00 00 00
 (2.9910)  can1  89A0C02   [8]  99 17 00 00 00 00 00 00
 (2.9920)  can1  8030C02   [8]  00 00 2A 68 2A 68 92 17
 (2.9920)  can1  597FF71   [8]  0B 08 DD 0F FF FF FB 82
 (2.9920)  can1  598FF71   [8]  40 01 78 FF FF FF FB CA
 (2.9930)  can1  8580C02   [8]  01 00 00 00 00 00 00 00
 (2.9950)  can1  585FF72   [8]  04 80 60 09 60 09 F3 09
 (2.9950)  can1  586FF72   [8]  FF 7F FF FF FF FF F7 19
 (2.9960)  can1  8100302   [5]  01 00 0A 00 14
 (2.9990)  can1  4100209   [8]  A3 35 13 00 00 00 00 00
 (2.9990)  can1  4100208   [8]  22 10 13 00 00 00 00 00
 (3.0020)  can1  595FF71   [8]  05 80 60 09 60 09 FD 5D
 (3.0020)  can1  596FF71   [8]  00 80 FF FF FF FF F5 CB
 (3.0050)  can1  18800401   [8]  09 62 8D 31 8D 14 8D 00
 (3.0060)  can1  18840401   [8]  09 7B 8D 49 8D 2D 8D 00
 (3.0060)  can1  18C00401   [8]  09 D0 30 DF 2F BC 30 00
 (3.0080)  can1  4100209   [8]  A3 35 13 00 00 00 00 00
 (3.0090)  can1  4100208   [8]  22 10 13 00 00 00 00 00
 (3.0100)  can1  8101201   [8]  B4 62 9D 8D DC 89 55 00
 (3.0110)  can1  8010C01   [8]  35 62 00 00 00 00 00 00
 (3.0110)  can1  89A0C02   [8]  00 00 00 00 00 00 00 00
 (3.0120)  can1  8030C02   [8]  00 00 2A 68 2A 68 92 17
 (3.0120)  can1  8580C02   [8]  00 00 00 00 00 00 00 00
 (3.0150)  can1  585FF72   [8]  04 80 60 09 60 09 F4 09
 (3.0150)  can1  586FF72   [8]  00 80 FF FF FF FF F8 CB
 (3.0190)  can1  4100209   [8]  A3 35 13 00 00 00 00 00
 (3.0190)  can1  4100208   [8]  22 10 13 00 00 00 00 00
 (3.0210)  can1  8100302   [5]  01 00 0A 00 14
 (3.0220)  can1  595FF71   [8]  05 80 60 09 60 09 FE 5D
 (3.0220)  can1  596FF71   [8]  FF 7F FF FF FF FF F6 19
 (3.0250)  can1  588FF72   [8]  C0 01 52 FF FF FF FC 22
 (3.0250)  can1  589FF72   [8]  1A E0 02 82 02 00 FC D1
 (3.0290)  can1  4100209   [8]  A3 35 13 00 00 00 00 00
 (3.0290)  can1  4100208   [8]  22 10 13 00 00 00 00 00
 (3.0310)  can1  5807202   [8]  04 80 00 00 E0 01 0F 3C
 (3.0320)  can1  5817202   [8]  01 00 10 27 10 27 02 E3
 (3.0320)  can1  5907102   [8]  05 80 00 00 E0 01 0F 68
 (3.0330)  can1  5917102   [8]  01 00 10 27 10 27 02 E3
 (3.0330)  can1  5827202   [8]  FA 00 00 00 00 00 0F D4
 (3.0340)  can1  5927102   [8]  FA 00 00 00 00 00 0F D4
 (3.0340)  can1  5837202   [8]  2C 41 06 00 00 00 0F E0
 (3.0340)  can1  5847270   [8]  00 00 00 00 00 00 0F 9F
 (3.0350)  can1  5937102   [8]  2C 41 06 00 00 00 0F E0
 (3.0350)  can1  5947102   [8]  00 00 00 00 00 00 0F 9F
 (3.0350)  can1  8580C02   [8]  00 00 00 00 00 00 00 00
 (3.0360)  can1  89A0C02   [8]  00 00 00 00 00 00 00 00
 (3.0360)  can1  585FF72   [8]  04 80 60 09 60 09 F5 09
 (3.0370)  can1  586FF72   [8]  FF 7F FF FF FF FF F9 19
 (3.0370)  can1  8030C02   [8]  00 00 2A 68 2A 68 92 17
 (3.0390)  can1  4100209   [8]  A3 35 13 00 00 00 00 00
 (3.0390)  can1  4100208   [8]  22 10 13 00 00 00 00 00
 (3.0420)  can1  595FF71   [8]  05 80 60 09 60 09 FF 5D
 (3.0420)  can1  596FF71   [8]  00 80 FF FF FF FF F7 CB
 (3.0460)  can1  8100302   [5]  01 00 0A 00 14
 (3.0480)  can1  4100209   [8]  A3 35 13 00 00 00 00 00
 (3.0490)  can1  4100208   [8]  22 10 13 00 00 00 00 00
 (3.0510)  can1  89A0C02   [8]  00 00 00 00 00 00 00 00
 (3.0520)  can1  8030C02   [8]  00 00 2A 68 2A 68 92 17
 (3.0520)  can1  8580C02   [8]  00 00 00 00 00 00 00 00
 (3.0530)  can1  8041001   [8]  02 02 00 32 04 B3 3B 00
 (3.0550)  can1  585FF72   [8]  04 80 60 09 60 09 F6 09
 (3.0550)  can1  586FF72   [8]  00 80 FF FF FF FF FA CB
 (3.0560)  can1  18800401   [8]  0A CD 8C FF 8C 27 8D 00
 (3.0560)  can1  18840401   [8]  0A E1 8C 16 8D 41 8D 00
 (3.0570)  can1  18C00401   [8]  0A B9 30 5B 31 F1 30 00
 (3.0590)  can1  4100209   [8]  A3 35 13 00 00 00 00 00
 (3.0590)  can1  4100208   [8]  22 10 13 00 00 00 00 00
 (3.0620)  can1  595FF71   [8]  05 80 60 09 60 09 F0 5D
 (3.0620)  can1  596FF71   [8]  00 80 FF FF FF FF F8 CB
 (3.0620)  can1  599FF71   [8]  1A E0 02 82 02 00 FC D1
 (3.0650)  can1  587FF72   [8]  03 08 C1 0F FF FF FC BB
 (3.0680)  can1  4100209   [8]  A3 35 13 00 00 00 00 00
 (3.0690)  can1  4100208   [8]  22 10 13 00 00 00 00 00
 (3.0710)  can1  8100302   [5]  01 00 0A 00 14
 (3.0710)  can1  8580C02   [8]  00 00 00 00 00 00 00 00
 (3.0720)  can1  89A0C02   [8]  00 00 00 00 00 00 00 00
 (3.0720)  can1  8030C02   [8]  00 00 2A 68 2A 68 92 17
 (3.0750)  can1  585FF72   [8]  04 80 60 09 60 09 F7 09
 (3.0750)  can1  586FF72   [8]  FF 7F FF FF FF FF FB 19
 (3.0790)  can1  4100209   [8]  A3 35 13 00 00 00 00 00
 (3.0790)  can1  4100208   [8]  22 10 13 00 00 00 00 00
 (3.0820)  can1  595FF71   [8]  05 80 60 09 60 09 F1 5D
 (3.0820)  can1  596FF71   [8]  FF 7F FF FF FF FF F9 19
 (3.0880)  can1  4100209   [8]  A3 35 13 00 00 00 00 00
 (3.0890)  can1  4100208   [8]  22 10 13 00 00 00 00 00
 (3.0910)  can1  5807202   [8]  04 80 00 00 E0 01 00 3C
 (3.0920)  can1  5817202   [8]  01 00 10 27 10 27 03 E3
 (3.0920)  can1  5907102   [8]  05 80 00 00 E0 01 00 68
 (3.0920)  can1  597FF71   [8]  08 08 E0 0F FF FF FC E0
 (3.0920)  can1  5827202   [8]  FA 00 00 00 00 00 00 D4
 (3.0930)  can1  5917102   [8]  01 00 10 27 10 27 03 E3
 (3.0930)  can1  5927102   [8]  FA 00 00 00 00 00 00 D4
 (3.0940)  can1  5837202   [8]  2C 41 06 00 00 00 00 E0
 (3.0940)  can1  5937102   [8]  2C 41 06 00 00 00 00 E0
 (3.0950)  can1  598FF71   [8]  50 01 77 FF FF FF FC 58
 (3.0950)  can1  5847270   [8]  00 00 00 00 00 00 00 9F
 (3.0950)  can1  5947102   [8]  00 00 00 00 00 00 00 9F
 (3.0960)  can1  89A0C02   [8]  00 00 00 00 00 00 00 00
 (3.0960)  can1  585FF72   [8]  04 80 60 09 60 09 F8 09
 (3.0960)  can1  586FF72   [8]  01 80 FF FF FF FF FC 9F
 (3.0970)  can1  8030C02   [8]  00 00 2A 68 2A 68 92 17
 (3.0970)  can1  8580C02   [8]  00 00 00 00 00 00 00 00
 (3.0970)  can1  8100302   [5]  01 00 0A 00 14
 (3.0990)  can1  4100209   [8]  A3 35 13 00 00 00 00 00
 (3.0990)  can1  4100208   [8]  22 10 13 00 00 00 00 00
 (3.1020)  can1  595FF71   [8]  05 80 60 09 60 09 F2 5D
 (3.1020)  can1  596FF71   [8]  00 80 FF FF FF FF FA CB
 (3.1050)  can1  18101203   [4]  40 2D 4D 07
 (3.1050)  can1  18800401   [8]  0B 51 8D 51 8D 5F 8D 00
 (3.1060)  can1  18840401   [8]  0B 69 8D 67 8D 76 8D 00
 (3.1060)  can1  18C00401   [8]  0B 97 31 F9 30 88 31 00
 (3.1080)  can1  4100209   [8]  A3 35 13 00 00 00 00 00
 (3.1100)  can1  4100208   [8]  22 10 13 00 00 00 00 00
 (3.1110)  can1  89A0C02   [8]  00 00 00 00 CC 0B 00 00
 (3.1110)  can1  8030C02   [8]  00 00 2A 68 2A 68 92 17
 (3.1120)  can1  8010C01   [8]  36 62 00 00 00 00 00 00
 (3.1120)  can1  8101201   [8]  B3 62 9F 8D DC 89 5F 00
 (3.1120)  can1  8580C02   [8]  00 00 00 00 00 00 00 00
 (3.1150)  can1  585FF72   [8]  04 80 60 09 60 09 F9 09
 (3.1150)  can1  586FF72   [8]  FD 7F FF FF FF FF FD B1
 (3.1190)  can1  4100209   [8]  A3 35 13 00 00 00 00 00
 (3.1190)  can1  4100208   [8]  22 10 13 00 00 00 00 00
 (3.1210)  can1  8100302   [5]  01 00 0A 00 14
 (3.1220)  can1  595FF71   [8]  05 80 60 09 60 09 F3 5D
 (3.1220)  can1  596FF71   [8]  FE 7F FF FF FF FF FB 4D
 (3.1250)  can1  588FF72   [8]  C0 01 52 FF FF FF FD 22
 (3.1250)  can1  528FF72   [8]  04 00 43 00 00 00 45 00
 (3.1250)  can1  529FF72   [8]  F5 FF 4A 00 0B 00 04 00
 (3.1260)  can1  52CFF72   [8]  00 00 EF FF EF FF 3A 00
 (3.1260)  can1  589FF72   [8]  1A E0 02 82 02 00 FD D1
 (3.1290)  can1  4100209   [8]  A3 35 13 00 00 00 00 00
 (3.1290)  can1  4100208   [8]  22 10 13 00 00 00 00 00
 (3.1310)  can1  89A0C02   [8]  00 00 00 00 00 00 00 00
 (3.1320)  can1  8030C02   [8]  00 00 2A 68 2A 68 92 17
 (3.1330)  can1  528FF71   [8]  FF FF 5A 00 00 00 56 00
 (3.1330)  can1  529FF71   [8]  0E 00 4B 00 0B 00 05 00
 (3.1330)  can1  52CFF71   [8]  00 00 EF FF EF FF 3A 00
 (3.1340)  can1  8580C02   [8]  FF FF FE FF 00 00 00 00
 (3.1350)  can1  585FF72   [8]  04 80 60 09 60 09 FA 09
 (3.1350)  can1  586FF72   [8]  FF 7F FF FF FF FF FE 19
 (3.1380)  can1  4100209   [8]  A3 35 13 00 00 00 00 00
 (3.1390)  can1  4100208   [8]  22 10 13 00 00 00 00 00
 (3.1420)  can1  595FF71   [8]  05 80 60 09 60 09 F4 5D
 (3.1420)  can1  596FF71   [8]  03 80 FF FF FF FF FC 37
 (3.1460)  can1  8100302   [5]  01 00 0A 00 14
 (3.1490)  can1  4100209   [8]  A3 35 13 00 00 00 00 00
 (3.1490)  can1  4100208   [8]  22 10 13 00 00 00 00 00
 (3.1510)  can1  5807202   [8]  04 80 00 00 E0 01 01 3C
 (3.1520)  can1  5817202   [8]  01 00 10 27 10 27 04 E3
 (3.1520)  can1  5907102   [8]  05 80 00 00 E0 01 01 68
 (3.1530)  can1  5917102   [8]  01 00 10 27 10 27 04 E3
 (3.1530)  can1  5827202   [8]  FA 00 00 00 00 00 01 D4
 (3.1530)  can1  5927102   [8]  FA 00 00 00 00 00 01 D4
 (3.1540)  can1  8041001   [8]  02 02 10 32 04 B3 3B 00
 (3.1540)  can1  5837202   [8]  2C 41 06 00 00 00 01 E0
 (3.1540)  can1  5847270   [8]  00 00 00 00 00 00 01 9F
 (3.1550)  can1  5937102   [8]  2C 41 06 00 00 00 01 E0
 (3.1550)  can1  5947102   [8]  00 00 00 00 00 00 01 9F
 (3.1560)  can1  89A0C02   [8]  66 23 00 00 00 00 00 00
 (3.1560)  can1  585FF72   [8]  04 80 60 09 60 09 FB 09
 (3.1570)  can1  586FF72   [8]  02 80 FF FF FF FF FF 63
 (3.1570)  can1  8030C02   [8]  00 00 2A 68 2A 68 92 17
 (3.1570)  can1  8580C02   [8]  02 00 00 00 00 00 00 00
 (3.1580)  can1  18800401   [8]  0C 53 8D 0A 8D 02 8D 00
 (3.1580)  can1  18840401   [8]  0C 6A 8D 22 8D 1A 8D 00
 (3.1580)  can1  18C00401   [8]  0C CB 30 3F 31 83 30 00
 (3.1590)  can1  4100209   [8]  A3 35 13 00 00 00 00 00
 (3.1590)  can1  4100208   [8]  22 10 13 00 00 00 00 00
 (3.1620)  can1  595FF71   [8]  05 80 60 09 60 09 F5 5D
 (3.1620)  can1  596FF71   [8]  FD 7F FF FF FF FF FD B1
 (3.1620)  can1  599FF71   [8]  1A E0 02 82 02 00 FD D1
 (3.1650)  can1  587FF72   [8]  00 08 C3 0F FF FF FD 02
 (3.1690)  can1  4100209   [8]  A3 35 13 00 00 00 00 00
 (3.1690)  can1  4100208   [8]  22 10 13 00 00 00 00 00
 (3.1710)  can1  8100302   [5]  01 00 0A 00 14
 (3.1720)  can1  8580C02   [8]  FE FF 01 00 00 00 00 00
 (3.1720)  can1  89A0C02   [8]  00 00 00 00 99 17 00 00
 (3.1730)  can1  8030C02   [8]  00 00 2A 68 2A 68 92 17
 (3.1750)  can1  585FF72   [8]  04 80 60 09 60 09 FC 09
 (3.1750)  can1  586FF72   [8]  02 80 FF FF FF FF F0 63
 (3.1790)  can1  4100209   [8]  A3 35 13 00 00 00 00 00
 (3.1790)  can1  4100208   [8]  22 10 13 00 00 00 00 00
 (3.1820)  can1  595FF71   [8]  05 80 60 09 60 09 F6 5D
 (3.1820)  can1  596FF71   [8]  FD 7F FF FF FF FF FE B1
 (3.1890)  can1  4100209   [8]  A3 35 13 00 00 00 00 00
 (3.1890)  can1  4100208   [8]  22 10 13 00 00 00 00 00
 (3.1900)  can1  1948FF72   [8]  00 C0 00 55 FF FF 53 66
 (3.1910)  can1  89A0C02   [8]  00 00 00 00 99 17 00 00
 (3.1920)  can1  8030C02   [8]  00 00 2A 68 2A 68 92 17
 (3.1920)  can1  597FF71   [8]  0A 08 E0 0F FF FF FD 48
 (3.1930)  can1  598FF71   [8]  50 01 77 FF FF FF FD 58
 (3.1930)  can1  8580C02   [8]  FE FF 01 00 00 00 00 00
 (3.1950)  can1  585FF72   [8]  04 80 60 09 60 09 FD 09
 (3.1950)  can1  586FF72   [8]  00 80 FF FF FF FF F1 CB
 (3.1960)  can1  8100302   [5]  01 00 0A 00 14
 (3.1980)  can1  4100209   [8]  A3 35 13 00 00 00 00 00
 (3.1990)  can1  4100208   [8]  22 10 13 00 00 00 00 00
 (3.2020)  can1  595FF71   [8]  05 80 60 09 60 09 F7 5D
 (3.2020)  can1  596FF71   [8]  02 80 FF FF FF FF FF 63
 (3.2050)  can1  18800401   [8]  0D 25 8D 56 8D 39 8D 00
 (3.2060)  can1  18840401   [8]  0D 3C 8D 6E 8D 50 8D 00
 (3.2060)  can1  18C00401   [8]  0D E4 30 B4 2F F5 2F 00
 (3.2070)  can1  1948FF71   [8]  00 C0 00 55 FF FF 53 66
 (3.2090)  can1  4100209   [8]  A3 35 13 00 00 00 00 00
 (3.2090)  can1  4100208   [8]  22 10 13 00 00 00 00 00
 (3.2110)  can1  5807202   [8]  04 80 00 00 E0 01 02 3C
 (3.2120)  can1  5817202   [8]  01 00 10 27 10 27 05 E3
 (3.2120)  can1  5907102   [8]  05 80 00 00 E0 01 02 68
 (3.2120)  can1  5917102   [8]  01 00 10 27 10 27 05 E3
 (3.2130)  can1  5827202   [8]  FA 00 00 00 00 00 02 D4
 (3.2130)  can1  5927102   [8]  FA 00 00 00 00 00 02 D4
 (3.2130)  can1  8010C01   [8]  34 62 00 00 00 00 00 00
 (3.2140)  can1  5837202   [8]  2C 41 06 00 00 00 02 E0
 (3.2140)  can1  5847270   [8]  00 00 00 00 00 00 02 9F
 (3.2140)  can1  5937102   [8]  2C 41 06 00 00 00 02 E0
 (3.2150)  can1  5947102   [8]  00 00 00 00 00 00 02 9F
 (3.2150)  can1  8101201   [8]  B6 62 A1 8D DD 89 5F 00
 (3.2160)  can1  8580C02   [8]  01 00 00 00 00 00 00 00
 (3.2160)  can1  585FF72   [8]  04 80 60 09 60 09 FE 09
 (3.2160)  can1  586FF72   [8]  01 80 FF FF FF FF F2 9F
 (3.2170)  can1  8030C02   [8]  00 00 2A 68 2A 68 92 17
 (3.2170)  can1  89A0C02   [8]  99 17 00 00 00 00 00 00
 (3.2170)  can1  1949FF71   [8]  0D 80 00 0D 90 00 54 7E
 (3.2180)  can1  194AFF71   [8]  3A 77 57 80 05 58 55 3A
 (3.2180)  can1  194BFF71   [8]  86 F5 FF FF FF FF 56 CD
 (3.2180)  can1  194CFF71   [8]  FF FF FF FF FF FF 57 51
 (3.2190)  can1  4100209   [8]  A3 35 13 00 00 00 00 00
 (3.2190)  can1  4100208   [8]  22 10 13 00 00 00 00 00
 (3.2210)  can1  8100302   [5]  01 00 0A 00 14
 (3.2220)  can1  595FF71   [8]  05 80 60 09 60 09 F8 5D
 (3.2220)  can1  596FF71   [8]  FF 7F FF FF FF FF F0 19
 (3.2250)  can1  588FF72   [8]  C0 01 52 FF FF FF FE 22
 (3.2250)  can1  589FF72   [8]  1A E0 02 82 02 00 FE D1
 (3.2260)  can1  1949FF72   [8]  0D 80 00 0D 90 00 54 7E
 (3.2340)  can1  194AFF72   [8]  70 D7 57 7D 75 57 55 3C
 (3.2350)  can1  194BFF72   [8]  77 F5 FF FF FF FF 56 BE
 (3.2350)  can1  194CFF72   [8]  FF FF FF FF FF FF 57 51
 (3.2350)  can1  4100209   [8]  A3 35 13 00 00 00 00 00
 (3.2360)  can1  4100208   [8]  22 10 13 00 00 00 00 00
 (3.2360)  can1  89A0C02   [8]  00 00 00 00 CC 0B 00 00
 (3.2360)  can1  8030C02   [8]  00 00 2A 68 2A 68 92 17
 (3.2360)  can1  8580C02   [8]  00 00 00 00 00 00 00 00
 (3.2370)  can1  585FF72   [8]  04 80 60 09 60 09 FF 09
 (3.2370)  can1  586FF72   [8]  01 80 FF FF FF FF F3 9F
 (3.2390)  can1  4100209   [8]  A3 35 13 00 00 00 00 00
 (3.2390)  can1  4100208   [8]  22 10 13 00 00 00 00 00
 (3.2420)  can1  595FF71   [8]  05 80 60 09 60 09 F9 5D
 (3.2420)  can1  596FF71   [8]  FF 7F FF FF FF FF F1 19
 (3.2460)  can1  8100302   [5]  01 00 0A 00 14
 (3.2490)  can1  4100209   [8]  A3 35 13 00 00 00 00 00
 (3.2500)  can1  4100208   [8]  22 10 13 00 00 00 00 00
 (3.2510)  can1  89A0C02   [8]  00 00 00 00 CC 0B 00 00
 (3.2510)  can1  8030C02   [8]  00 00 2A 68 2A 68 92 17
 (3.2520)  can1  8580C02   [8]  00 00 00 00 00 00 00 00
 (3.2530)  can1  8041001   [8]  02 02 10 32 04 B3 3B 00
 (3.2550)  can1  585FF72   [8]  04 80 60 09 60 09 F0 09
 (3.2550)  can1  586FF72   [8]  01 80 FF FF FF FF F4 9F
 (3.2550)  can1  18800401   [8]  0E F9 8C EA 8C D2 8C 00
 (3.2560)  can1  18840401   [8]  0E 13 8D 03 8D D7 8C 00
 (3.2560)  can1  18C00401   [8]  0E 74 2F 93 30 79 30 00
 (3.2590)  can1  4100209   [8]  A3 35 13 00 00 00 00 00
 (3.2590)  can1  4100208   [8]  22 10 13 00 00 00 00 00
 (3.2620)  can1  595FF71   [8]  05 80 60 09 60 09 FA 5D
 (3.2620)  can1  596FF71   [8]  FD 7F FF FF FF FF F2 B1
