 (1.2210)  can1  8041001   [8]  37 02 10 3D FC A2 3B 00
 (1.2250)  can1  8580C02   [8]  09 00 09 00 04 00 04 00
 (1.2260)  can1  588FF72   [8]  D0 01 51 FF FF FF F6 01
 (1.2270)  can1  589FF72   [8]  1A E0 02 82 02 00 F6 D1
 (1.2270)  can1  18800401   [8]  02 71 8F D9 8F C3 8F 00
 (1.2270)  can1  588FF72   [8]  D0 01 51 FF FF FF F0 01
 (1.2280)  can1  589FF72   [8]  1A E0 02 81 02 00 F0 C3
 (1.2280)  can1  18800401   [8]  16 B3 8F D5 8F F7 8F 00
 (1.2280)  can1  18840401   [8]  16 CB 8F EC 8F 0F 90 00
 (1.2290)  can1  18C00401   [8]  16 7C 2F AE 2F F7 2E 00
 (1.2290)  can1  4100209   [8]  C4 00 00 00 07 00 00 00
 (1.2290)  can1  595FF71   [8]  04 80 60 09 60 09 FE 09
 (1.2300)  can1  4100208   [8]  CB 00 00 00 07 00 00 00
 (1.2300)  can1  596FF71   [8]  11 80 FF FF FF FF FE 4C
 (1.2320)  can1  585FF72   [8]  04 80 60 09 60 09 FF 09
 (1.2330)  can1  586FF72   [8]  11 80 FF FF FF FF FF 4C
 (1.2340)  can1  587FF72   [8]  04 08 11 10 FF FF F0 C2
 (1.2370)  can1  4100209   [8]  C5 00 00 00 03 00 00 00
 (1.2380)  can1  4100208   [8]  CC 00 00 00 07 00 00 00
 (1.2390)  can1  8100302   [5]  01 00 0A 00 07
 (1.2400)  can1  8580C02   [8]  0C 00 0C 00 0A 00 04 00
 (1.2400)  can1  89A0C02   [8]  98 C8 00 00 98 C8 00 00
 (1.2400)  can1  8030C02   [8]  00 00 43 02 43 02 08 1F
 (1.2470)  can1  4100209   [8]  C6 00 00 00 07 00 00 00
 (1.2480)  can1  595FF71   [8]  04 80 60 09 60 09 FF 09
 (1.2480)  can1  4100208   [8]  CE 00 00 00 07 00 00 00
 (1.2490)  can1  596FF71   [8]  0F 80 FF FF FF FF FF B6
 (1.2500)  can1  597FF71   [8]  00 08 2D 10 FF FF F0 96
 (1.2500)  can1  598FF71   [8]  40 01 78 FF FF FF F0 CA
 (1.2500)  can1  599FF71   [8]  1A D0 02 81 02 00 F0 87
 (1.2520)  can1  585FF72   [8]  04 80 60 09 60 09 F0 09
 (1.2530)  can1  586FF72   [8]  0B 80 FF FF FF FF F0 C9
 (1.2570)  can1  4100209   [8]  C8 00 00 00 07 00 00 00
 (1.2580)  can1  4100208   [8]  CE 00 00 00 03 00 00 00
 (1.2590)  can1  5807202   [8]  09 80 00 00 E0 01 02 E9
 (1.2600)  can1  5817202   [8]  01 00 10 27 10 27 05 E3
 (1.2600)  can1  5907102   [8]  09 80 00 00 E0 01 02 E9
 (1.2610)  can1  5917102   [8]  01 00 10 27 10 27 05 E3
 (1.2620)  can1  5827202   [8]  FA 00 00 00 00 00 02 D4
 (1.2630)  can1  5927102   [8]  FA 00 00 00 00 00 02 D4
 (1.2630)  can1  5837202   [8]  2C 41 06 00 00 00 02 E0
 (1.2640)  can1  5847270   [8]  00 00 00 00 00 00 02 9F
 (1.2640)  can1  5937102   [8]  2C 41 06 00 00 00 02 E0
 (1.2650)  can1  5947102   [8]  00 00 00 00 00 00 02 9F
 (1.2650)  can1  8580C02   [8]  0A 00 07 00 04 00 0A 00
 (1.2650)  can1  89A0C02   [8]  FF B0 00 00 CC 81 00 00
 (1.2660)  can1  8030C02   [8]  30 75 0B 00 B0 FF 00 00
 (1.2660)  can1  8100302   [5]  02 00 0A 00 07
 (1.2660)  can1  8101201   [8]  A6 64 50 90 15 8D 56 00
 (1.2670)  can1  8010C01   [8]  27 64 00 00 00 00 00 00
 (1.2670)  can1  4100209   [8]  C9 00 00 00 07 00 00 00
 (1.2680)  can1  4100208   [8]  CF 00 00 00 07 00 00 00
 (1.2680)  can1  595FF71   [8]  09 80 60 09 60 09 F0 DC
 (1.2680)  can1  596FF71   [8]  0A 80 FF FF FF FF F0 9D
 (1.2720)  can1  585FF72   [8]  04 80 60 09 60 09 F1 09
 (1.2730)  can1  586FF72   [8]  0F 80 FF FF FF FF F1 B6
 (1.2730)  can1  18800401   [8]  17 EB 8F 00 00 00 00 00
 (1.2740)  can1  18840401   [8]  17 04 90 00 00 00 00 00
 (1.2740)  can1  18C00401   [8]  17 F0 2E 10 27 10 27 00
 (1.2770)  can1  4100209   [8]  CA 00 00 00 03 00 00 00
 (1.2770)  can1  4100208   [8]  D1 00 00 00 07 00 00 00
 (1.2790)  can1  89A0C02   [8]  FF 75 00 00 FF B0 00 00
 (1.2800)  can1  8030C02   [8]  00 00 CB 00 D8 01 BD 18
 (1.2800)  can1  8580C02   [8]  07 00 0A 00 0A 00 04 00
 (1.2870)  can1  4100209   [8]  CB 00 00 00 07 00 00 00
 (1.2880)  can1  595FF71   [8]  09 80 60 09 60 09 F1 DC
 (1.2880)  can1  4100208   [8]  D2 00 00 00 07 00 00 00
 (1.2880)  can1  596FF71   [8]  19 80 FF FF FF FF F1 B2
 (1.2890)  can1  8100302   [5]  02 00 0A 00 07
 (1.2920)  can1  585FF72   [8]  09 80 60 09 60 09 F2 DC
 (1.2930)  can1  586FF72   [8]  18 80 FF FF FF FF F2 E6
 (1.2970)  can1  4100209   [8]  CC 00 00 00 03 00 00 00
 (1.2980)  can1  4100208   [8]  D3 00 00 00 03 00 00 00
 (1.2990)  can1  89A0C02   [8]  FE 26 01 00 32 1B 01 00
 (1.3000)  can1  8030C02   [8]  00 00 F1 03 BB 03 34 38
 (1.3000)  can1  8580C02   [8]  11 00 11 00 04 00 04 00
 (1.3070)  can1  4100209   [8]  CD 00 00 00 07 00 00 00
 (1.3070)  can1  595FF71   [8]  09 80 60 09 60 09 F2 DC
 (1.3080)  can1  4100208   [8]  D4 00 00 00 07 00 00 00
 (1.3080)  can1  596FF71   [8]  13 80 FF FF FF FF F2 E4
 (1.3120)  can1  585FF72   [8]  09 80 60 09 60 09 F3 DC
 (1.3130)  can1  586FF72   [8]  10 80 FF FF FF FF F3 18
 (1.3130)  can1  1948FF72   [8]  00 C0 00 55 FF FF F4 07
 (1.3140)  can1  8100302   [5]  02 00 0A 00 07
 (1.3170)  can1  4100209   [8]  CE 00 00 00 03 00 00 00
 (1.3180)  can1  4100208   [8]  D5 00 00 00 03 00 00 00
 (1.3190)  can1  5807202   [8]  09 80 00 00 E0 01 03 E9
 (1.3200)  can1  5817202   [8]  01 00 10 27 10 27 06 E3
 (1.3200)  can1  5907102   [8]  09 80 00 00 E0 01 03 E9
 (1.3210)  can1  8041001   [8]  36 02 00 3D FC A2 3B 00
 (1.3210)  can1  5827202   [8]  FA 00 00 00 00 00 03 D4
 (1.3220)  can1  5917102   [8]  01 00 10 27 10 27 06 E3
 (1.3220)  can1  5927102   [8]  FA 00 00 00 00 00 03 D4
 (1.3220)  can1  5837202   [8]  2C 41 06 00 00 00 03 E0
 (1.3230)  can1  5937102   [8]  2C 41 06 00 00 00 03 E0
 (1.3230)  can1  588FF72   [8]  D0 01 51 FF FF FF F1 01
 (1.3240)  can1  5847270   [8]  00 00 00 00 00 00 03 9F
 (1.3250)  can1  589FF72   [8]  1A D0 02 81 02 00 F1 87
 (1.3250)  can1  5947102   [8]  00 00 00 00 00 00 03 9F
 (1.3260)  can1  8580C02   [8]  0D 00 0B 00 04 00 04 00
 (1.3260)  can1  89A0C02   [8]  32 E0 00 00 CC BC 00 00
 (1.3260)  can1  18800401   [8]  00 4B 90 61 8F 50 8F 00
 (1.3270)  can1  18840401   [8]  00 68 90 7E 8F 79 8F 00
 (1.3270)  can1  8030C02   [8]  00 00 AF 02 0D 02 53 25
 (1.3270)  can1  18C00401   [8]  00 95 2F 0E 2F 0B 30 00
 (1.3280)  can1  1948FF71   [8]  00 C0 00 55 FF FF F4 07
 (1.3290)  can1  1949FF72   [8]  0D 80 00 0C 80 00 F5 0E
 (1.3290)  can1  194AFF72   [8]  79 67 58 86 65 58 F6 71
 (1.3300)  can1  194BFF72   [8]  86 F5 FF FF FF FF F7 6E
 (1.3300)  can1  194CFF72   [8]  FF FF FF FF FF FF F8 F2
 (1.3300)  can1  4100209   [8]  CF 00 00 00 07 00 00 00
 (1.3310)  can1  595FF71   [8]  09 80 60 09 60 09 F3 DC
 (1.3310)  can1  4100208   [8]  D6 00 00 00 07 00 00 00
 (1.3310)  can1  596FF71   [8]  04 80 FF FF FF FF F3 B4
 (1.3320)  can1  1949FF71   [8]  0D 80 00 0C 90 00 F5 1E
 (1.3320)  can1  194AFF71   [8]  32 67 58 86 85 58 F6 4A
 (1.3320)  can1  194BFF71   [8]  88 F5 FF FF FF FF F7 70
 (1.3330)  can1  194CFF71   [8]  FF FF FF FF FF FF F8 F2
 (1.3330)  can1  585FF72   [8]  09 80 60 09 60 09 F4 DC
 (1.3330)  can1  586FF72   [8]  08 80 FF FF FF FF F4 35
 (1.3340)  can1  587FF72   [8]  00 08 0F 10 FF FF F1 3F
 (1.3370)  can1  4100209   [8]  D0 00 00 00 07 00 00 00
 (1.3380)  can1  4100208   [8]  D7 00 00 00 07 00 00 00
 (1.3390)  can1  8100302   [5]  02 00 0A 00 07
 (1.3400)  can1  8580C02   [8]  02 00 05 00 0A 00 0A 00
 (1.3400)  can1  89A0C02   [8]  33 2F 00 00 66 5E 00 00
 (1.3410)  can1  8030C02   [8]  30 75 0F FF 6B FF 00 00
 (1.3470)  can1  4100209   [8]  D1 00 00 00 03 00 00 00
 (1.3480)  can1  4100208   [8]  D8 00 00 00 07 00 00 00
 (1.3480)  can1  595FF71   [8]  09 80 60 09 60 09 F4 DC
 (1.3490)  can1  596FF71   [8]  0A 80 FF FF FF FF F4 9D
 (1.3490)  can1  597FF71   [8]  02 08 29 10 FF FF F1 B4
 (1.3500)  can1  598FF71   [8]  40 01 78 FF FF FF F1 CA
 (1.3500)  can1  599FF71   [8]  1A D0 02 81 02 00 F1 87
 (1.3520)  can1  585FF72   [8]  09 80 60 09 60 09 F5 DC
 (1.3530)  can1  586FF72   [8]  0C 80 FF FF FF FF F5 4A
 (1.3570)  can1  4100209   [8]  D2 00 00 00 07 00 00 00
 (1.3580)  can1  4100208   [8]  D9 00 00 00 03 00 00 00
 (1.3590)  can1  89A0C02   [8]  FF 75 00 00 99 8D 00 00
 (1.3600)  can1  8030C02   [8]  30 75 99 FF C7 FF 00 00
 (1.3610)  can1  8580C02   [8]  07 00 08 00 04 00 0A 00
 (1.3640)  can1  8100302   [5]  02 00 0A 00 07
 (1.3670)  can1  4100209   [8]  D3 00 00 00 07 00 00 00
 (1.3680)  can1  8010C01   [8]  22 64 00 00 00 00 00 00
 (1.3680)  can1  4100208   [8]  DA 00 00 00 07 00 00 00
 (1.3680)  can1  595FF71   [8]  09 80 60 09 60 09 F5 DC
 (1.3690)  can1  596FF71   [8]  12 80 FF FF FF FF F5 B0
 (1.3690)  can1  8101201   [8]  A0 64 4B 90 15 8D 85 00
 (1.3720)  can1  585FF72   [8]  09 80 60 09 60 09 F6 DC
 (1.3730)  can1  586FF72   [8]  0F 80 FF FF FF FF F6 B6
 (1.3730)  can1  18800401   [8]  01 4F 8F 69 8F 5F 8F 00
 (1.3730)  can1  18840401   [8]  01 6D 8F 85 8F 7B 8F 00
 (1.3730)  can1  18C00401   [8]  01 B0 2F 35 30 D5 2F 00
 (1.3770)  can1  4100209   [8]  D4 00 00 00 03 00 00 00
 (1.3780)  can1  4100208   [8]  DB 00 00 00 03 00 00 00
 (1.3790)  can1  5807202   [8]  09 80 00 00 E0 01 04 E9
 (1.3800)  can1  5817202   [8]  01 00 10 27 10 27 07 E3
 (1.3810)  can1  5907102   [8]  09 80 00 00 E0 01 04 E9
 (1.3810)  can1  5917102   [8]  01 00 10 27 10 27 07 E3
 (1.3810)  can1  5827202   [8]  FA 00 00 00 00 00 04 D4
 (1.3820)  can1  5927102   [8]  FA 00 00 00 00 00 04 D4
 (1.3820)  can1  5837202   [8]  2C 41 06 00 00 00 04 E0
 (1.3830)  can1  5847270   [8]  00 00 00 00 00 00 04 9F
 (1.3830)  can1  5937102   [8]  2C 41 06 00 00 00 04 E0
 (1.3840)  can1  5947102   [8]  00 00 00 00 00 00 04 9F
 (1.3840)  can1  8580C02   [8]  0C 00 0A 00 04 00 04 00
 (1.3840)  can1  89A0C02   [8]  65 D4 00 00 FF B0 00 00
 (1.3850)  can1  8030C02   [8]  00 00 79 02 D8 01 2D 22
 (1.3870)  can1  4100209   [8]  D5 00 00 00 07 00 00 00
 (1.3880)  can1  595FF71   [8]  09 80 60 09 60 09 F6 DC
 (1.3890)  can1  4100208   [8]  DC 00 00 00 07 00 00 00
 (1.3890)  can1  596FF71   [8]  10 80 FF FF FF FF F6 18
 (1.3890)  can1  8100302   [5]  02 00 0A 00 07
 (1.3920)  can1  585FF72   [8]  09 80 60 09 60 09 F7 DC
 (1.3930)  can1  586FF72   [8]  09 80 FF FF FF FF F7 61
 (1.3970)  can1  4100209   [8]  D6 00 00 00 03 00 00 00
 (1.3980)  can1  4100208   [8]  DE 00 00 00 07 00 00 00
 (1.3990)  can1  89A0C02   [8]  CC BC 00 00 32 6A 00 00
 (1.4000)  can1  8030C02   [8]  00 00 0D 02 95 00 E2 1B
 (1.4000)  can1  8580C02   [8]  0B 00 06 00 0A 00 04 00
 (1.4070)  can1  4100209   [8]  D7 00 00 00 07 00 00 00
 (1.4080)  can1  595FF71   [8]  09 80 60 09 60 09 F7 DC
 (1.4090)  can1  4100208   [8]  DF 00 00 00 07 00 00 00
 (1.4090)  can1  596FF71   [8]  04 80 FF FF FF FF F7 B4
 (1.4120)  can1  585FF72   [8]  09 80 60 09 60 09 F8 DC
 (1.4130)  can1  586FF72   [8]  0B 80 FF FF FF FF F8 C9
 (1.4140)  can1  8100302   [5]  02 00 0A 00 07
 (1.4170)  can1  4100209   [8]  D8 00 00 00 03 00 00 00
 (1.4170)  can1  4100208   [8]  E0 00 00 00 03 00 00 00
 (1.4190)  can1  89A0C02   [8]  33 2F 00 00 CC 81 00 00
 (1.4200)  can1  8030C02   [8]  00 00 8A FF 01 01 26 0C
 (1.4200)  can1  8041001   [8]  36 02 00 3D FC A2 3B 00
 (1.4210)  can1  8580C02   [8]  02 00 07 00 04 00 04 00
 (1.4220)  can1  588FF72   [8]  D0 01 51 FF FF FF F2 01
 (1.4230)  can1  589FF72   [8]  1A E0 02 82 02 00 F2 D1
 (1.4230)  can1  18800401   [8]  02 82 8F E4 8F D0 8F 00
 (1.4240)  can1  18840401   [8]  02 9F 8F 05 90 EF 8F 00
 (1.4240)  can1  18C00401   [8]  02 12 30 D2 2F F4 2F 00
 (1.4270)  can1  4100209   [8]  D9 00 00 00 07 00 00 00
 (1.4280)  can1  4100208   [8]  E1 00 00 00 07 00 00 00
 (1.4290)  can1  595FF71   [8]  09 80 60 09 60 09 F8 DC
 (1.4290)  can1  596FF71   [8]  0D 80 FF FF FF FF F8 1E
 (1.4320)  can1  585FF72   [8]  09 80 60 09 60 09 F9 DC
 (1.4330)  can1  586FF72   [8]  12 80 FF FF FF FF F9 B0
 (1.4330)  can1  587FF72   [8]  07 08 11 10 FF FF F2 3E
 (1.4370)  can1  4100209   [8]  DA 00 00 00 03 00 00 00
 (1.4370)  can1  4100208   [8]  E1 00 00 00 03 00 00 00
 (1.4390)  can1  5807202   [8]  0E 80 00 00 E0 01 05 6A
 (1.4400)  can1  5817202   [8]  01 00 10 27 10 27 08 E3
 (1.4400)  can1  5907102   [8]  0E 80 00 00 E0 01 05 6A
 (1.4410)  can1  5917102   [8]  01 00 10 27 10 27 08 E3
 (1.4420)  can1  5827202   [8]  FA 00 00 00 00 00 05 D4
 (1.4430)  can1  5927102   [8]  FA 00 00 00 00 00 05 D4
 (1.4430)  can1  5837202   [8]  2C 41 06 00 00 00 05 E0
 (1.4440)  can1  5847270   [8]  00 00 00 00 00 00 05 9F
 (1.4440)  can1  5937102   [8]  2C 41 06 00 00 00 05 E0
 (1.4440)  can1  5947102   [8]  00 00 00 00 00 00 05 9F
 (1.4450)  can1  8100302   [5]  03 00 0A 00 07
 (1.4450)  can1  89A0C02   [8]  65 99 00 00 65 D4 00 00
 (1.4450)  can1  8580C02   [8]  09 00 0C 00 04 00 04 00
 (1.4450)  can1  8030C02   [8]  00 00 6C 01 79 02 2D 22
 (1.4470)  can1  4100209   [8]  DB 00 00 00 07 00 00 00
 (1.4470)  can1  595FF71   [8]  0E 80 60 09 60 09 F9 5F
 (1.4480)  can1  4100208   [8]  E3 00 00 00 07 00 00 00
 (1.4490)  can1  596FF71   [8]  15 80 FF FF FF FF F9 33
 (1.4490)  can1  597FF71   [8]  FE 07 2B 10 FF FF F2 A4
 (1.4500)  can1  598FF71   [8]  30 01 79 FF FF FF F2 18
 (1.4500)  can1  599FF71   [8]  1A D0 02 81 02 00 F2 87
 (1.4520)  can1  585FF72   [8]  09 80 60 09 60 09 FA DC
 (1.4530)  can1  586FF72   [8]  0B 80 FF FF FF FF FA C9
 (1.4570)  can1  4100209   [8]  DC 00 00 00 07 00 00 00
 (1.4570)  can1  4100208   [8]  E4 00 00 00 07 00 00 00
 (1.4590)  can1  89A0C02   [8]  CB F7 00 00 CC 81 00 00
 (1.4600)  can1  8030C02   [8]  99 3A 95 00 B0 FF DB 05
 (1.4600)  can1  8580C02   [8]  0E 00 07 00 0A 00 0A 00
 (1.4640)  can1  8100302   [5]  03 00 0A 00 07
 (1.4670)  can1  4100209   [8]  DD 00 00 00 03 00 00 00
 (1.4680)  can1  595FF71   [8]  0E 80 60 09 60 09 FA 5F
 (1.4680)  can1  4100208   [8]  E5 00 00 00 03 00 00 00
 (1.4690)  can1  596FF71   [8]  13 80 FF FF FF FF FA E4
 (1.4700)  can1  8010C01   [8]  1F 64 00 00 00 00 00 00
 (1.4700)  can1  8101201   [8]  9C 64 49 90 16 8D 8C 00
 (1.4700)  can1  404FF03   [1]  00
 (1.4720)  can1  18800401   [8]  03 BC 8F AE 8F CB 8F 00
 (1.4730)  can1  585FF72   [8]  0E 80 60 09 60 09 FB 5F
 (1.4730)  can1  586FF72   [8]  0E 80 FF FF FF FF FB E2
 (1.4740)  can1  8250C03   [8]  3A 00 6D 01 00 00 20 00
 (1.4740)  can1  8840C03   [8]  34 00 13 00 21 00 07 00
 (1.4750)  can1  88D0C03   [8]  2F 00 00 00 5D 00 61 00
 (1.4750)  can1  18840401   [8]  03 DC 8F CE 8F E9 8F 00
 (1.4750)  can1  18C00401   [8]  03 BF 2F BA 2F 7C 2F 00
 (1.4770)  can1  4100209   [8]  DE 00 00 00 07 00 00 00
 (1.4770)  can1  4100208   [8]  E6 00 00 00 07 00 00 00
 (1.4790)  can1  89A0C02   [8]  32 E0 00 00 32 A5 00 00
 (1.4800)  can1  8030C02   [8]  92 55 67 00 F5 FF 29 03
 (1.4800)  can1  8580C02   [8]  0D 00 09 00 0A 00 0A 00
 (1.4850)  can1  404FF07   [1]  00
 (1.4870)  can1  4100209   [8]  E0 00 00 00 07 00 00 00
 (1.4880)  can1  595FF71   [8]  0E 80 60 09 60 09 FB 5F
 (1.4880)  can1  4100208   [8]  E7 00 00 00 07 00 00 00
 (1.4880)  can1  596FF71   [8]  09 80 FF FF FF FF FB 61
 (1.4890)  can1  8100302   [5]  03 00 0A 00 07
 (1.4920)  can1  585FF72   [8]  0E 80 60 09 60 09 FC 5F
 (1.4930)  can1  586FF72   [8]  19 80 FF FF FF FF FC B2
 (1.4970)  can1  4100209   [8]  E0 00 00 00 03 00 00 00
 (1.4980)  can1  4100208   [8]  E9 00 00 00 07 00 00 00
 (1.4990)  can1  5807202   [8]  13 80 00 00 E0 01 06 6C
 (1.5000)  can1  5817202   [8]  01 00 10 27 10 27 09 E3
 (1.5010)  can1  5907102   [8]  13 80 00 00 E0 01 06 6C
 (1.5010)  can1  5917102   [8]  01 00 10 27 10 27 09 E3
 (1.5020)  can1  5827202   [8]  FA 00 00 00 00 00 06 D4
 (1.5020)  can1  5927102   [8]  FA 00 00 00 00 00 06 D4
 (1.5030)  can1  5837202   [8]  2C 41 06 00 00 00 06 E0
 (1.5030)  can1  5847270   [8]  00 00 00 00 00 00 06 9F
 (1.5040)  can1  5937102   [8]  2C 41 06 00 00 00 06 E0
 (1.5040)  can1  5947102   [8]  00 00 00 00 00 00 06 9F
 (1.5040)  can1  8580C02   [8]  06 00 11 00 0A 00 04 00
 (1.5050)  can1  89A0C02   [8]  32 6A 00 00 FE 26 01 00
 (1.5050)  can1  8030C02   [8]  00 00 95 00 F1 03 34 38
 (1.5070)  can1  4100209   [8]  E1 00 00 00 07 00 00 00
 (1.5080)  can1  595FF71   [8]  13 80 60 09 60 09 FC 59
 (1.5080)  can1  4100208   [8]  EA 00 00 00 07 00 00 00
 (1.5090)  can1  596FF71   [8]  0D 80 FF FF FF FF FC 1E
 (1.5120)  can1  585FF72   [8]  0E 80 60 09 60 09 FD 5F
 (1.5130)  can1  586FF72   [8]  0B 80 FF FF FF FF FD C9
 (1.5140)  can1  8100302   [5]  04 00 0A 00 07
 (1.5170)  can1  4100209   [8]  E3 00 00 00 07 00 00 00
 (1.5180)  can1  4100208   [8]  EA 00 00 00 03 00 00 00
 (1.5190)  can1  89A0C02   [8]  65 99 00 00 CC 81 00 00
 (1.5200)  can1  8030C02   [8]  30 75 DE FF B0 FF 00 00
 (1.5210)  can1  404FF01   [1]  00
 (1.5210)  can1  8041001   [8]  36 02 00 3D FC A2 3B 00
 (1.5210)  can1  8580C02   [8]  09 00 07 00 04 00 0A 00
 (1.5220)  can1  588FF72   [8]  D0 01 51 FF FF FF F3 01
 (1.5230)  can1  589FF72   [8]  1A E0 02 82 02 00 F3 D1
 (1.5240)  can1  80F1201   [4]  7C 10 00 00
 (1.5240)  can1  8120C01   [8]  90 00 00 00 00 00 00 00
 (1.5250)  can1  18800401   [8]  04 DD 8F CD 8F E7 8C 00
 (1.5250)  can1  18840401   [8]  04 07 90 F7 8F 15 8D 00
 (1.5250)  can1  18C00401   [8]  04 E8 2E CC 2E E7 2F 00
 (1.5270)  can1  4100209   [8]  E4 00 00 00 07 00 00 00
 (1.5270)  can1  595FF71   [8]  13 80 60 09 60 09 FD 59
 (1.5280)  can1  4100208   [8]  EC 00 00 00 07 00 00 00
 (1.5280)  can1  596FF71   [8]  16 80 FF FF FF FF FD CF
 (1.5320)  can1  585FF72   [8]  13 80 60 09 60 09 FE 59
 (1.5330)  can1  586FF72   [8]  0C 80 FF FF FF FF FE 4A
 (1.5330)  can1  587FF72   [8]  10 08 11 10 FF FF F3 6E
 (1.5370)  can1  4100209   [8]  E5 00 00 00 03 00 00 00
 (1.5380)  can1  4100208   [8]  ED 00 00 00 07 00 00 00
 (1.5390)  can1  404FF02   [1]  00
 (1.5400)  can1  8100302   [5]  04 00 0A 00 07
 (1.5400)  can1  89A0C02   [8]  98 03 01 00 99 8D 00 00
 (1.5410)  can1  8580C02   [8]  0F 00 08 00 0A 00 04 00
 (1.5410)  can1  8030C02   [8]  00 00 50 03 37 01 C3 2E
 (1.5470)  can1  4100209   [8]  E6 00 00 00 07 00 00 00
 (1.5480)  can1  595FF71   [8]  13 80 60 09 60 09 FE 59
 (1.5480)  can1  4100208   [8]  EE 00 00 00 07 00 00 00
 (1.5490)  can1  596FF71   [8]  10 80 FF FF FF FF FE 18
 (1.5490)  can1  597FF71   [8]  08 08 29 10 FF FF F3 E2
 (1.5490)  can1  598FF71   [8]  40 01 78 FF FF FF F3 CA
 (1.5500)  can1  599FF71   [8]  1A E0 02 82 02 00 F3 D1
 (1.5520)  can1  585FF72   [8]  13 80 60 09 60 09 FF 59
 (1.5530)  can1  586FF72   [8]  18 80 FF FF FF FF FF E6
 (1.5570)  can1  4100209   [8]  E7 00 00 00 07 00 00 00
 (1.5580)  can1  4100208   [8]  F0 00 00 00 07 00 00 00
 (1.5590)  can1  5807202   [8]  1C 80 00 00 E0 01 07 11
 (1.5600)  can1  5817202   [8]  01 00 10 27 10 27 0A E3
 (1.5600)  can1  5907102   [8]  1C 80 00 00 E0 01 07 11
 (1.5610)  can1  5917102   [8]  01 00 10 27 10 27 0A E3
 (1.5610)  can1  5827202   [8]  FA 00 00 00 00 00 07 D4
 (1.5620)  can1  5927102   [8]  FA 00 00 00 00 00 07 D4
 (1.5620)  can1  5837202   [8]  2C 41 06 00 00 00 07 E0
 (1.5630)  can1  5847270   [8]  00 00 00 00 00 00 07 9F
 (1.5640)  can1  5937102   [8]  2C 41 06 00 00 00 07 E0
 (1.5640)  can1  5947102   [8]  00 00 00 00 00 00 07 9F
 (1.5650)  can1  8580C02   [8]  0B 00 11 00 0A 00 0A 00
 (1.5650)  can1  89A0C02   [8]  CC BC 00 00 32 1B 01 00
 (1.5650)  can1  8030C02   [8]  24 12 22 00 DB 00 E7 09
 (1.5660)  can1  8100302   [5]  06 00 0A 00 07
 (1.5670)  can1  4100209   [8]  E9 00 00 00 07 00 00 00
 (1.5670)  can1  595FF71   [8]  1C 80 60 09 60 09 FF 24
 (1.5680)  can1  4100208   [8]  F1 00 00 00 07 00 00 00
 (1.5680)  can1  596FF71   [8]  12 80 FF FF FF FF FF B0
 (1.5690)  can1  1948FF72   [8]  00 C0 00 55 FF FF F9 0C
 (1.5690)  can1  8101201   [8]  90 64 3B 90 15 8D BC 00
 (1.5700)  can1  8010C01   [8]  11 64 00 00 00 00 00 00
 (1.5700)  can1  18101203   [4]  31 2D 11 08
 (1.5720)  can1  18800401   [8]  05 AB 8F 97 8F A0 8F 00
 (1.5730)  can1  585FF72   [8]  13 80 60 09 60 09 F0 59
 (1.5740)  can1  586FF72   [8]  0E 80 FF FF FF FF F0 E2
 (1.5740)  can1  18840401   [8]  05 D5 8F C3 8F CB 8F 00
 (1.5750)  can1  18C00401   [8]  05 E9 2F 43 30 65 30 00
 (1.5770)  can1  4100209   [8]  EA 00 00 00 07 00 00 00
 (1.5780)  can1  1949FF72   [8]  0D 80 00 0B A0 00 FA 32
 (1.5780)  can1  4100208   [8]  F3 00 00 00 0B 00 00 00
 (1.5790)  can1  1948FF71   [8]  00 C0 00 55 FF FF F9 0C
 (1.5790)  can1  194AFF72   [8]  79 77 57 77 75 57 FB 85
 (1.5800)  can1  194BFF72   [8]  77 F5 FF FF FF FF FC 64
 (1.5800)  can1  194CFF72   [8]  FF FF FF FF FF FF FD F7
 (1.5810)  can1  89A0C02   [8]  65 D4 00 00 32 A5 00 00
 (1.5810)  can1  8030C02   [8]  0E 63 50 00 F5 FF D0 01
 (1.5810)  can1  8580C02   [8]  0C 00 09 00 10 00 0A 00
 (1.5830)  can1  1949FF71   [8]  0D 80 00 0D 90 00 FA 24
 (1.5830)  can1  194AFF71   [8]  32 67 58 86 65 58 FB 2F
 (1.5840)  can1  194BFF71   [8]  8E F5 FF FF FF FF FC 7B
 (1.5850)  can1  194CFF71   [8]  FF FF FF FF FF FF FD F7
 (1.5870)  can1  4100209   [8]  EC 00 00 00 0B 00 00 00
 (1.5880)  can1  4100208   [8]  F4 00 00 00 07 00 00 00
 (1.5880)  can1  595FF71   [8]  1C 80 60 09 60 09 F0 24
 (1.5890)  can1  596FF71   [8]  19 80 FF FF FF FF F0 B2
 (1.5890)  can1  8100302   [5]  06 00 0A 00 07
 (1.5920)  can1  585FF72   [8]  1C 80 60 09 60 09 F1 24
 (1.5930)  can1  586FF72   [8]  14 80 FF FF FF FF F1 67
 (1.5970)  can1  4100209   [8]  ED 00 00 00 07 00 00 00
 (1.5980)  can1  4100208   [8]  F5 00 00 00 07 00 00 00
 (1.5990)  can1  89A0C02   [8]  FE 26 01 00 FF EB 00 00
 (1.6000)  can1  8030C02   [8]  A8 04 F2 00 7E 00 40 0B
 (1.6000)  can1  8580C02   [8]  11 00 0E 00 0A 00 0A 00
 (1.6070)  can1  4100209   [8]  EE 00 00 00 07 00 00 00
 (1.6080)  can1  595FF71   [8]  1C 80 60 09 60 09 F1 24
 (1.6080)  can1  4100208   [8]  F7 00 00 00 0B 00 00 00
 (1.6090)  can1  596FF71   [8]  19 80 FF FF FF FF F1 B2
 (1.6120)  can1  585FF72   [8]  1C 80 60 09 60 09 F2 24
 (1.6130)  can1  528FF72   [8]  CF FF 01 02 00 00 E5 01
 (1.6130)  can1  529FF72   [8]  15 00 62 00 0F 00 1C 00
 (1.6140)  can1  52AFF72   [8]  15 15 15 15 15 15 1D 00
 (1.6140)  can1  52BFF72   [8]  10 12 10 15 00 FF 00 00
 (1.6150)  can1  52CFF72   [8]  00 00 EF FF EF FF 3A 00
 (1.6150)  can1  586FF72   [8]  23 80 FF FF FF FF F2 BE
 (1.6150)  can1  8100302   [5]  06 00 0A 00 07
 (1.6170)  can1  4100209   [8]  F0 00 00 00 0B 00 00 00
 (1.6180)  can1  528FF71   [8]  21 00 0A 02 00 00 E5 01
 (1.6180)  can1  4100208   [8]  F9 00 00 00 0B 00 00 00
 (1.6190)  can1  529FF71   [8]  09 00 5E 00 0E 00 1C 00
 (1.6200)  can1  52AFF71   [8]  14 14 14 14 14 14 14 00
 (1.6200)  can1  52BFF71   [8]  0E 10 0E 14 00 FF 00 00
 (1.6210)  can1  52CFF71   [8]  00 00 EF FF EF FF 3A 00
 (1.6210)  can1  5807202   [8]  26 80 00 00 E0 01 08 1D
 (1.6210)  can1  5817202   [8]  01 00 10 27 10 27 0B E3
 (1.6220)  can1  5907102   [8]  26 80 00 00 E0 01 08 1D
 (1.6230)  can1  8041001   [8]  36 02 00 3D FC A2 3B 00
 (1.6230)  can1  5827202   [8]  FA 00 00 00 00 00 08 D4
 (1.6240)  can1  5917102   [8]  01 00 10 27 10 27 0B E3
 (1.6250)  can1  5927102   [8]  FA 00 00 00 00 00 08 D4
 (1.6250)  can1  5837202   [8]  2C 41 06 00 00 00 08 E0
 (1.6250)  can1  5937102   [8]  2C 41 06 00 00 00 08 E0
 (1.6260)  can1  18800401   [8]  06 8F 8F C8 8F CE 8F 00
 (1.6260)  can1  5847270   [8]  00 00 00 00 00 00 08 9F
 (1.6260)  can1  588FF72   [8]  D0 01 51 FF FF FF F4 01
 (1.6260)  can1  589FF72   [8]  1A E0 02 82 02 00 F4 D1
 (1.6270)  can1  5947102   [8]  00 00 00 00 00 00 08 9F
 (1.6270)  can1  8580C02   [8]  11 00 18 00 10 00 10 00
 (1.6280)  can1  89A0C02   [8]  FE 26 01 00 FE 9C 01 00
 (1.6280)  can1  18840401   [8]  06 D4 8F 0D 90 15 90 00
 (1.6290)  can1  8030C02   [8]  6F 29 20 00 B3 00 93 07
 (1.6290)  can1  18C00401   [8]  06 3D 30 9E 30 53 30 00
 (1.6290)  can1  4100209   [8]  F2 00 00 00 0B 00 00 00
 (1.6300)  can1  595FF71   [8]  26 80 60 09 60 09 F2 28
 (1.6300)  can1  4100208   [8]  FB 00 00 00 07 00 00 00
 (1.6300)  can1  596FF71   [8]  0B 80 FF FF FF FF F2 C9
 (1.6320)  can1  585FF72   [8]  1C 80 60 09 60 09 F3 24
 (1.6330)  can1  586FF72   [8]  10 80 FF FF FF FF F3 18
 (1.6340)  can1  587FF72   [8]  0F 08 0F 10 FF FF F4 42
 (1.6370)  can1  4100209   [8]  F4 00 00 00 0B 00 00 00
 (1.6380)  can1  4100208   [8]  FD 00 00 00 0F 00 00 00
 (1.6390)  can1  8100302   [5]  08 00 0A 00 06
 (1.6400)  can1  8580C02   [8]  07 00 0B 00 16 00 10 00
 (1.6400)  can1  89A0C02   [8]  CC 81 00 00 CC BC 00 00
 (1.6410)  can1  8030C02   [8]  30 75 54 FF 9E FF 00 00
 (1.6470)  can1  4100209   [8]  F5 00 00 00 07 00 00 00
 (1.6480)  can1  4100208   [8]  FE 00 00 00 07 00 00 00
 (1.6480)  can1  595FF71   [8]  26 80 60 09 60 09 F3 28
 (1.6480)  can1  596FF71   [8]  34 80 FF FF FF FF F3 EE
 (1.6490)  can1  597FF71   [8]  11 08 26 10 FF FF F4 DA
 (1.6490)  can1  598FF71   [8]  40 01 78 FF FF FF F4 CA
 (1.6500)  can1  599FF71   [8]  1A E0 02 82 02 00 F4 D1
 (1.6520)  can1  585FF72   [8]  26 80 60 09 60 09 F4 28
 (1.6530)  can1  586FF72   [8]  1E 80 FF FF FF FF F4 31
 (1.6570)  can1  4100209   [8]  F8 00 00 00 0F 00 00 00
 (1.6580)  can1  4100208   [8]  01 01 00 00 0F 00 00 00
 (1.6590)  can1  89A0C02   [8]  97 65 02 00 FE 61 01 00
 (1.6600)  can1  8030C02   [8]  8C 0E E1 00 F5 FF 43 0A
 (1.6600)  can1  8580C02   [8]  25 00 15 00 16 00 16 00
 (1.6640)  can1  8100302   [5]  08 00 0A 00 07
 (1.6670)  can1  4100209   [8]  FA 00 00 00 0B 00 00 00
 (1.6680)  can1  4100208   [8]  03 01 00 00 0B 00 00 00
 (1.6680)  can1  595FF71   [8]  26 80 60 09 60 09 F4 28
 (1.6680)  can1  596FF71   [8]  24 80 FF FF FF FF F4 3D
 (1.6700)  can1  8101201   [8]  72 64 22 90 14 8D 52 01
 (1.6710)  can1  8010C01   [8]  F6 63 00 00 00 00 00 00
 (1.6720)  can1  18800401   [8]  07 CA 8F BA 8F 98 8F 00
 (1.6730)  can1  585FF72   [8]  26 80 60 09 60 09 F5 28
 (1.6730)  can1  586FF72   [8]  25 80 FF FF FF FF F5 69
 (1.6740)  can1  18840401   [8]  07 0E 90 FF 8F DE 8F 00
 (1.6740)  can1  18C00401   [8]  07 A6 30 23 30 9A 30 00
 (1.6770)  can1  4100209   [8]  FC 00 00 00 0B 00 00 00
 (1.6770)  can1  4100208   [8]  06 01 00 00 0F 00 00 00
 (1.6790)  can1  5807202   [8]  26 80 00 00 E0 01 09 1D
 (1.6800)  can1  5817202   [8]  01 00 10 27 10 27 0C E3
 (1.6800)  can1  5907102   [8]  26 80 00 00 E0 01 09 1D
 (1.6810)  can1  5917102   [8]  01 00 10 27 10 27 0C E3
 (1.6820)  can1  5827202   [8]  FA 00 00 00 00 00 09 D4
 (1.6830)  can1  5927102   [8]  FA 00 00 00 00 00 09 D4
 (1.6830)  can1  5837202   [8]  2C 41 06 00 00 00 09 E0
 (1.6840)  can1  5847270   [8]  00 00 00 00 00 00 09 9F
 (1.6840)  can1  5937102   [8]  2C 41 06 00 00 00 09 E0
 (1.6850)  can1  5947102   [8]  00 00 00 00 00 00 09 9F
 (1.6850)  can1  8580C02   [8]  19 00 1A 00 16 00 10 00
 (1.6850)  can1  89A0C02   [8]  CB A8 01 00 98 B4 01 00
 (1.6850)  can1  8030C02   [8]  46 18 C1 00 D0 00 4A 09
 (1.6870)  can1  4100209   [8]  FE 00 00 00 0F 00 00 00
 (1.6870)  can1  595FF71   [8]  26 80 60 09 60 09 F5 28
 (1.6880)  can1  4100208   [8]  08 01 00 00 0F 00 00 00
 (1.6880)  can1  596FF71   [8]  07 80 FF FF FF FF F5 48
 (1.6890)  can1  8100302   [5]  08 00 0A 00 07
 (1.6920)  can1  585FF72   [8]  26 80 60 09 60 09 F6 28
 (1.6930)  can1  586FF72   [8]  13 80 FF FF FF FF F6 E4
 (1.6970)  can1  4100209   [8]  01 01 00 00 0F 00 00 00
 (1.6980)  can1  4100208   [8]  0B 01 00 00 0F 00 00 00
 (1.6990)  can1  89A0C02   [8]  99 52 00 00 32 E0 00 00
 (1.7000)  can1  8030C02   [8]  30 75 FE FE 7F FF 00 00
 (1.7000)  can1  8580C02   [8]  04 00 0D 00 16 00 16 00
 (1.7070)  can1  4100209   [8]  04 01 00 00 0F 00 00 00
 (1.7080)  can1  595FF71   [8]  26 80 60 09 60 09 F6 28
 (1.7080)  can1  4100208   [8]  0D 01 00 00 0F 00 00 00
 (1.7090)  can1  596FF71   [8]  24 80 FF FF FF FF F6 3D
 (1.7120)  can1  585FF72   [8]  26 80 60 09 60 09 F7 28
 (1.7130)  can1  586FF72   [8]  1D 80 FF FF FF FF F7 CD
 (1.7140)  can1  8100302   [5]  08 00 0A 00 07
 (1.7170)  can1  4100209   [8]  06 01 00 00 0F 00 00 00
 (1.7180)  can1  4100208   [8]  10 01 00 00 0F 00 00 00
 (1.7190)  can1  89A0C02   [8]  CB A8 01 00 32 56 01 00
 (1.7200)  can1  8030C02   [8]  3D 73 35 00 EB FF 31 00
 (1.7210)  can1  8041001   [8]  36 02 00 3D FC A2 3B 00
 (1.7210)  can1  8580C02   [8]  19 00 14 00 16 00 16 00
 (1.7220)  can1  18800401   [8]  08 72 8F E2 8C D6 8F 00
 (1.7230)  can1  588FF72   [8]  D0 01 51 FF FF FF F5 01
 (1.7230)  can1  589FF72   [8]  1A E0 02 82 02 00 F5 D1
 (1.7240)  can1  18840401   [8]  08 D0 8F 3E 8D 2F 90 00
 (1.7240)  can1  18C00401   [8]  08 FB 2F 7B 30 92 2F 00
 (1.7270)  can1  4100209   [8]  09 01 00 00 0F 00 00 00
 (1.7280)  can1  4100208   [8]  12 01 00 00 0F 00 00 00
 (1.7280)  can1  595FF71   [8]  26 80 60 09 60 09 F7 28
 (1.7280)  can1  596FF71   [8]  31 80 FF FF FF FF F7 C5
 (1.7320)  can1  585FF72   [8]  26 80 60 09 60 09 F8 28
 (1.7330)  can1  586FF72   [8]  2C 80 FF FF FF FF F8 C3
 (1.7340)  can1  587FF72   [8]  0F 08 08 10 FF FF F5 38
 (1.7370)  can1  4100209   [8]  0B 01 00 00 0F 00 00 00
 (1.7380)  can1  4100208   [8]  16 01 00 00 13 00 00 00
 (1.7390)  can1  5807202   [8]  26 80 00 00 E0 01 0A 1D
 (1.7400)  can1  5817202   [8]  01 00 10 27 10 27 0D E3
 (1.7410)  can1  5907102   [8]  26 80 00 00 E0 01 0A 1D
 (1.7410)  can1  5917102   [8]  01 00 10 27 10 27 0D E3
 (1.7420)  can1  5827202   [8]  FA 00 00 00 00 00 0A D4
 (1.7420)  can1  5927102   [8]  FA 00 00 00 00 00 0A D4
 (1.7430)  can1  5837202   [8]  2C 41 06 00 00 00 0A E0
 (1.7440)  can1  5847270   [8]  00 00 00 00 00 00 0A 9F
 (1.7440)  can1  5937102   [8]  2C 41 06 00 00 00 0A E0
 (1.7450)  can1  5947102   [8]  00 00 00 00 00 00 0A 9F
 (1.7450)  can1  8100302   [5]  08 00 0A 00 07
 (1.7450)  can1  89A0C02   [8]  31 42 02 00 31 07 02 00
 (1.7450)  can1  8580C02   [8]  22 00 1F 00 1C 00 16 00
 (1.7460)  can1  8030C02   [8]  6D 21 C0 00 8B 00 60 08
 (1.7470)  can1  4100209   [8]  0F 01 00 00 13 00 00 00
 (1.7480)  can1  4100208   [8]  19 01 00 00 13 00 00 00
 (1.7480)  can1  595FF71   [8]  26 80 60 09 60 09 F8 28
 (1.7490)  can1  596FF71   [8]  1E 80 FF FF FF FF F8 31
 (1.7490)  can1  597FF71   [8]  18 08 24 10 FF FF F5 35
 (1.7500)  can1  598FF71   [8]  40 01 78 FF FF FF F5 CA
 (1.7500)  can1  599FF71   [8]  1A E0 02 82 02 00 F5 D1
 (1.7520)  can1  585FF72   [8]  26 80 60 09 60 09 F9 28
 (1.7530)  can1  586FF72   [8]  26 80 FF FF FF FF F9 95
 (1.7570)  can1  4100209   [8]  12 01 00 00 13 00 00 00
 (1.7580)  can1  4100208   [8]  1B 01 00 00 0F 00 00 00
 (1.7590)  can1  89A0C02   [8]  FE 61 01 00 64 C0 01 00
 (1.7600)  can1  8030C02   [8]  30 75 B2 FF F5 FF 00 00
 (1.7600)  can1  8580C02   [8]  15 00 1B 00 16 00 1C 00
 (1.7640)  can1  8100302   [5]  08 00 0A 00 07
 (1.7670)  can1  4100209   [8]  15 01 00 00 13 00 00 00
 (1.7670)  can1  595FF71   [8]  26 80 60 09 60 09 F9 28
 (1.7680)  can1  4100208   [8]  1F 01 00 00 17 00 00 00
 (1.7680)  can1  596FF71   [8]  28 80 FF FF FF FF F9 BC
 (1.7710)  can1  8101201   [8]  78 64 0D 90 13 8D 2C 01
 (1.7720)  can1  8010C01   [8]  F9 63 00 00 00 00 00 00
 (1.7720)  can1  585FF72   [8]  26 80 60 09 60 09 FA 28
 (1.7730)  can1  586FF72   [8]  1E 80 FF FF FF FF FA 31
 (1.7740)  can1  18800401   [8]  09 C9 8F 8A 8F 71 8F 00
 (1.7740)  can1  18840401   [8]  09 23 90 E2 8F CC 8F 00
 (1.7740)  can1  18C00401   [8]  09 F6 2F 93 2F 05 30 00
 (1.7770)  can1  4100209   [8]  18 01 00 00 13 00 00 00
 (1.7780)  can1  4100208   [8]  22 01 00 00 13 00 00 00
 (1.7790)  can1  89A0C02   [8]  FE D7 01 00 FE 61 01 00
 (1.7800)  can1  8030C02   [8]  30 75 05 00 B2 FF 00 00
 (1.7800)  can1  8580C02   [8]  1C 00 15 00 1C 00 1C 00
 (1.7870)  can1  4100209   [8]  1B 01 00 00 13 00 00 00
 (1.7880)  can1  4100208   [8]  26 01 00 00 17 00 00 00
 (1.7880)  can1  595FF71   [8]  26 80 60 09 60 09 FA 28
 (1.7890)  can1  596FF71   [8]  34 80 FF FF FF FF FA EE
 (1.7890)  can1  8100302   [5]  08 00 0A 00 07
 (1.7920)  can1  585FF72   [8]  26 80 60 09 60 09 FB 28
 (1.7930)  can1  586FF72   [8]  2B 80 FF FF FF FF FB 40
 (1.7970)  can1  4100209   [8]  1F 01 00 00 17 00 00 00
 (1.7980)  can1  4100208   [8]  2A 01 00 00 13 00 00 00
 (1.7990)  can1  5807202   [8]  26 80 00 00 E0 01 0B 1D
 (1.8000)  can1  5817202   [8]  01 00 10 27 10 27 0E E3
 (1.8000)  can1  5907102   [8]  26 80 00 00 E0 01 0B 1D
 (1.8010)  can1  5917102   [8]  01 00 10 27 10 27 0E E3
 (1.8010)  can1  5827202   [8]  FA 00 00 00 00 00 0B D4
 (1.8020)  can1  5927102   [8]  FA 00 00 00 00 00 0B D4
 (1.8020)  can1  5837202   [8]  2C 41 06 00 00 00 0B E0
 (1.8030)  can1  5847270   [8]  00 00 00 00 00 00 0B 9F
 (1.8040)  can1  5937102   [8]  2C 41 06 00 00 00 0B E0
 (1.8040)  can1  5947102   [8]  00 00 00 00 00 00 0B 9F
 (1.8040)  can1  8580C02   [8]  25 00 1E 00 1C 00 21 00
 (1.8050)  can1  89A0C02   [8]  97 65 02 00 64 FB 01 00
 (1.8050)  can1  8030C02   [8]  30 75 1E 00 E0 FF 00 00
 (1.8070)  can1  4100209   [8]  22 01 00 00 13 00 00 00
 (1.8080)  can1  4100208   [8]  2D 01 00 00 17 00 00 00
 (1.8080)  can1  595FF71   [8]  26 80 60 09 60 09 FB 28
 (1.8090)  can1  596FF71   [8]  35 80 FF FF FF FF FB BA
 (1.8120)  can1  585FF72   [8]  26 80 60 09 60 09 FC 28
 (1.8130)  can1  586FF72   [8]  37 80 FF FF FF FF FC 12
 (1.8140)  can1  8100302   [5]  08 00 0A 00 07
 (1.8170)  can1  4100209   [8]  26 01 00 00 17 00 00 00
 (1.8180)  can1  4100208   [8]  31 01 00 00 17 00 00 00
 (1.8190)  can1  89A0C02   [8]  64 71 02 00 FD 88 02 00
 (1.8200)  can1  8030C02   [8]  0F 74 25 00 33 00 1C 00
 (1.8200)  can1  8041001   [8]  36 02 00 3D FC A2 3B 00
 (1.8210)  can1  8580C02   [8]  25 00 27 00 21 00 21 00
 (1.8220)  can1  18800401   [8]  0A 4B 8F 5C 8F 72 8F 00
 (1.8310)  can1  588FF72   [8]  D0 01 51 FF FF FF F6 01
 (1.8320)  can1  589FF72   [8]  1A E0 02 82 02 00 F6 D1
 (1.8330)  can1  18840401   [8]  0A AF 8F C1 8F D5 8F 00
 (1.8330)  can1  18C00401   [8]  0A 3C 30 96 30 58 30 00
 (1.8340)  can1  1948FF72   [8]  00 C0 00 55 FF FF FE 11
 (1.8350)  can1  4100209   [8]  2A 01 00 00 17 00 00 00
 (1.8350)  can1  595FF71   [8]  26 80 60 09 60 09 FC 28
 (1.8360)  can1  4100208   [8]  35 01 00 00 17 00 00 00
 (1.8360)  can1  596FF71   [8]  39 80 FF FF FF FF FC 3B
 (1.8360)  can1  585FF72   [8]  26 80 60 09 60 09 FD 28
 (1.8360)  can1  586FF72   [8]  31 80 FF FF FF FF FD C5
 (1.8370)  can1  587FF72   [8]  10 08 0A 10 FF FF F6 D3
 (1.8370)  can1  1948FF71   [8]  00 C0 00 55 FF FF FE 11
 (1.8370)  can1  1949FF72   [8]  0D 90 00 0D 90 00 FF 39
 (1.8380)  can1  194AFF72   [8]  79 77 57 77 75 57 00 8A
 (1.8390)  can1  194BFF72   [8]  77 F5 FF FF FF FF 01 69
 (1.8390)  can1  194CFF72   [8]  FF FF FF FF FF FF 02 FC
 (1.8390)  can1  4100209   [8]  2E 01 00 00 17 00 00 00
 (1.8400)  can1  4100208   [8]  39 01 00 00 17 00 00 00
 (1.8410)  can1  1949FF71   [8]  0D 80 00 0D B0 00 FF 49
 (1.8410)  can1  194AFF71   [8]  32 67 58 86 E5 58 00 B4
 (1.8410)  can1  194BFF71   [8]  8E F5 FF FF FF FF 01 80
 (1.8420)  can1  194CFF71   [8]  FF FF FF FF FF FF 02 FC
 (1.8420)  can1  8100302   [5]  08 00 0A 00 07
 (1.8420)  can1  8580C02   [8]  28 00 22 00 21 00 21 00
 (1.8430)  can1  89A0C02   [8]  97 A0 02 00 31 42 02 00
 (1.8430)  can1  8030C02   [8]  DA 6B 41 00 09 00 EE 00
 (1.8470)  can1  4100209   [8]  32 01 00 00 17 00 00 00
 (1.8480)  can1  4100208   [8]  3E 01 00 00 1B 00 00 00
 (1.8480)  can1  595FF71   [8]  26 80 60 09 60 09 FD 28
 (1.8480)  can1  596FF71   [8]  3C 80 FF FF FF FF FD 10
 (1.8490)  can1  597FF71   [8]  08 08 22 10 FF FF F6 29
 (1.8490)  can1  598FF71   [8]  30 01 79 FF FF FF F6 18
 (1.8500)  can1  599FF71   [8]  1A E0 02 82 02 00 F6 D1
 (1.8520)  can1  585FF72   [8]  26 80 60 09 60 09 FE 28
 (1.8530)  can1  586FF72   [8]  2C 80 FF FF FF FF FE C3
 (1.8570)  can1  4100209   [8]  36 01 00 00 1B 00 00 00
 (1.8580)  can1  4100208   [8]  42 01 00 00 1B 00 00 00
 (1.8590)  can1  5807202   [8]  26 80 00 00 E0 01 0C 1D
 (1.8600)  can1  5817202   [8]  01 00 10 27 10 27 0F E3
 (1.8610)  can1  5907102   [8]  26 80 00 00 E0 01 0C 1D
 (1.8620)  can1  5917102   [8]  01 00 10 27 10 27 0F E3
 (1.8620)  can1  5827202   [8]  FA 00 00 00 00 00 0C D4
 (1.8630)  can1  5927102   [8]  FA 00 00 00 00 00 0C D4
 (1.8630)  can1  5837202   [8]  2C 41 06 00 00 00 0C E0
 (1.8640)  can1  5847270   [8]  00 00 00 00 00 00 0C 9F
 (1.8640)  can1  5937102   [8]  2C 41 06 00 00 00 0C E0
 (1.8640)  can1  5947102   [8]  00 00 00 00 00 00 0C 9F
 (1.8650)  can1  8580C02   [8]  2A 00 1F 00 27 00 27 00
 (1.8650)  can1  89A0C02   [8]  FD C3 02 00 31 07 02 00
 (1.8650)  can1  8030C02   [8]  30 75 18 00 BA FF 00 00
 (1.8660)  can1  8100302   [5]  08 00 0A 00 07
 (1.8670)  can1  4100209   [8]  3A 01 00 00 17 00 00 00
 (1.8680)  can1  4100208   [8]  47 01 00 00 1B 00 00 00
 (1.8680)  can1  595FF71   [8]  26 80 60 09 60 09 FE 28
 (1.8690)  can1  596FF71   [8]  36 80 FF FF FF FF FE 46
 (1.8720)  can1  8101201   [8]  6E 64 05 90 13 8D 6C 01
 (1.8730)  can1  585FF72   [8]  26 80 60 09 60 09 FF 28
 (1.8730)  can1  586FF72   [8]  37 80 FF FF FF FF FF 12
 (1.8730)  can1  8010C01   [8]  EF 63 00 00 00 00 00 00
 (1.8740)  can1  18800401   [8]  0B A1 8F 9D 8F A2 8F 00
 (1.8740)  can1  18840401   [8]  0B 05 90 01 90 07 90 00
 (1.8750)  can1  18C00401   [8]  0B C9 30 6A 30 B7 30 00
 (1.8770)  can1  4100209   [8]  3F 01 00 00 1B 00 00 00
 (1.8780)  can1  4100208   [8]  4B 01 00 00 1B 00 00 00
 (1.8790)  can1  89A0C02   [8]  31 7D 02 00 FD 88 02 00
 (1.8800)  can1  8030C02   [8]  30 75 F5 FF FB FF 00 00
 (1.8800)  can1  8580C02   [8]  26 00 27 00 27 00 27 00
 (1.8870)  can1  4100209   [8]  43 01 00 00 1B 00 00 00
 (1.8880)  can1  4100208   [8]  50 01 00 00 1B 00 00 00
 (1.8890)  can1  595FF71   [8]  26 80 60 09 60 09 FF 28
 (1.8890)  can1  596FF71   [8]  3F 80 FF FF FF FF FF EC
 (1.8900)  can1  8100302   [5]  08 00 0A 00 07
 (1.8920)  can1  585FF72   [8]  26 80 60 09 60 09 F0 28
 (1.8930)  can1  586FF72   [8]  42 80 FF FF FF FF F0 5E
 (1.8970)  can1  4100209   [8]  48 01 00 00 1B 00 00 00
 (1.8980)  can1  4100208   [8]  55 01 00 00 1F 00 00 00
 (1.8990)  can1  89A0C02   [8]  63 E7 02 00 CA 0A 03 00
 (1.9000)  can1  8030C02   [8]  0B 6F 2A 00 3C 00 9D 00
 (1.9000)  can1  8580C02   [8]  2C 00 2F 00 2D 00 27 00
 (1.9070)  can1  4100209   [8]  4C 01 00 00 1B 00 00 00
 (1.9080)  can1  595FF71   [8]  26 80 60 09 60 09 F0 28
 (1.9080)  can1  4100208   [8]  59 01 00 00 1B 00 00 00
 (1.9090)  can1  596FF71   [8]  48 80 FF FF FF FF F0 08
 (1.9120)  can1  585FF72   [8]  26 80 60 09 60 09 F1 28
 (1.9130)  can1  586FF72   [8]  3C 80 FF FF FF FF F1 10
 (1.9140)  can1  8100302   [5]  08 00 0A 00 07
 (1.9170)  can1  4100209   [8]  51 01 00 00 1F 00 00 00
 (1.9180)  can1  4100208   [8]  5E 01 00 00 1F 00 00 00
 (1.9190)  can1  5807202   [8]  26 80 00 00 E0 01 0D 1D
 (1.9200)  can1  5817202   [8]  01 00 10 27 10 27 00 E3
 (1.9200)  can1  5907102   [8]  26 80 00 00 E0 01 0D 1D
 (1.9210)  can1  8041001   [8]  36 02 00 3D FC A2 3B 00
 (1.9210)  can1  5827202   [8]  FA 00 00 00 00 00 0D D4
 (1.9220)  can1  5917102   [8]  01 00 10 27 10 27 00 E3
 (1.9230)  can1  5927102   [8]  FA 00 00 00 00 00 0D D4
 (1.9230)  can1  5837202   [8]  2C 41 06 00 00 00 0D E0
 (1.9240)  can1  5937102   [8]  2C 41 06 00 00 00 0D E0
 (1.9250)  can1  18800401   [8]  0C 93 8F 6D 8F 6B 8F 00
 (1.9250)  can1  5847270   [8]  00 00 00 00 00 00 0D 9F
 (1.9250)  can1  588FF72   [8]  D0 01 51 FF FF FF F7 01
 (1.9250)  can1  589FF72   [8]  1A E0 02 82 02 00 F7 D1
 (1.9260)  can1  5947102   [8]  00 00 00 00 00 00 0D 9F
 (1.9260)  can1  8580C02   [8]  33 00 2A 00 2D 00 2D 00
 (1.9260)  can1  89A0C02   [8]  96 51 03 00 FD C3 02 00
 (1.9260)  can1  18840401   [8]  0C FE 8F DC 8F DA 8F 00
 (1.9270)  can1  8030C02   [8]  30 75 28 00 EB FF 00 00
 (1.9270)  can1  18C00401   [8]  0C 45 30 75 30 F3 2F 00
 (1.9280)  can1  4100209   [8]  57 01 00 00 1F 00 00 00
 (1.9290)  can1  4100208   [8]  63 01 00 00 1F 00 00 00
 (1.9290)  can1  595FF71   [8]  26 80 60 09 60 09 F1 28
 (1.9300)  can1  596FF71   [8]  3F 80 FF FF FF FF F1 EC
 (1.9320)  can1  585FF72   [8]  26 80 60 09 60 09 F2 28
 (1.9330)  can1  586FF72   [8]  38 80 FF FF FF FF F2 6F
 (1.9330)  can1  587FF72   [8]  0D 08 08 10 FF FF F7 90
 (1.9370)  can1  4100209   [8]  5B 01 00 00 1B 00 00 00
 (1.9380)  can1  4100208   [8]  69 01 00 00 1F 00 00 00
 (1.9390)  can1  8100302   [5]  08 00 0A 00 07
 (1.9400)  can1  8580C02   [8]  2C 00 27 00 2D 00 27 00
 (1.9400)  can1  89A0C02   [8]  63 E7 02 00 CA 94 02 00
 (1.9410)  can1  8030C02   [8]  30 75 2A 00 00 00 00 00
 (1.9470)  can1  4100209   [8]  60 01 00 00 1F 00 00 00
 (1.9480)  can1  4100208   [8]  6E 01 00 00 23 00 00 00
 (1.9490)  can1  595FF71   [8]  26 80 60 09 60 09 F2 28
 (1.9490)  can1  596FF71   [8]  40 80 FF FF FF FF F2 F6
 (1.9500)  can1  597FF71   [8]  07 08 24 10 FF FF F7 9B
 (1.9500)  can1  598FF71   [8]  30 01 79 FF FF FF F7 18
 (1.9500)  can1  599FF71   [8]  1A E0 02 82 02 00 F7 D1
 (1.9520)  can1  585FF72   [8]  26 80 60 09 60 09 F3 28
 (1.9530)  can1  586FF72   [8]  41 80 FF FF FF FF F3 A2
 (1.9570)  can1  4100209   [8]  65 01 00 00 1F 00 00 00
 (1.9580)  can1  4100208   [8]  74 01 00 00 1F 00 00 00
 (1.9590)  can1  89A0C02   [8]  30 F3 02 00 FD FE 02 00
 (1.9600)  can1  8030C02   [8]  30 75 00 00 04 00 00 00
 (1.9610)  can1  8580C02   [8]  2D 00 2E 00 2D 00 2D 00
 (1.9640)  can1  8100302   [5]  08 00 0A 00 07
 (1.9670)  can1  4100209   [8]  6B 01 00 00 23 00 00 00
 (1.9680)  can1  595FF71   [8]  26 80 60 09 60 09 F3 28
 (1.9680)  can1  4100208   [8]  79 01 00 00 23 00 00 00
 (1.9690)  can1  596FF71   [8]  49 80 FF FF FF FF F3 5C
 (1.9720)  can1  585FF72   [8]  26 80 60 09 60 09 F4 28
 (1.9730)  can1  586FF72   [8]  4F 80 FF FF FF FF F4 8B
 (1.9730)  can1  18800401   [8]  0D 7A 8F A5 8F 94 8F 00
 (1.9740)  can1  18840401   [8]  0D E8 8F 12 90 01 90 00
 (1.9740)  can1  18C00401   [8]  0D 1A 30 33 2F 38 2F 00
 (1.9740)  can1  8010C01   [8]  E7 63 00 00 00 00 00 00
 (1.9750)  can1  8101201   [8]  64 64 F9 8F 10 8D 86 01
 (1.9770)  can1  4100209   [8]  70 01 00 00 1F 00 00 00
 (1.9780)  can1  4100208   [8]  7F 01 00 00 23 00 00 00
 (1.9790)  can1  5807202   [8]  26 80 00 00 E0 01 0E 1D
 (1.9800)  can1  5817202   [8]  01 00 10 27 10 27 01 E3
 (1.9810)  can1  5907102   [8]  26 80 00 00 E0 01 0E 1D
 (1.9810)  can1  5917102   [8]  01 00 10 27 10 27 01 E3
 (1.9820)  can1  5827202   [8]  FA 00 00 00 00 00 0E D4
 (1.9830)  can1  5927102   [8]  FA 00 00 00 00 00 0E D4
 (1.9830)  can1  5837202   [8]  2C 41 06 00 00 00 0E E0
 (1.9840)  can1  5847270   [8]  00 00 00 00 00 00 0E 9F
 (1.9840)  can1  5937102   [8]  2C 41 06 00 00 00 0E E0
 (1.9840)  can1  5947102   [8]  00 00 00 00 00 00 0E 9F
 (1.9840)  can1  8580C02   [8]  34 00 38 00 33 00 2D 00
 (1.9850)  can1  89A0C02   [8]  63 5D 03 00 30 A4 03 00
 (1.9850)  can1  8030C02   [8]  3B 65 2E 00 4D 00 98 01
 (1.9870)  can1  4100209   [8]  76 01 00 00 23 00 00 00
 (1.9880)  can1  4100208   [8]  85 01 00 00 23 00 00 00
 (1.9880)  can1  595FF71   [8]  26 80 60 09 60 09 F4 28
 (1.9890)  can1  596FF71   [8]  4A 80 FF FF FF FF F4 A0
 (1.9890)  can1  8100302   [5]  08 00 0A 00 07
 (1.9920)  can1  585FF72   [8]  26 80 60 09 60 09 F5 28
 (1.9930)  can1  586FF72   [8]  41 80 FF FF FF FF F5 A2
 (1.9970)  can1  4100209   [8]  7C 01 00 00 23 00 00 00
 (1.9980)  can1  4100208   [8]  8B 01 00 00 23 00 00 00
 (1.9990)  can1  89A0C02   [8]  30 69 03 00 FD FE 02 00
 (2.0000)  can1  8030C02   [8]  30 75 07 00 DE FF 00 00
 (2.0000)  can1  8580C02   [8]  34 00 2E 00 33 00 33 00
 (2.0070)  can1  4100209   [8]  82 01 00 00 23 00 00 00
 (2.0080)  can1  4100208   [8]  91 01 00 00 23 00 00 00
 (2.0080)  can1  595FF71   [8]  26 80 60 09 60 09 F5 28
 (2.0080)  can1  596FF71   [8]  4B 80 FF FF FF FF F5 F4
 (2.0120)  can1  585FF72   [8]  26 80 60 09 60 09 F6 28
 (2.0130)  can1  586FF72   [8]  46 80 FF FF FF FF F6 21
 (2.0140)  can1  8100302   [5]  08 00 0A 00 07
 (2.0170)  can1  4100209   [8]  88 01 00 00 23 00 00 00
 (2.0180)  can1  4100208   [8]  97 01 00 00 27 00 00 00
 (2.0190)  can1  89A0C02   [8]  FC 74 03 00 FD 39 03 00
 (2.0200)  can1  8030C02   [8]  30 75 0B 00 F5 FF 00 00
 (2.0200)  can1  8041001   [8]  36 02 00 3D FC A2 3B 00
 (2.0210)  can1  8580C02   [8]  35 00 31 00 39 00 33 00
 (2.0220)  can1  18800401   [8]  0E 55 8F 4E 8F 26 8F 00
 (2.0230)  can1  588FF72   [8]  D0 01 51 FF FF FF F8 01
 (2.0230)  can1  589FF72   [8]  1A E0 02 82 02 00 F8 D1
 (2.0240)  can1  18840401   [8]  0E C6 8F BF 8F 9E 8F 00
 (2.0240)  can1  18C00401   [8]  0E 5A 2F DA 2F 06 30 00
 (2.0270)  can1  4100209   [8]  8D 01 00 00 23 00 00 00
 (2.0270)  can1  595FF71   [8]  26 80 60 09 60 09 F6 28
 (2.0280)  can1  4100208   [8]  9D 01 00 00 27 00 00 00
 (2.0290)  can1  596FF71   [8]  51 80 FF FF FF FF F6 71
 (2.0320)  can1  585FF72   [8]  26 80 60 09 60 09 F7 28
 (2.0330)  can1  586FF72   [8]  51 80 FF FF FF FF F7 71
 (2.0330)  can1  587FF72   [8]  13 08 05 10 FF FF F8 6E
 (2.0370)  can1  4100209   [8]  94 01 00 00 27 00 00 00
 (2.0380)  can1  4100208   [8]  A4 01 00 00 27 00 00 00
 (2.0390)  can1  5807202   [8]  26 80 00 00 E0 01 0F 1D
 (2.0400)  can1  5817202   [8]  01 00 10 27 10 27 02 E3
 (2.0400)  can1  5907102   [8]  26 80 00 00 E0 01 0F 1D
 (2.0410)  can1  5917102   [8]  01 00 10 27 10 27 02 E3
 (2.0410)  can1  5827202   [8]  FA 00 00 00 00 00 0F D4
 (2.0420)  can1  5927102   [8]  FA 00 00 00 00 00 0F D4
 (2.0430)  can1  5837202   [8]  2C 41 06 00 00 00 0F E0
 (2.0440)  can1  5847270   [8]  00 00 00 00 00 00 0F 9F
 (2.0440)  can1  5937102   [8]  2C 41 06 00 00 00 0F E0
 (2.0440)  can1  5947102   [8]  00 00 00 00 00 00 0F 9F
 (2.0450)  can1  8100302   [5]  08 00 0A 00 07
 (2.0450)  can1  89A0C02   [8]  C9 BB 03 00 C9 BB 03 00
 (2.0450)  can1  8580C02   [8]  39 00 39 00 39 00 39 00
 (2.0450)  can1  8030C02   [8]  30 75 01 00 01 00 00 00
 (2.0470)  can1  4100209   [8]  9A 01 00 00 23 00 00 00
 (2.0480)  can1  4100208   [8]  AA 01 00 00 27 00 00 00
 (2.0480)  can1  595FF71   [8]  26 80 60 09 60 09 F7 28
 (2.0490)  can1  596FF71   [8]  55 80 FF FF FF FF F7 0E
 (2.0490)  can1  597FF71   [8]  1D 08 1F 10 FF FF F8 4F
 (2.0500)  can1  598FF71   [8]  40 01 78 FF FF FF F8 CA
 (2.0500)  can1  599FF71   [8]  1A E0 02 82 02 00 F8 D1
 (2.0520)  can1  585FF72   [8]  26 80 60 09 60 09 F8 28
 (2.0530)  can1  586FF72   [8]  55 80 FF FF FF FF F8 0E
 (2.0570)  can1  4100209   [8]  A0 01 00 00 27 00 00 00
 (2.0580)  can1  4100208   [8]  B1 01 00 00 27 00 00 00
 (2.0590)  can1  89A0C02   [8]  FC EA 03 00 FC EA 03 00
 (2.0600)  can1  8030C02   [8]  30 75 11 00 11 00 00 00
 (2.0600)  can1  8580C02   [8]  3C 00 3C 00 39 00 39 00
 (2.0640)  can1  8100302   [5]  08 00 0A 00 07
 (2.0670)  can1  4100209   [8]  A6 01 00 00 27 00 00 00
 (2.0680)  can1  4100208   [8]  B8 01 00 00 2B 00 00 00
 (2.0680)  can1  595FF71   [8]  26 80 60 09 60 09 F8 28
 (2.0690)  can1  596FF71   [8]  52 80 FF FF FF FF F8 8D
 (2.0700)  can1  18101203   [4]  EA 2C 08 08
 (2.0720)  can1  18800401   [8]  0F EA 8E 53 8F 8B 8F 00
 (2.0730)  can1  585FF72   [8]  26 80 60 09 60 09 F9 28
 (2.0740)  can1  586FF72   [8]  49 80 FF FF FF FF F9 5C
 (2.0740)  can1  18840401   [8]  0F 5E 8F C4 8F FA 8F 00
 (2.0750)  can1  18C00401   [8]  0F 61 30 4B 30 AA 30 00
 (2.0750)  can1  8101201   [8]  62 64 F5 8F 0F 8D 9B 01
 (2.0750)  can1  8010C01   [8]  E3 63 00 00 00 00 00 00
 (2.0770)  can1  4100209   [8]  AE 01 00 00 2B 00 00 00
 (2.0770)  can1  1948FF72   [8]  00 C0 00 55 FF FF 03 16
 (2.0780)  can1  4100208   [8]  BF 01 00 00 2B 00 00 00
 (2.0790)  can1  89A0C02   [8]  96 C7 03 00 63 5D 03 00
 (2.0800)  can1  8030C02   [8]  30 75 E6 FF C5 FF 00 00
 (2.0800)  can1  8580C02   [8]  3A 00 34 00 3F 00 3F 00
 (2.0870)  can1  4100209   [8]  B4 01 00 00 27 00 00 00
 (2.0880)  can1  1949FF72   [8]  0D 80 00 0D 90 00 04 2E
 (2.0890)  can1  4100208   [8]  C6 01 00 00 2B 00 00 00
 (2.0900)  can1  595FF71   [8]  26 80 60 09 60 09 F9 28
 (2.0910)  can1  596FF71   [8]  55 80 FF FF FF FF F9 0E
 (2.0910)  can1  1948FF71   [8]  00 C0 00 55 FF FF 03 16
 (2.0910)  can1  194AFF72   [8]  79 37 58 77 D5 57 05 B0
 (2.0910)  can1  194BFF72   [8]  77 F5 FF FF FF FF 06 6E
 (2.0920)  can1  8100302   [5]  08 00 0A 00 07
 (2.0920)  can1  194CFF72   [8]  FF FF FF FF FF FF 07 01
 (2.0930)  can1  585FF72   [8]  26 80 60 09 60 09 FA 28
 (2.0930)  can1  586FF72   [8]  56 80 FF FF FF FF FA F2
 (2.0940)  can1  1949FF71   [8]  0D 80 00 0D 90 00 04 2E
 (2.0940)  can1  194AFF71   [8]  31 67 58 86 85 58 05 58
 (2.0950)  can1  194BFF71   [8]  8B F5 FF FF FF FF 06 82
 (2.0950)  can1  194CFF71   [8]  FF FF FF FF FF FF 07 01
 (2.0970)  can1  4100209   [8]  BB 01 00 00 2B 00 00 00
 (2.0980)  can1  4100208   [8]  CC 01 00 00 27 00 00 00
 (2.0990)  can1  5807202   [8]  21 80 00 00 E0 01 00 9E
 (2.1000)  can1  5817202   [8]  01 00 10 27 10 27 03 E3
 (2.1010)  can1  5907102   [8]  21 80 00 00 E0 01 00 9E
 (2.1010)  can1  5917102   [8]  01 00 10 27 10 27 03 E3
 (2.1020)  can1  5827202   [8]  FA 00 00 00 00 00 00 D4
 (2.1020)  can1  5927102   [8]  FA 00 00 00 00 00 00 D4
 (2.1030)  can1  5837202   [8]  2C 41 06 00 00 00 00 E0
 (2.1040)  can1  5847270   [8]  00 00 00 00 00 00 00 9F
 (2.1040)  can1  5937102   [8]  2C 41 06 00 00 00 00 E0
 (2.1040)  can1  5947102   [8]  00 00 00 00 00 00 00 9F
 (2.1050)  can1  8580C02   [8]  3C 00 3D 00 39 00 3F 00
 (2.1050)  can1  89A0C02   [8]  FC EA 03 00 C9 F6 03 00
 (2.1050)  can1  8030C02   [8]  30 75 F2 FF F5 FF 00 00
 (2.1070)  can1  4100209   [8]  C2 01 00 00 2B 00 00 00
 (2.1070)  can1  595FF71   [8]  21 80 60 09 60 09 FA AB
 (2.1080)  can1  4100208   [8]  D4 01 00 00 2F 00 00 00
 (2.1090)  can1  596FF71   [8]  59 80 FF FF FF FF FA 8F
 (2.1120)  can1  585FF72   [8]  26 80 60 09 60 09 FB 28
 (2.1130)  can1  528FF72   [8]  47 00 B5 02 00 00 93 02
 (2.1130)  can1  529FF72   [8]  F9 FF 73 00 11 00 26 00
 (2.1140)  can1  52CFF72   [8]  00 00 EF FF EF FF 3A 00
 (2.1140)  can1  586FF72   [8]  5C 80 FF FF FF FF FB A4
 (2.1140)  can1  8100302   [5]  07 00 0A 00 07
 (2.1170)  can1  4100209   [8]  C9 01 00 00 27 00 00 00
 (2.1180)  can1  4100208   [8]  DB 01 00 00 2B 00 00 00
 (2.1180)  can1  528FF71   [8]  4F 00 BF 02 00 00 93 02
 (2.1190)  can1  529FF71   [8]  F9 FF 74 00 11 00 21 00
 (2.1190)  can1  52CFF71   [8]  00 00 EF FF EF FF 3A 00
 (2.1200)  can1  89A0C02   [8]  2F 1A 04 00 95 3D 04 00
 (2.1210)  can1  8030C02   [8]  30 75 22 00 2E 00 00 00
 (2.1210)  can1  8041001   [8]  36 02 00 3D FC A2 3B 00
 (2.1210)  can1  8580C02   [8]  3F 00 41 00 3F 00 39 00
 (2.1220)  can1  18800401   [8]  10 7A 8F 83 8F 75 8F 00
 (2.1230)  can1  588FF72   [8]  D0 01 51 FF FF FF F9 01
 (2.1230)  can1  589FF72   [8]  1A E0 02 82 02 00 F9 D1
 (2.1240)  can1  18840401   [8]  10 EE 8F F2 8F E7 8F 00
 (2.1240)  can1  18C00401   [8]  10 5D 30 B3 30 10 30 00
 (2.1270)  can1  4100209   [8]  D0 01 00 00 2F 00 00 00
 (2.1280)  can1  4100208   [8]  E3 01 00 00 2F 00 00 00
 (2.1280)  can1  595FF71   [8]  21 80 60 09 60 09 FB AB
 (2.1280)  can1  596FF71   [8]  58 80 FF FF FF FF FB DB
 (2.1320)  can1  585FF72   [8]  21 80 60 09 60 09 FC AB
 (2.1330)  can1  586FF72   [8]  52 80 FF FF FF FF FC 8D
 (2.1340)  can1  587FF72   [8]  25 08 05 10 FF FF F9 E3
 (2.1370)  can1  4100209   [8]  D7 01 00 00 2B 00 00 00
 (2.1380)  can1  4100208   [8]  EA 01 00 00 2B 00 00 00
 (2.1390)  can1  8100302   [5]  07 00 0A 00 07
 (2.1400)  can1  8580C02   [8]  3E 00 3A 00 3F 00 3F 00
 (2.1400)  can1  89A0C02   [8]  62 0E 04 00 96 C7 03 00
 (2.1400)  can1  8030C02   [8]  30 75 FD FF E6 FF 00 00
 (2.1470)  can1  4100209   [8]  DE 01 00 00 2B 00 00 00
 (2.1480)  can1  4100208   [8]  F2 01 00 00 2F 00 00 00
 (2.1490)  can1  595FF71   [8]  21 80 60 09 60 09 FC AB
 (2.1500)  can1  596FF71   [8]  60 80 FF FF FF FF FC 7F
 (2.1500)  can1  597FF71   [8]  18 08 22 10 FF FF F9 FA
 (2.1500)  can1  598FF71   [8]  40 01 78 FF FF FF F9 CA
 (2.1510)  can1  599FF71   [8]  1A E0 02 82 02 00 F9 D1
 (2.1520)  can1  585FF72   [8]  21 80 60 09 60 09 FD AB
 (2.1530)  can1  586FF72   [8]  50 80 FF FF FF FF FD 25
 (2.1570)  can1  4100209   [8]  E6 01 00 00 2F 00 00 00
 (2.1580)  can1  4100208   [8]  FA 01 00 00 33 00 00 00
 (2.1590)  can1  5807202   [8]  18 80 00 00 E0 01 01 6E
 (2.1600)  can1  5817202   [8]  01 00 10 27 10 27 04 E3
 (2.1600)  can1  5907102   [8]  18 80 00 00 E0 01 01 6E
 (2.1610)  can1  5917102   [8]  01 00 10 27 10 27 04 E3
 (2.1610)  can1  5827202   [8]  FA 00 00 00 00 00 01 D4
 (2.1630)  can1  5927102   [8]  FA 00 00 00 00 00 01 D4
 (2.1630)  can1  5837202   [8]  2C 41 06 00 00 00 01 E0
 (2.1630)  can1  5847270   [8]  00 00 00 00 00 00 01 9F
 (2.1640)  can1  5937102   [8]  2C 41 06 00 00 00 01 E0
 (2.1640)  can1  5947102   [8]  00 00 00 00 00 00 01 9F
 (2.1640)  can1  8580C02   [8]  44 00 39 00 4B 00 45 00
 (2.1650)  can1  89A0C02   [8]  C8 6C 04 00 FC AF 03 00
 (2.1650)  can1  8030C02   [8]  30 75 FC FF C5 FF 00 00
 (2.1650)  can1  8100302   [5]  05 00 0A 00 07
 (2.1670)  can1  4100209   [8]  ED 01 00 00 2B 00 00 00
 (2.1670)  can1  595FF71   [8]  18 80 60 09 60 09 FD 5B
 (2.1680)  can1  4100208   [8]  02 02 00 00 2F 00 00 00
 (2.1680)  can1  596FF71   [8]  67 80 FF FF FF FF FD FC
 (2.1720)  can1  585FF72   [8]  21 80 60 09 60 09 FE AB
 (2.1720)  can1  586FF72   [8]  65 80 FF FF FF FF FE 54
 (2.1730)  can1  18800401   [8]  11 57 8F 44 8F 5F 8F 00
 (2.1740)  can1  18840401   [8]  11 CA 8F B9 8F D4 8F 00
 (2.1740)  can1  18C00401   [8]  11 8B 30 C2 2F 46 30 00
 (2.1750)  can1  8101201   [8]  6D 64 F3 8F 0D 8D 64 01
 (2.1760)  can1  8010C01   [8]  F1 63 00 00 00 00 00 00
 (2.1770)  can1  4100209   [8]  F5 01 00 00 2F 00 00 00
 (2.1780)  can1  4100208   [8]  0A 02 00 00 2F 00 00 00
 (2.1790)  can1  89A0C02   [8]  62 BF 04 00 C8 A7 04 00
 (2.1800)  can1  8030C02   [8]  30 75 13 00 0C 00 00 00
 (2.1800)  can1  8580C02   [8]  49 00 48 00 45 00 45 00
 (2.1870)  can1  4100209   [8]  FD 01 00 00 2F 00 00 00
 (2.1880)  can1  4100208   [8]  12 02 00 00 33 00 00 00
 (2.1880)  can1  595FF71   [8]  18 80 60 09 60 09 FE 5B
 (2.1890)  can1  596FF71   [8]  52 80 FF FF FF FF FE 8D
 (2.1890)  can1  8100302   [5]  05 00 0A 00 07
 (2.1920)  can1  585FF72   [8]  18 80 60 09 60 09 FF 5B
 (2.1930)  can1  586FF72   [8]  58 80 FF FF FF FF FF DB
 (2.1970)  can1  4100209   [8]  04 02 00 00 2F 00 00 00
 (2.1980)  can1  4100208   [8]  1A 02 00 00 2F 00 00 00
 (2.2000)  can1  89A0C02   [8]  96 C7 03 00 62 0E 04 00
 (2.2000)  can1  8030C02   [8]  30 75 CC FF E1 FF 00 00
 (2.2000)  can1  8580C02   [8]  3A 00 3E 00 45 00 45 00
 (2.2070)  can1  4100209   [8]  0C 02 00 00 2F 00 00 00
 (2.2080)  can1  4100208   [8]  22 02 00 00 33 00 00 00
 (2.2080)  can1  595FF71   [8]  18 80 60 09 60 09 FF 5B
 (2.2090)  can1  596FF71   [8]  69 80 FF FF FF FF FF D5
 (2.2120)  can1  585FF72   [8]  18 80 60 09 60 09 F0 5B
 (2.2130)  can1  586FF72   [8]  51 80 FF FF FF FF F0 71
 (2.2140)  can1  8100302   [5]  05 00 0A 00 07
 (2.2170)  can1  4100209   [8]  14 02 00 00 2F 00 00 00
 (2.2180)  can1  4100208   [8]  2A 02 00 00 2F 00 00 00
 (2.2190)  can1  5807202   [8]  09 80 00 00 E0 01 02 E9
 (2.2210)  can1  5817202   [8]  01 00 10 27 10 27 05 E3
 (2.2220)  can1  5907102   [8]  09 80 00 00 E0 01 02 E9
 (2.2220)  can1  8041001   [8]  36 02 00 3D FC A2 3B 00
 (2.2230)  can1  5827202   [8]  FA 00 00 00 00 00 02 D4
 (2.2230)  can1  5917102   [8]  01 00 10 27 10 27 05 E3
 (2.2240)  can1  5927102   [8]  FA 00 00 00 00 00 02 D4
 (2.2250)  can1  5837202   [8]  2C 41 06 00 00 00 02 E0
 (2.2250)  can1  5937102   [8]  2C 41 06 00 00 00 02 E0
 (2.2250)  can1  18800401   [8]  12 BA 8F AC 8F 6D 8F 00
 (2.2260)  can1  5847270   [8]  00 00 00 00 00 00 02 9F
 (2.2260)  can1  588FF72   [8]  D0 01 51 FF FF FF FA 01
 (2.2260)  can1  589FF72   [8]  1A E0 02 82 02 00 FA D1
 (2.2270)  can1  5947102   [8]  00 00 00 00 00 00 02 9F
 (2.2270)  can1  8580C02   [8]  4A 00 39 00 45 00 45 00
 (2.2270)  can1  89A0C02   [8]  FB D6 04 00 C9 BB 03 00
 (2.2280)  can1  18840401   [8]  12 0F 90 01 90 C0 8F 00
 (2.2280)  can1  8030C02   [8]  30 75 1A 00 C9 FF 00 00
 (2.2290)  can1  18C00401   [8]  12 A7 2F 2A 2F F6 2E 00
 (2.2290)  can1  4100209   [8]  1C 02 00 00 2F 00 00 00
 (2.2290)  can1  595FF71   [8]  09 80 60 09 60 09 F0 DC
 (2.2300)  can1  4100208   [8]  32 02 00 00 33 00 00 00
 (2.2300)  can1  596FF71   [8]  79 80 FF FF FF FF F0 06
 (2.2320)  can1  585FF72   [8]  18 80 60 09 60 09 F1 5B
 (2.2330)  can1  586FF72   [8]  6C 80 FF FF FF FF F1 FE
 (2.2330)  can1  587FF72   [8]  0F 08 0C 10 FF FF FA B2
 (2.2370)  can1  4100209   [8]  24 02 00 00 33 00 00 00
 (2.2380)  can1  4100208   [8]  3B 02 00 00 33 00 00 00
 (2.2390)  can1  8100302   [5]  02 00 0A 00 07
 (2.2400)  can1  8580C02   [8]  56 00 4D 00 4B 00 4B 00
 (2.2400)  can1  89A0C02   [8]  C7 93 05 00 62 FA 04 00
 (2.2400)  can1  8030C02   [8]  30 75 30 00 07 00 00 00
 (2.2470)  can1  4100209   [8]  2C 02 00 00 2F 00 00 00
 (2.2470)  can1  596FF71   [8]  4C 80 FF FF FF FF F1 77
 (2.2480)  can1  4100208   [8]  42 02 00 00 2F 00 00 00
 (2.2480)  can1  597FF71   [8]  05 08 26 10 FF FF FA 76
 (2.2490)  can1  598FF71   [8]  40 01 78 FF FF FF FA CA
 (2.2490)  can1  599FF71   [8]  1A E0 02 82 02 00 FA D1
 (2.2520)  can1  585FF72   [8]  09 80 60 09 60 09 F2 DC
 (2.2530)  can1  586FF72   [8]  58 80 FF FF FF FF F2 DB
 (2.2540)  can1  595FF71   [8]  09 80 60 09 60 09 F1 DC
 (2.2570)  can1  4100209   [8]  33 02 00 00 2F 00 00 00
 (2.2580)  can1  4100208   [8]  4B 02 00 00 33 00 00 00
 (2.2590)  can1  89A0C02   [8]  C9 80 03 00 62 0E 04 00
 (2.2600)  can1  8030C02   [8]  30 75 B8 FF E1 FF 00 00
 (2.2600)  can1  8580C02   [8]  36 00 3E 00 4B 00 45 00
 (2.2640)  can1  8100302   [5]  02 00 0A 00 07
 (2.2670)  can1  4100209   [8]  3B 02 00 00 2F 00 00 00
 (2.2680)  can1  596FF71   [8]  57 80 FF FF FF FF F2 A6
 (2.2680)  can1  4100208   [8]  53 02 00 00 33 00 00 00
 (2.2720)  can1  18800401   [8]  13 68 8F 65 8F 5D 8F 00
 (2.2730)  can1  585FF72   [8]  09 80 60 09 60 09 F3 DC
 (2.2730)  can1  586FF72   [8]  4D 80 FF FF FF FF F3 23
 (2.2740)  can1  595FF71   [8]  09 80 60 09 60 09 F2 DC
 (2.2740)  can1  18840401   [8]  13 BB 8F A5 8F B3 8F 00
 (2.2740)  can1  18C00401   [8]  13 64 2F A5 2F FC 2F 00
 (2.2760)  can1  8101201   [8]  96 64 11 90 0B 8D 9D 00
 (2.2770)  can1  8010C01   [8]  19 64 00 00 00 00 00 00
 (2.2770)  can1  4100209   [8]  44 02 00 00 33 00 00 00
 (2.2780)  can1  4100208   [8]  5B 02 00 00 33 00 00 00
 (2.2790)  can1  5807202   [8]  09 80 00 00 E0 01 03 E9
 (2.2800)  can1  5817202   [8]  01 00 10 27 10 27 06 E3
 (2.2800)  can1  5907102   [8]  09 80 00 00 E0 01 03 E9
 (2.2810)  can1  5917102   [8]  01 00 10 27 10 27 06 E3
 (2.2810)  can1  5827202   [8]  FA 00 00 00 00 00 03 D4
 (2.2820)  can1  5927102   [8]  FA 00 00 00 00 00 03 D4
 (2.2830)  can1  5837202   [8]  2C 41 06 00 00 00 03 E0
 (2.2830)  can1  5847270   [8]  00 00 00 00 00 00 03 9F
 (2.2840)  can1  5937102   [8]  2C 41 06 00 00 00 03 E0
 (2.2840)  can1  5947102   [8]  00 00 00 00 00 00 03 9F
 (2.2840)  can1  8580C02   [8]  3E 00 36 00 4B 00 4B 00
 (2.2850)  can1  89A0C02   [8]  96 02 04 00 96 8C 03 00
 (2.2850)  can1  8030C02   [8]  30 75 C6 FF A6 FF 00 00
 (2.2870)  can1  4100209   [8]  4B 02 00 00 2F 00 00 00
 (2.2870)  can1  596FF71   [8]  70 80 FF FF FF FF F3 AC
 (2.2880)  can1  4100208   [8]  64 02 00 00 33 00 00 00
 (2.2890)  can1  8100302   [5]  02 00 0A 00 07
 (2.2920)  can1  585FF72   [8]  09 80 60 09 60 09 F4 DC
 (2.2930)  can1  586FF72   [8]  66 80 FF FF FF FF F4 A8
 (2.2930)  can1  595FF71   [8]  09 80 60 09 60 09 F3 DC
 (2.2970)  can1  4100209   [8]  53 02 00 00 2F 00 00 00
 (2.2980)  can1  4100208   [8]  6C 02 00 00 33 00 00 00
 (2.2990)  can1  89A0C02   [8]  95 29 05 00 95 B3 04 00
 (2.3000)  can1  8030C02   [8]  D8 74 32 00 10 00 08 00
 (2.3010)  can1  8580C02   [8]  4F 00 48 00 4B 00 45 00
 (2.3070)  can1  4100209   [8]  5B 02 00 00 2F 00 00 00
 (2.3070)  can1  596FF71   [8]  7D 80 FF FF FF FF F4 79
 (2.3080)  can1  4100208   [8]  74 02 00 00 2F 00 00 00
 (2.3120)  can1  585FF72   [8]  09 80 60 09 60 09 F5 DC
 (2.3130)  can1  586FF72   [8]  79 80 FF FF FF FF F5 06
 (2.3130)  can1  595FF71   [8]  09 80 60 09 60 09 F4 DC
 (2.3140)  can1  8100302   [5]  02 00 0A 00 07
 (2.3170)  can1  4100209   [8]  62 02 00 00 2F 00 00 00
 (2.3180)  can1  4100208   [8]  7C 02 00 00 33 00 00 00
 (2.3190)  can1  89A0C02   [8]  FA C2 05 00 C7 93 05 00
 (2.3200)  can1  8030C02   [8]  BC 5A 5F 00 51 00 A5 02
 (2.3210)  can1  8041001   [8]  36 02 00 3D FC A2 3B 00
 (2.3210)  can1  8580C02   [8]  59 00 56 00 4B 00 45 00
 (2.3220)  can1  18800401   [8]  14 8B 8F C1 8F B9 8F 00
 (2.3230)  can1  588FF72   [8]  D0 01 51 FF FF FF FB 01
 (2.3230)  can1  589FF72   [8]  1A E0 02 82 02 00 FB D1
 (2.3230)  can1  18840401   [8]  14 C6 8F F3 8F EB 8F 00
 (2.3240)  can1  18C00401   [8]  14 CE 2F 13 30 D1 2F 00
 (2.3270)  can1  4100209   [8]  6B 02 00 00 33 00 00 00
 (2.3280)  can1  596FF71   [8]  6C 80 FF FF FF FF F5 FE
 (2.3280)  can1  4100208   [8]  85 02 00 00 33 00 00 00
 (2.3320)  can1  585FF72   [8]  09 80 60 09 60 09 F6 DC
 (2.3330)  can1  586FF72   [8]  6F 80 FF FF FF FF F6 02
 (2.3330)  can1  587FF72   [8]  02 08 0F 10 FF FF FB 97
 (2.3340)  can1  595FF71   [8]  09 80 60 09 60 09 F5 DC
 (2.3350)  can1  1948FF72   [8]  00 C0 00 55 FF FF 08 1B
 (2.3370)  can1  4100209   [8]  73 02 00 00 2F 00 00 00
 (2.3380)  can1  4100208   [8]  8D 02 00 00 33 00 00 00
 (2.3390)  can1  5807202   [8]  04 80 00 00 E0 01 04 3C
 (2.3400)  can1  5817202   [8]  01 00 10 27 10 27 07 E3
 (2.3400)  can1  5907102   [8]  04 80 00 00 E0 01 04 3C
 (2.3410)  can1  5917102   [8]  01 00 10 27 10 27 07 E3
 (2.3410)  can1  5827202   [8]  FA 00 00 00 00 00 04 D4
 (2.3420)  can1  5927102   [8]  FA 00 00 00 00 00 04 D4
 (2.3420)  can1  5837202   [8]  2C 41 06 00 00 00 04 E0
 (2.3430)  can1  5847270   [8]  00 00 00 00 00 00 04 9F
 (2.3440)  can1  5937102   [8]  2C 41 06 00 00 00 04 E0
 (2.3440)  can1  5947102   [8]  00 00 00 00 00 00 04 9F
 (2.3450)  can1  8100302   [5]  01 00 0A 00 07
 (2.3460)  can1  89A0C02   [8]  62 FA 04 00 C8 1D 05 00
 (2.3460)  can1  1948FF71   [8]  00 C0 00 55 FF FF 08 1B
 (2.3460)  can1  8030C02   [8]  30 75 24 00 2F 00 00 00
 (2.3460)  can1  8580C02   [8]  4D 00 4F 00 4B 00 45 00
 (2.3460)  can1  1949FF72   [8]  0D 80 00 0C A0 00 09 42
 (2.3470)  can1  194AFF72   [8]  79 77 57 77 75 57 0A 94
 (2.3470)  can1  194BFF72   [8]  77 F5 FF FF FF FF 0B 73
 (2.3470)  can1  194CFF72   [8]  FF FF FF FF FF FF 0C 06
 (2.3480)  can1  4100209   [8]  7A 02 00 00 2F 00 00 00
 (2.3480)  can1  596FF71   [8]  50 80 FF FF FF FF F6 25
 (2.3490)  can1  4100208   [8]  95 02 00 00 33 00 00 00
 (2.3500)  can1  597FF71   [8]  04 08 29 10 FF FF FB 63
 (2.3500)  can1  598FF71   [8]  30 01 79 FF FF FF FB 18
 (2.3510)  can1  599FF71   [8]  1A E0 02 82 02 00 FB D1
 (2.3510)  can1  1949FF71   [8]  0D 80 00 0D C0 00 09 63
 (2.3510)  can1  194AFF71   [8]  2E 67 58 86 65 58 0A 3A
 (2.3510)  can1  194BFF71   [8]  88 F5 FF FF FF FF 0B 84
 (2.3520)  can1  194CFF71   [8]  FF FF FF FF FF FF 0C 06
 (2.3520)  can1  585FF72   [8]  09 80 60 09 60 09 F7 DC
 (2.3530)  can1  586FF72   [8]  57 80 FF FF FF FF F7 A6
 (2.3570)  can1  4100209   [8]  83 02 00 00 33 00 00 00
 (2.3580)  can1  595FF71   [8]  04 80 60 09 60 09 F6 09
 (2.3580)  can1  4100208   [8]  9E 02 00 00 33 00 00 00
 (2.3590)  can1  89A0C02   [8]  FC AF 03 00 96 02 04 00
 (2.3600)  can1  8030C02   [8]  30 75 B0 FF C6 FF 00 00
 (2.3600)  can1  8580C02   [8]  39 00 3E 00 4B 00 4B 00
 (2.3640)  can1  8100302   [5]  01 00 0A 00 07
 (2.3670)  can1  4100209   [8]  8A 02 00 00 2F 00 00 00
 (2.3680)  can1  596FF71   [8]  4F 80 FF FF FF FF F7 8B
 (2.3690)  can1  4100208   [8]  A6 02 00 00 33 00 00 00
 (2.3720)  can1  585FF72   [8]  04 80 60 09 60 09 F8 09
 (2.3730)  can1  586FF72   [8]  54 80 FF FF FF FF F8 5A
 (2.3730)  can1  18800401   [8]  15 CF 8F BF 8F A4 8F 00
 (2.3730)  can1  18840401   [8]  15 02 90 F0 8F D2 8F 00
 (2.3740)  can1  18C00401   [8]  15 21 30 9A 2F FA 2F 00
 (2.3770)  can1  4100209   [8]  92 02 00 00 2F 00 00 00
 (2.3770)  can1  595FF71   [8]  04 80 60 09 60 09 F7 09
 (2.3780)  can1  4100208   [8]  AE 02 00 00 2F 00 00 00
 (2.3780)  can1  8010C01   [8]  22 64 00 00 00 00 00 00
 (2.3790)  can1  8101201   [8]  A1 64 33 90 0C 8D 6E 00
 (2.3790)  can1  89A0C02   [8]  30 A4 03 00 2F DF 03 00
 (2.3800)  can1  8030C02   [8]  30 75 C2 FF D3 FF 00 00
 (2.3800)  can1  8580C02   [8]  38 00 3B 00 45 00 45 00
 (2.3870)  can1  4100209   [8]  9A 02 00 00 2F 00 00 00
 (2.3880)  can1  596FF71   [8]  58 80 FF FF FF FF F8 DB
 (2.3880)  can1  4100208   [8]  B6 02 00 00 33 00 00 00
 (2.3890)  can1  8100302   [5]  01 00 0A 00 07
 (2.3920)  can1  585FF72   [8]  04 80 60 09 60 09 F9 09
 (2.3930)  can1  586FF72   [8]  5C 80 FF FF FF FF F9 A4
 (2.3970)  can1  4100209   [8]  A2 02 00 00 2F 00 00 00
 (2.3970)  can1  595FF71   [8]  04 80 60 09 60 09 F8 09
 (2.3980)  can1  4100208   [8]  BE 02 00 00 2F 00 00 00
 (2.3990)  can1  5807202   [8]  04 80 00 00 E0 01 05 3C
 (2.4000)  can1  5817202   [8]  01 00 10 27 10 27 08 E3
 (2.4000)  can1  5907102   [8]  04 80 00 00 E0 01 05 3C
 (2.4020)  can1  5917102   [8]  01 00 10 27 10 27 08 E3
 (2.4020)  can1  5827202   [8]  FA 00 00 00 00 00 05 D4
 (2.4020)  can1  5927102   [8]  FA 00 00 00 00 00 05 D4
 (2.4030)  can1  5837202   [8]  2C 41 06 00 00 00 05 E0
 (2.4030)  can1  5847270   [8]  00 00 00 00 00 00 05 9F
 (2.4030)  can1  5937102   [8]  2C 41 06 00 00 00 05 E0
 (2.4040)  can1  5947102   [8]  00 00 00 00 00 00 05 9F
 (2.4040)  can1  8580C02   [8]  3E 00 41 00 45 00 45 00
 (2.4040)  can1  89A0C02   [8]  62 0E 04 00 95 3D 04 00
 (2.4050)  can1  8030C02   [8]  30 75 E1 FF EF FF 00 00
 (2.4070)  can1  4100209   [8]  A9 02 00 00 2F 00 00 00
 (2.4070)  can1  596FF71   [8]  5E 80 FF FF FF FF F9 0C
 (2.4080)  can1  4100208   [8]  C6 02 00 00 33 00 00 00
 (2.4120)  can1  585FF72   [8]  04 80 60 09 60 09 FA 09
 (2.4130)  can1  586FF72   [8]  60 80 FF FF FF FF FA 7F
 (2.4140)  can1  8100302   [5]  01 00 0A 00 07
 (2.4170)  can1  4100209   [8]  B1 02 00 00 2F 00 00 00
 (2.4180)  can1  595FF71   [8]  04 80 60 09 60 09 F9 09
 (2.4180)  can1  4100208   [8]  CE 02 00 00 2F 00 00 00
 (2.4190)  can1  89A0C02   [8]  2F 55 04 00 C8 6C 04 00
 (2.4200)  can1  8030C02   [8]  30 75 F5 FF FC FF 00 00
 (2.4200)  can1  8041001   [8]  36 02 00 3D FC A2 3B 00
 (2.4200)  can1  8580C02   [8]  43 00 44 00 45 00 45 00
 (2.4220)  can1  588FF72   [8]  D0 01 51 FF FF FF FC 01
 (2.4230)  can1  589FF72   [8]  1A E0 02 82 02 00 FC D1
 (2.4230)  can1  18800401   [8]  16 A8 8F C1 8F EC 8F 00
 (2.4240)  can1  18840401   [8]  16 C5 8F E1 8F 0D 90 00
 (2.4240)  can1  18C00401   [8]  16 7B 2F AD 2F F7 2E 00
 (2.4270)  can1  4100209   [8]  B9 02 00 00 2F 00 00 00
 (2.4280)  can1  596FF71   [8]  6A 80 FF FF FF FF FA 29
 (2.4280)  can1  4100208   [8]  D6 02 00 00 33 00 00 00
 (2.4380)  can1  585FF72   [8]  04 80 60 09 60 09 FB 09
 (2.4390)  can1  586FF72   [8]  66 80 FF FF FF FF FB A8
 (2.4390)  can1  587FF72   [8]  06 08 0F 10 FF FF FC E8
 (2.4390)  can1  4100209   [8]  C0 02 00 00 2F 00 00 00
 (2.4400)  can1  595FF71   [8]  04 80 60 09 60 09 FA 09
 (2.4400)  can1  4100208   [8]  DE 02 00 00 2F 00 00 00
 (2.4410)  can1  8100302   [5]  01 00 0A 00 07
 (2.4410)  can1  8580C02   [8]  4B 00 48 00 45 00 45 00
 (2.4410)  can1  89A0C02   [8]  C8 E2 04 00 95 B3 04 00
 (2.4420)  can1  8030C02   [8]  30 75 1E 00 10 00 00 00
 (2.4470)  can1  4100209   [8]  C8 02 00 00 2F 00 00 00
 (2.4480)  can1  596FF71   [8]  70 80 FF FF FF FF FB AC
 (2.4490)  can1  4100208   [8]  E6 02 00 00 2F 00 00 00
 (2.4490)  can1  597FF71   [8]  03 08 2B 10 FF FF FC A5
 (2.4500)  can1  598FF71   [8]  40 01 78 FF FF FF FC CA
 (2.4500)  can1  599FF71   [8]  1A E0 02 82 02 00 FC D1
 (2.4520)  can1  585FF72   [8]  04 80 60 09 60 09 FC 09
 (2.4530)  can1  586FF72   [8]  67 80 FF FF FF FF FC FC
 (2.4570)  can1  4100209   [8]  D0 02 00 00 2F 00 00 00
 (2.4570)  can1  595FF71   [8]  04 80 60 09 60 09 FB 09
 (2.4580)  can1  4100208   [8]  EE 02 00 00 33 00 00 00
 (2.4590)  can1  5807202   [8]  04 80 00 00 E0 01 06 3C
 (2.4600)  can1  5817202   [8]  01 00 10 27 10 27 09 E3
 (2.4610)  can1  5907102   [8]  04 80 00 00 E0 01 06 3C
 (2.4610)  can1  5917102   [8]  01 00 10 27 10 27 09 E3
 (2.4620)  can1  5827202   [8]  FA 00 00 00 00 00 06 D4
 (2.4620)  can1  5927102   [8]  FA 00 00 00 00 00 06 D4
 (2.4630)  can1  5837202   [8]  2C 41 06 00 00 00 06 E0
 (2.4630)  can1  5847270   [8]  00 00 00 00 00 00 06 9F
 (2.4640)  can1  5937102   [8]  2C 41 06 00 00 00 06 E0
 (2.4640)  can1  5947102   [8]  00 00 00 00 00 00 06 9F
 (2.4640)  can1  8580C02   [8]  4F 00 49 00 4B 00 45 00
 (2.4650)  can1  89A0C02   [8]  95 29 05 00 62 BF 04 00
 (2.4650)  can1  8030C02   [8]  D8 74 32 00 13 00 08 00
 (2.4650)  can1  8100302   [5]  01 00 0A 00 07
 (2.4670)  can1  4100209   [8]  D7 02 00 00 2B 00 00 00
 (2.4670)  can1  596FF71   [8]  77 80 FF FF FF FF FC 2F
 (2.4680)  can1  4100208   [8]  F6 02 00 00 2F 00 00 00
 (2.4700)  can1  404FF03   [1]  00
 (2.4720)  can1  18800401   [8]  17 E0 8F 00 00 00 00 00
 (2.4730)  can1  8250C03   [8]  41 00 D3 00 00 00 23 00
 (2.4740)  can1  8840C03   [8]  38 00 12 00 1F 00 07 00
 (2.4740)  can1  88D0C03   [8]  2C 00 00 00 73 00 73 00
 (2.4750)  can1  18840401   [8]  17 02 90 00 00 00 00 00
 (2.4750)  can1  18C00401   [8]  17 EF 2E 10 27 10 27 00
 (2.4770)  can1  4100209   [8]  DF 02 00 00 2F 00 00 00
 (2.4770)  can1  595FF71   [8]  04 80 60 09 60 09 FC 09
 (2.4790)  can1  4100208   [8]  FE 02 00 00 2F 00 00 00
 (2.4790)  can1  585FF72   [8]  04 80 60 09 60 09 FD 09
 (2.4790)  can1  586FF72   [8]  5E 80 FF FF FF FF FD 0C
 (2.4790)  can1  8010C01   [8]  1E 64 00 00 00 00 00 00
 (2.4800)  can1  8101201   [8]  9E 64 43 90 0F 8D 6D 00
 (2.4800)  can1  89A0C02   [8]  2E 7C 05 00 2F 55 04 00
 (2.4810)  can1  8030C02   [8]  C9 66 4A 00 F5 FF 70 01
 (2.4810)  can1  8580C02   [8]  54 00 43 00 45 00 45 00
 (2.4850)  can1  404FF07   [1]  00
 (2.4870)  can1  4100209   [8]  E6 02 00 00 2F 00 00 00
 (2.4870)  can1  596FF71   [8]  71 80 FF FF FF FF FD F8
 (2.4880)  can1  4100208   [8]  05 03 00 00 2F 00 00 00
 (2.4890)  can1  8100302   [5]  01 00 0A 00 07
 (2.4970)  can1  4100209   [8]  ED 02 00 00 2B 00 00 00
 (2.4980)  can1  585FF72   [8]  04 80 60 09 60 09 FE 09
 (2.4980)  can1  4100208   [8]  0D 03 00 00 2F 00 00 00
 (2.4990)  can1  586FF72   [8]  56 80 FF FF FF FF FE F2
 (2.4990)  can1  595FF71   [8]  04 80 60 09 60 09 FD 09
 (2.4990)  can1  89A0C02   [8]  61 35 05 00 C9 F6 03 00
 (2.5000)  can1  8030C02   [8]  B9 5D 5A 00 F5 FF 58 02
 (2.5000)  can1  8580C02   [8]  50 00 3D 00 45 00 3F 00
 (2.5070)  can1  4100209   [8]  F5 02 00 00 2F 00 00 00
 (2.5080)  can1  596FF71   [8]  5C 80 FF FF FF FF FE A4
 (2.5080)  can1  4100208   [8]  15 03 00 00 2F 00 00 00
 (2.5140)  can1  8100302   [5]  01 00 0A 00 07
 (2.5170)  can1  4100209   [8]  FD 02 00 00 2F 00 00 00
 (2.5180)  can1  585FF72   [8]  04 80 60 09 60 09 FF 09
 (2.5180)  can1  4100208   [8]  1C 03 00 00 2F 00 00 00
 (2.5190)  can1  586FF72   [8]  55 80 FF FF FF FF FF 0E
 (2.5190)  can1  595FF71   [8]  04 80 60 09 60 09 FE 09
 (2.5190)  can1  5807202   [8]  04 80 00 00 E0 01 07 3C
 (2.5200)  can1  5817202   [8]  01 00 10 27 10 27 0A E3
 (2.5200)  can1  404FF01   [1]  00
 (2.5210)  can1  5907102   [8]  04 80 00 00 E0 01 07 3C
 (2.5220)  can1  5827202   [8]  FA 00 00 00 00 00 07 D4
 (2.5220)  can1  5917102   [8]  01 00 10 27 10 27 0A E3
 (2.5230)  can1  8041001   [8]  36 02 10 3D FC A2 3B 00
 (2.5230)  can1  5927102   [8]  FA 00 00 00 00 00 07 D4
 (2.5240)  can1  5837202   [8]  2C 41 06 00 00 00 07 E0
 (2.5240)  can1  5937102   [8]  2C 41 06 00 00 00 07 E0
 (2.5250)  can1  8120C01   [8]  90 00 00 00 00 00 00 00
 (2.5250)  can1  5847270   [8]  00 00 00 00 00 00 07 9F
 (2.5260)  can1  5947102   [8]  00 00 00 00 00 00 07 9F
 (2.5260)  can1  80F1201   [4]  D6 10 00 00
 (2.5260)  can1  8030C02   [8]  30 75 EF FF D7 FF 00 00
 (2.5270)  can1  8580C02   [8]  41 00 3C 00 45 00 45 00
 (2.5270)  can1  89A0C02   [8]  95 3D 04 00 FC EA 03 00
 (2.5270)  can1  18800401   [8]  00 42 90 5B 8F 34 8F 00
 (2.5280)  can1  18840401   [8]  00 63 90 7C 8F 56 8F 00
 (2.5280)  can1  18C00401   [8]  00 94 2F 0D 2F 0B 30 00
 (2.5290)  can1  4100209   [8]  04 03 00 00 2B 00 00 00
 (2.5290)  can1  596FF71   [8]  5A 80 FF FF FF FF FF 73
 (2.5290)  can1  4100208   [8]  24 03 00 00 2F 00 00 00
 (2.5300)  can1  588FF72   [8]  D0 01 51 FF FF FF FD 01
 (2.5300)  can1  589FF72   [8]  1A E0 02 82 02 00 FD D1
 (2.5370)  can1  4100209   [8]  0B 03 00 00 2B 00 00 00
 (2.5380)  can1  585FF72   [8]  04 80 60 09 60 09 F0 09
 (2.5380)  can1  4100208   [8]  2D 03 00 00 33 00 00 00
 (2.5390)  can1  586FF72   [8]  5A 80 FF FF FF FF F0 73
 (2.5390)  can1  587FF72   [8]  02 08 11 10 FF FF FD 15
 (2.5400)  can1  595FF71   [8]  04 80 60 09 60 09 FF 09
 (2.5410)  can1  404FF02   [1]  00
 (2.5410)  can1  8100302   [5]  01 00 0A 00 07
 (2.5410)  can1  8580C02   [8]  40 00 40 00 4B 00 3F 00
 (2.5420)  can1  89A0C02   [8]  FC 25 04 00 FC 25 04 00
 (2.5420)  can1  8030C02   [8]  30 75 03 00 03 00 00 00
 (2.5470)  can1  4100209   [8]  13 03 00 00 2F 00 00 00
 (2.5480)  can1  596FF71   [8]  62 80 FF FF FF FF F0 D7
 (2.5480)  can1  4100208   [8]  34 03 00 00 2F 00 00 00
 (2.5490)  can1  597FF71   [8]  FF 07 29 10 FF FF FD B5
 (2.5490)  can1  598FF71   [8]  40 01 78 FF FF FF FD CA
 (2.5490)  can1  599FF71   [8]  1A E0 02 82 02 00 FD D1
 (2.5570)  can1  4100209   [8]  1A 03 00 00 2B 00 00 00
 (2.5580)  can1  595FF71   [8]  04 80 60 09 60 09 F0 09
 (2.5580)  can1  4100208   [8]  3B 03 00 00 2B 00 00 00
 (2.5590)  can1  89A0C02   [8]  62 84 04 00 FC 25 04 00
 (2.5600)  can1  8030C02   [8]  30 75 21 00 03 00 00 00
 (2.5600)  can1  8580C02   [8]  45 00 40 00 3F 00 3F 00
 (2.5620)  can1  585FF72   [8]  04 80 60 09 60 09 F1 09
 (2.5620)  can1  586FF72   [8]  5D 80 FF FF FF FF F1 F0
 (2.5640)  can1  8100302   [5]  01 00 0A 00 07
 (2.5670)  can1  4100209   [8]  22 03 00 00 2F 00 00 00
 (2.5680)  can1  596FF71   [8]  69 80 FF FF FF FF F1 D5
 (2.5680)  can1  4100208   [8]  44 03 00 00 33 00 00 00
 (2.5700)  can1  18101203   [4]  1C 2D BC 07
 (2.5720)  can1  18800401   [8]  01 4B 8F 5F 8F 58 8F 00
 (2.5730)  can1  18840401   [8]  01 6A 8F 80 8F 7C 8F 00
 (2.5730)  can1  18C00401   [8]  01 B0 2F 35 30 D6 2F 00
 (2.5770)  can1  4100209   [8]  29 03 00 00 2B 00 00 00
 (2.5770)  can1  595FF71   [8]  04 80 60 09 60 09 F1 09
 (2.5780)  can1  4100208   [8]  4B 03 00 00 2B 00 00 00
 (2.5790)  can1  8101201   [8]  9B 64 42 90 0F 8D 6B 00
 (2.5800)  can1  5807202   [8]  04 80 00 00 E0 01 08 3C
 (2.5800)  can1  5817202   [8]  01 00 10 27 10 27 0B E3
 (2.5810)  can1  5907102   [8]  04 80 00 00 E0 01 08 3C
 (2.5810)  can1  5827202   [8]  FA 00 00 00 00 00 08 D4
 (2.5810)  can1  5917102   [8]  01 00 10 27 10 27 0B E3
 (2.5820)  can1  8010C01   [8]  1E 64 00 00 00 00 00 00
 (2.5820)  can1  5927102   [8]  FA 00 00 00 00 00 08 D4
 (2.5820)  can1  5837202   [8]  2C 41 06 00 00 00 08 E0
 (2.5820)  can1  5937102   [8]  2C 41 06 00 00 00 08 E0
 (2.5830)  can1  585FF72   [8]  04 80 60 09 60 09 F2 09
 (2.5830)  can1  5847270   [8]  00 00 00 00 00 00 08 9F
 (2.5830)  can1  586FF72   [8]  5C 80 FF FF FF FF F2 A4
 (2.5840)  can1  5947102   [8]  00 00 00 00 00 00 08 9F
 (2.5840)  can1  89A0C02   [8]  FB D6 04 00 62 49 04 00
 (2.5840)  can1  8030C02   [8]  49 6F 3C 00 0F 00 97 00
 (2.5850)  can1  8580C02   [8]  4A 00 42 00 3F 00 3F 00
 (2.5870)  can1  4100209   [8]  30 03 00 00 2F 00 00 00
 (2.5870)  can1  596FF71   [8]  68 80 FF FF FF FF F2 81
 (2.5880)  can1  4100208   [8]  53 03 00 00 33 00 00 00
 (2.5880)  can1  1948FF72   [8]  00 C0 00 55 FF FF 0D 20
 (2.5890)  can1  8100302   [5]  01 00 0A 00 07
 (2.5970)  can1  4100209   [8]  38 03 00 00 2B 00 00 00
 (2.5980)  can1  595FF71   [8]  04 80 60 09 60 09 F2 09
 (2.5980)  can1  4100208   [8]  5A 03 00 00 2B 00 00 00
 (2.5990)  can1  1948FF71   [8]  00 C0 00 55 FF FF 0D 20
 (2.5990)  can1  1949FF72   [8]  0D 80 00 0D A0 00 0E 48
 (2.6000)  can1  194AFF72   [8]  79 77 57 77 75 57 0F 99
 (2.6010)  can1  194BFF72   [8]  77 F5 FF FF FF FF 10 78
 (2.6010)  can1  194CFF72   [8]  FF FF FF FF FF FF 11 0B
 (2.6010)  can1  8580C02   [8]  4A 00 41 00 3F 00 3F 00
 (2.6010)  can1  8030C02   [8]  7B 71 38 00 0B 00 5E 00
 (2.6020)  can1  89A0C02   [8]  2F CB 04 00 95 3D 04 00
 (2.6020)  can1  585FF72   [8]  04 80 60 09 60 09 F3 09
 (2.6030)  can1  586FF72   [8]  5C 80 FF FF FF FF F3 A4
 (2.6030)  can1  1949FF71   [8]  0D 80 00 0D B0 00 0E 58
 (2.6030)  can1  194AFF71   [8]  31 67 58 86 85 58 0F 62
 (2.6030)  can1  194BFF71   [8]  94 F5 FF FF FF FF 10 95
 (2.6040)  can1  194CFF71   [8]  FF FF FF FF FF FF 11 0B
 (2.6070)  can1  4100209   [8]  3F 03 00 00 2B 00 00 00
 (2.6070)  can1  596FF71   [8]  62 80 FF FF FF FF F3 D7
 (2.6080)  can1  4100208   [8]  62 03 00 00 2F 00 00 00
 (2.6120)  can1  528FF72   [8]  0E 00 67 00 00 00 45 00
 (2.6130)  can1  529FF72   [8]  00 00 64 00 0F 00 04 00
 (2.6130)  can1  52AFF72   [8]  14 14 14 14 14 14 1D 00
 (2.6130)  can1  52BFF72   [8]  10 12 10 14 00 FF 00 00
 (2.6140)  can1  52CFF72   [8]  00 00 EF FF EF FF 3A 00
 (2.6140)  can1  8100302   [5]  01 00 0A 00 07
 (2.6170)  can1  4100209   [8]  46 03 00 00 2F 00 00 00
 (2.6170)  can1  528FF71   [8]  ED FF 5E 00 00 00 45 00
 (2.6180)  can1  4100208   [8]  6A 03 00 00 2F 00 00 00
 (2.6180)  can1  529FF71   [8]  03 00 69 00 10 00 04 00
 (2.6180)  can1  52AFF71   [8]  14 14 14 14 14 14 14 00
 (2.6190)  can1  52BFF71   [8]  0E 10 0E 14 00 FF 00 00
 (2.6190)  can1  52CFF71   [8]  00 00 EF FF EF FF 3A 00
 (2.6190)  can1  595FF71   [8]  04 80 60 09 60 09 F3 09
 (2.6200)  can1  8580C02   [8]  45 00 41 00 45 00 45 00
 (2.6200)  can1  8030C02   [8]  30 75 02 00 EF FF 00 00
 (2.6210)  can1  8041001   [8]  36 02 10 3D FC A2 3B 00
 (2.6210)  can1  89A0C02   [8]  62 84 04 00 95 3D 04 00
 (2.6220)  can1  585FF72   [8]  04 80 60 09 60 09 F4 09
 (2.6230)  can1  586FF72   [8]  59 80 FF FF FF FF F4 8F
 (2.6230)  can1  18800401   [8]  02 7B 8F E4 8F CB 8F 00
 (2.6230)  can1  18840401   [8]  02 9C 8F 04 90 EB 8F 00
 (2.6240)  can1  18C00401   [8]  02 12 30 D2 2F F4 2F 00
 (2.6270)  can1  4100209   [8]  4D 03 00 00 2B 00 00 00
 (2.6280)  can1  596FF71   [8]  5A 80 FF FF FF FF F4 73
 (2.6280)  can1  4100208   [8]  71 03 00 00 2B 00 00 00
 (2.6290)  can1  588FF72   [8]  D0 01 51 FF FF FF FE 01
 (2.6290)  can1  589FF72   [8]  1A E0 02 82 02 00 FE D1
 (2.6370)  can1  4100209   [8]  54 03 00 00 2B 00 00 00
 (2.6380)  can1  595FF71   [8]  04 80 60 09 60 09 F4 09
 (2.6380)  can1  4100208   [8]  79 03 00 00 2F 00 00 00
 (2.6390)  can1  5807202   [8]  04 80 00 00 E0 01 09 3C
 (2.6400)  can1  5817202   [8]  01 00 10 27 10 27 0C E3
 (2.6410)  can1  5907102   [8]  04 80 00 00 E0 01 09 3C
 (2.6410)  can1  5917102   [8]  01 00 10 27 10 27 0C E3
 (2.6410)  can1  5827202   [8]  FA 00 00 00 00 00 09 D4
 (2.6410)  can1  5927102   [8]  FA 00 00 00 00 00 09 D4
 (2.6420)  can1  5837202   [8]  2C 41 06 00 00 00 09 E0
 (2.6430)  can1  5847270   [8]  00 00 00 00 00 00 09 9F
 (2.6440)  can1  5937102   [8]  2C 41 06 00 00 00 09 E0
 (2.6440)  can1  585FF72   [8]  04 80 60 09 60 09 F5 09
 (2.6450)  can1  586FF72   [8]  5B 80 FF FF FF FF F5 27
 (2.6450)  can1  587FF72   [8]  00 08 11 10 FF FF FE BD
 (2.6450)  can1  5947102   [8]  00 00 00 00 00 00 09 9F
 (2.6460)  can1  8100302   [5]  01 00 0A 00 07
 (2.6460)  can1  8580C02   [8]  40 00 3F 00 45 00 3F 00
 (2.6460)  can1  89A0C02   [8]  FC 25 04 00 2F 1A 04 00
 (2.6460)  can1  8030C02   [8]  30 75 03 00 00 00 00 00
 (2.6470)  can1  4100209   [8]  5C 03 00 00 2B 00 00 00
 (2.6470)  can1  596FF71   [8]  58 80 FF FF FF FF F5 DB
 (2.6480)  can1  4100208   [8]  80 03 00 00 2F 00 00 00
 (2.6480)  can1  597FF71   [8]  00 08 2B 10 FF FF FE 59
 (2.6490)  can1  598FF71   [8]  40 01 78 FF FF FF FE CA
 (2.6490)  can1  599FF71   [8]  1A E0 02 82 02 00 FE D1
 (2.6570)  can1  4100209   [8]  63 03 00 00 2F 00 00 00
 (2.6580)  can1  595FF71   [8]  04 80 60 09 60 09 F5 09
 (2.6590)  can1  4100208   [8]  87 03 00 00 2B 00 00 00
 (2.6590)  can1  89A0C02   [8]  62 0E 04 00 C9 31 04 00
 (2.6600)  can1  8030C02   [8]  30 75 E1 FF EB FF 00 00
 (2.6600)  can1  8580C02   [8]  3E 00 40 00 3F 00 45 00
 (2.6620)  can1  585FF72   [8]  04 80 60 09 60 09 F6 09
 (2.6620)  can1  586FF72   [8]  5A 80 FF FF FF FF F6 73
 (2.6640)  can1  8100302   [5]  01 00 0A 00 07
 (2.6670)  can1  4100209   [8]  6A 03 00 00 2B 00 00 00
 (2.6670)  can1  596FF71   [8]  5C 80 FF FF FF FF F6 A4
 (2.6680)  can1  4100208   [8]  8F 03 00 00 2F 00 00 00
 (2.6720)  can1  18800401   [8]  03 B8 8F AB 8F C1 8F 00
 (2.6730)  can1  18840401   [8]  03 D8 8F C9 8F E3 8F 00
 (2.6730)  can1  18C00401   [8]  03 BF 2F BA 2F 7C 2F 00
 (2.6770)  can1  4100209   [8]  71 03 00 00 2B 00 00 00
 (2.6780)  can1  595FF71   [8]  04 80 60 09 60 09 F6 09
 (2.6780)  can1  4100208   [8]  97 03 00 00 2F 00 00 00
 (2.6790)  can1  89A0C02   [8]  95 3D 04 00 FC 25 04 00
 (2.6800)  can1  8030C02   [8]  30 75 0B 00 03 00 00 00
 (2.6800)  can1  8580C02   [8]  41 00 40 00 45 00 3F 00
 (2.6810)  can1  8101201   [8]  A0 64 43 90 0F 8D 6A 00
 (2.6810)  can1  8010C01   [8]  22 64 00 00 00 00 00 00
 (2.6820)  can1  585FF72   [8]  04 80 60 09 60 09 F7 09
 (2.6820)  can1  586FF72   [8]  59 80 FF FF FF FF F7 8F
 (2.6870)  can1  4100209   [8]  79 03 00 00 2B 00 00 00
 (2.6870)  can1  596FF71   [8]  5E 80 FF FF FF FF F7 0C
 (2.6880)  can1  4100208   [8]  9E 03 00 00 2B 00 00 00
 (2.6890)  can1  8100302   [5]  01 00 0A 00 07
 (2.6970)  can1  4100209   [8]  80 03 00 00 2B 00 00 00
 (2.6980)  can1  595FF71   [8]  04 80 60 09 60 09 F7 09
 (2.6990)  can1  4100208   [8]  A6 03 00 00 2F 00 00 00
 (2.6990)  can1  5807202   [8]  04 80 00 00 E0 01 0A 3C
 (2.7000)  can1  5817202   [8]  01 00 10 27 10 27 0D E3
 (2.7000)  can1  5907102   [8]  04 80 00 00 E0 01 0A 3C
 (2.7010)  can1  5917102   [8]  01 00 10 27 10 27 0D E3
 (2.7010)  can1  5827202   [8]  FA 00 00 00 00 00 0A D4
 (2.7020)  can1  5927102   [8]  FA 00 00 00 00 00 0A D4
 (2.7020)  can1  5837202   [8]  2C 41 06 00 00 00 0A E0
 (2.7030)  can1  5847270   [8]  00 00 00 00 00 00 0A 9F
 (2.7040)  can1  5937102   [8]  2C 41 06 00 00 00 0A E0
 (2.7040)  can1  585FF72   [8]  04 80 60 09 60 09 F8 09
 (2.7050)  can1  586FF72   [8]  5B 80 FF FF FF FF F8 27
 (2.7050)  can1  5947102   [8]  00 00 00 00 00 00 0A 9F
 (2.7050)  can1  8580C02   [8]  43 00 3F 00 45 00 3F 00
 (2.7050)  can1  89A0C02   [8]  2F 55 04 00 2F 1A 04 00
 (2.7060)  can1  8030C02   [8]  30 75 12 00 00 00 00 00
 (2.7070)  can1  4100209   [8]  87 03 00 00 2B 00 00 00
 (2.7070)  can1  596FF71   [8]  59 80 FF FF FF FF F8 8F
 (2.7080)  can1  4100208   [8]  AD 03 00 00 2B 00 00 00
 (2.7140)  can1  8100302   [5]  01 00 0A 00 07
 (2.7170)  can1  4100209   [8]  8E 03 00 00 2B 00 00 00
 (2.7180)  can1  595FF71   [8]  04 80 60 09 60 09 F8 09
 (2.7180)  can1  4100208   [8]  B4 03 00 00 2F 00 00 00
 (2.7190)  can1  89A0C02   [8]  2F 1A 04 00 C9 31 04 00
 (2.7200)  can1  8030C02   [8]  30 75 00 00 07 00 00 00
 (2.7210)  can1  8041001   [8]  36 02 10 3D FC A2 3B 00
 (2.7210)  can1  8580C02   [8]  3F 00 40 00 45 00 3F 00
 (2.7220)  can1  585FF72   [8]  04 80 60 09 60 09 F9 09
 (2.7230)  can1  586FF72   [8]  57 80 FF FF FF FF F9 A6
 (2.7240)  can1  18800401   [8]  04 E5 8F D8 8F F3 8C 00
 (2.7240)  can1  18840401   [8]  04 03 90 F4 8F 10 8D 00
 (2.7240)  can1  18C00401   [8]  04 E6 2E CE 2E E7 2F 00
 (2.7270)  can1  4100209   [8]  95 03 00 00 2B 00 00 00
 (2.7280)  can1  588FF72   [8]  D0 01 51 FF FF FF FF 01
 (2.7280)  can1  4100208   [8]  BB 03 00 00 2B 00 00 00
 (2.7280)  can1  589FF72   [8]  1A E0 02 82 02 00 FF D1
 (2.7290)  can1  596FF71   [8]  58 80 FF FF FF FF F9 DB
 (2.7370)  can1  4100209   [8]  9C 03 00 00 2B 00 00 00
 (2.7380)  can1  595FF71   [8]  04 80 60 09 60 09 F9 09
 (2.7380)  can1  4100208   [8]  C3 03 00 00 2B 00 00 00
 (2.7390)  can1  8100302   [5]  01 00 0A 00 07
 (2.7400)  can1  8580C02   [8]  3E 00 3E 00 3F 00 3F 00
 (2.7410)  can1  89A0C02   [8]  62 0E 04 00 96 02 04 00
 (2.7410)  can1  8030C02   [8]  30 75 FD FF F9 FF 00 00
 (2.7420)  can1  585FF72   [8]  04 80 60 09 60 09 FA 09
 (2.7420)  can1  586FF72   [8]  57 80 FF FF FF FF FA A6
 (2.7430)  can1  587FF72   [8]  04 08 0F 10 FF FF FF 40
 (2.7470)  can1  4100209   [8]  A2 03 00 00 27 00 00 00
 (2.7480)  can1  596FF71   [8]  58 80 FF FF FF FF FA DB
 (2.7480)  can1  4100208   [8]  CA 03 00 00 2F 00 00 00
 (2.7490)  can1  597FF71   [8]  00 08 2B 10 FF FF FF 59
 (2.7490)  can1  598FF71   [8]  30 01 79 FF FF FF FF 18
 (2.7500)  can1  599FF71   [8]  1A E0 02 82 02 00 FF D1
 (2.7570)  can1  4100209   [8]  A9 03 00 00 2B 00 00 00
 (2.7580)  can1  595FF71   [8]  04 80 60 09 60 09 FA 09
 (2.7580)  can1  4100208   [8]  D1 03 00 00 2B 00 00 00
 (2.7590)  can1  5807202   [8]  04 80 00 00 E0 01 0B 3C
 (2.7600)  can1  5817202   [8]  01 00 10 27 10 27 0E E3
 (2.7600)  can1  5907102   [8]  04 80 00 00 E0 01 0B 3C
 (2.7610)  can1  5917102   [8]  01 00 10 27 10 27 0E E3
 (2.7610)  can1  5827202   [8]  FA 00 00 00 00 00 0B D4
 (2.7620)  can1  5927102   [8]  FA 00 00 00 00 00 0B D4
 (2.7620)  can1  5837202   [8]  2C 41 06 00 00 00 0B E0
 (2.7630)  can1  5847270   [8]  00 00 00 00 00 00 0B 9F
 (2.7630)  can1  5937102   [8]  2C 41 06 00 00 00 0B E0
 (2.7640)  can1  585FF72   [8]  04 80 60 09 60 09 FB 09
 (2.7650)  can1  586FF72   [8]  52 80 FF FF FF FF FB 8D
 (2.7650)  can1  5947102   [8]  00 00 00 00 00 00 0B 9F
 (2.7650)  can1  8580C02   [8]  3E 00 3E 00 3F 00 3F 00
 (2.7650)  can1  89A0C02   [8]  62 0E 04 00 96 02 04 00
 (2.7660)  can1  8030C02   [8]  30 75 FD FF F9 FF 00 00
 (2.7660)  can1  8100302   [5]  01 00 0A 00 07
 (2.7670)  can1  4100209   [8]  B1 03 00 00 2B 00 00 00
 (2.7680)  can1  596FF71   [8]  5E 80 FF FF FF FF FB 0C
 (2.7680)  can1  4100208   [8]  D8 03 00 00 2B 00 00 00
 (2.7720)  can1  18800401   [8]  05 B3 8F A7 8F A8 8F 00
 (2.7730)  can1  18840401   [8]  05 D1 8F C1 8F C6 8F 00
 (2.7730)  can1  18C00401   [8]  05 E9 2F 42 30 65 30 00
 (2.7770)  can1  4100209   [8]  B8 03 00 00 2B 00 00 00
 (2.7770)  can1  595FF71   [8]  04 80 60 09 60 09 FB 09
 (2.7780)  can1  4100208   [8]  E0 03 00 00 2B 00 00 00
 (2.7790)  can1  89A0C02   [8]  2F 55 04 00 96 C7 03 00
 (2.7800)  can1  8030C02   [8]  30 75 12 00 E6 FF 00 00
 (2.7810)  can1  8580C02   [8]  43 00 3A 00 3F 00 3F 00
 (2.7810)  can1  8101201   [8]  9C 64 45 90 10 8D 70 00
 (2.7820)  can1  8010C01   [8]  1D 64 00 00 00 00 00 00
 (2.7820)  can1  585FF72   [8]  04 80 60 09 60 09 FC 09
 (2.7820)  can1  586FF72   [8]  55 80 FF FF FF FF FC 0E
 (2.7870)  can1  4100209   [8]  BF 03 00 00 2B 00 00 00
 (2.7880)  can1  596FF71   [8]  5F 80 FF FF FF FF FC 58
 (2.7880)  can1  4100208   [8]  E7 03 00 00 2F 00 00 00
 (2.7890)  can1  8100302   [5]  01 00 0A 00 07
 (2.7970)  can1  4100209   [8]  C5 03 00 00 27 00 00 00
 (2.7980)  can1  595FF71   [8]  04 80 60 09 60 09 FC 09
 (2.7980)  can1  4100208   [8]  EE 03 00 00 2B 00 00 00
 (2.7990)  can1  89A0C02   [8]  FC 60 04 00 FC EA 03 00
 (2.8000)  can1  8030C02   [8]  D9 6F 3B 00 11 00 88 00
 (2.8010)  can1  8580C02   [8]  43 00 3C 00 3F 00 39 00
 (2.8020)  can1  585FF72   [8]  04 80 60 09 60 09 FD 09
 (2.8020)  can1  586FF72   [8]  52 80 FF FF FF FF FD 8D
 (2.8070)  can1  4100209   [8]  CC 03 00 00 2B 00 00 00
 (2.8080)  can1  596FF71   [8]  5F 80 FF FF FF FF FD 58
 (2.8080)  can1  4100208   [8]  F5 03 00 00 2B 00 00 00
 (2.8140)  can1  8100302   [5]  01 00 0A 00 07
 (2.8170)  can1  4100209   [8]  D3 03 00 00 2B 00 00 00
 (2.8170)  can1  595FF71   [8]  04 80 60 09 60 09 FD 09
 (2.8180)  can1  4100208   [8]  FC 03 00 00 2B 00 00 00
 (2.8190)  can1  5807202   [8]  04 80 00 00 E0 01 0C 3C
 (2.8200)  can1  5817202   [8]  01 00 10 27 10 27 0F E3
 (2.8200)  can1  5907102   [8]  04 80 00 00 E0 01 0C 3C
 (2.8210)  can1  8041001   [8]  36 02 10 3D FC A2 3B 00
 (2.8220)  can1  5827202   [8]  FA 00 00 00 00 00 0C D4
 (2.8230)  can1  5917102   [8]  01 00 10 27 10 27 0F E3
 (2.8230)  can1  5927102   [8]  FA 00 00 00 00 00 0C D4
 (2.8240)  can1  5837202   [8]  2C 41 06 00 00 00 0C E0
 (2.8240)  can1  5937102   [8]  2C 41 06 00 00 00 0C E0
 (2.8240)  can1  585FF72   [8]  04 80 60 09 60 09 FE 09
 (2.8250)  can1  5847270   [8]  00 00 00 00 00 00 0C 9F
 (2.8250)  can1  586FF72   [8]  53 80 FF FF FF FF FE D9
 (2.8260)  can1  5947102   [8]  00 00 00 00 00 00 0C 9F
 (2.8260)  can1  89A0C02   [8]  FC 60 04 00 96 C7 03 00
 (2.8260)  can1  8030C02   [8]  30 75 16 00 E6 FF 00 00
 (2.8270)  can1  8580C02   [8]  43 00 3A 00 3F 00 3F 00
 (2.8270)  can1  18800401   [8]  06 A8 8F EF 8F F8 8F 00
 (2.8270)  can1  18840401   [8]  06 CB 8F 0A 90 13 90 00
 (2.8280)  can1  18C00401   [8]  06 3D 30 9E 30 54 30 00
 (2.8280)  can1  4100209   [8]  DA 03 00 00 27 00 00 00
 (2.8290)  can1  588FF72   [8]  D0 01 51 FF FF FF F0 01
 (2.8290)  can1  4100208   [8]  04 04 00 00 2B 00 00 00
 (2.8290)  can1  589FF72   [8]  1A E0 02 82 02 00 F0 D1
 (2.8300)  can1  596FF71   [8]  5C 80 FF FF FF FF FE A4
 (2.8370)  can1  4100209   [8]  E0 03 00 00 27 00 00 00
 (2.8380)  can1  595FF71   [8]  04 80 60 09 60 09 FE 09
 (2.8380)  can1  4100208   [8]  0B 04 00 00 2B 00 00 00
 (2.8390)  can1  8100302   [5]  01 00 0A 00 07
 (2.8400)  can1  8580C02   [8]  41 00 3B 00 3F 00 39 00
 (2.8400)  can1  89A0C02   [8]  95 3D 04 00 63 D3 03 00
 (2.8410)  can1  8030C02   [8]  30 75 2E 00 09 00 00 00
 (2.8420)  can1  585FF72   [8]  04 80 60 09 60 09 FF 09
 (2.8420)  can1  586FF72   [8]  53 80 FF FF FF FF FF D9
 (2.8430)  can1  587FF72   [8]  03 08 0F 10 FF FF F0 C3
 (2.8440)  can1  1948FF72   [8]  00 C0 00 55 FF FF 12 25
 (2.8470)  can1  4100209   [8]  E7 03 00 00 2B 00 00 00
 (2.8480)  can1  596FF71   [8]  61 80 FF FF FF FF FF 2B
 (2.8480)  can1  4100208   [8]  12 04 00 00 2B 00 00 00
 (2.8490)  can1  597FF71   [8]  01 08 2B 10 FF FF F0 0D
 (2.8490)  can1  598FF71   [8]  30 01 79 FF FF FF F0 18
 (2.8490)  can1  599FF71   [8]  1A D0 02 81 02 00 F0 87
 (2.8500)  can1  1948FF71   [8]  00 C0 00 55 FF FF 12 25
 (2.8520)  can1  1949FF72   [8]  0D 80 00 0D 90 00 13 3D
 (2.8530)  can1  194AFF72   [8]  79 37 58 83 A5 57 14 9B
 (2.8530)  can1  194BFF72   [8]  80 F5 FF FF FF FF 15 86
 (2.8540)  can1  194CFF72   [8]  FF FF FF FF FF FF 16 10
 (2.8570)  can1  4100209   [8]  EE 03 00 00 2B 00 00 00
 (2.8580)  can1  595FF71   [8]  04 80 60 09 60 09 FF 09
 (2.8590)  can1  4100208   [8]  19 04 00 00 2B 00 00 00
 (2.8590)  can1  1949FF71   [8]  0D 80 00 0D A0 00 13 4D
 (2.8600)  can1  194AFF71   [8]  30 67 58 86 65 58 14 46
 (2.8600)  can1  194BFF71   [8]  8E F5 FF FF FF FF 15 94
 (2.8600)  can1  194CFF71   [8]  FF FF FF FF FF FF 16 10
 (2.8610)  can1  89A0C02   [8]  95 78 04 00 63 D3 03 00
 (2.8610)  can1  8030C02   [8]  30 75 1E 00 EA FF 00 00
 (2.8610)  can1  8580C02   [8]  45 00 3B 00 3F 00 3F 00
 (2.8620)  can1  585FF72   [8]  04 80 60 09 60 09 F0 09
 (2.8620)  can1  586FF72   [8]  54 80 FF FF FF FF F0 5A
 (2.8640)  can1  8100302   [5]  01 00 0A 00 07
 (2.8670)  can1  4100209   [8]  F5 03 00 00 27 00 00 00
 (2.8680)  can1  596FF71   [8]  60 80 FF FF FF FF F0 7F
 (2.8690)  can1  4100208   [8]  20 04 00 00 2B 00 00 00
 (2.8720)  can1  18800401   [8]  07 ED 8F E1 8F C0 8F 00
 (2.8730)  can1  18840401   [8]  07 0A 90 FD 8F DB 8F 00
 (2.8730)  can1  18C00401   [8]  07 A6 30 23 30 9A 30 00
 (2.8770)  can1  4100209   [8]  FB 03 00 00 27 00 00 00
 (2.8780)  can1  595FF71   [8]  04 80 60 09 60 09 F0 09
 (2.8780)  can1  4100208   [8]  27 04 00 00 2B 00 00 00
 (2.8790)  can1  5807202   [8]  04 80 00 00 E0 01 0D 3C
 (2.8800)  can1  5817202   [8]  01 00 10 27 10 27 00 E3
 (2.8800)  can1  5907102   [8]  04 80 00 00 E0 01 0D 3C
 (2.8810)  can1  5917102   [8]  01 00 10 27 10 27 00 E3
 (2.8810)  can1  5827202   [8]  FA 00 00 00 00 00 0D D4
 (2.8820)  can1  5927102   [8]  FA 00 00 00 00 00 0D D4
 (2.8830)  can1  5837202   [8]  2C 41 06 00 00 00 0D E0
 (2.8840)  can1  5847270   [8]  00 00 00 00 00 00 0D 9F
 (2.8840)  can1  5937102   [8]  2C 41 06 00 00 00 0D E0
 (2.8850)  can1  585FF72   [8]  04 80 60 09 60 09 F1 09
 (2.8850)  can1  586FF72   [8]  51 80 FF FF FF FF F1 71
 (2.8850)  can1  5947102   [8]  00 00 00 00 00 00 0D 9F
 (2.8850)  can1  8010C01   [8]  22 64 00 00 00 00 00 00
 (2.8860)  can1  8101201   [8]  A0 64 4D 90 12 8D 64 00
 (2.8860)  can1  8030C02   [8]  6E 6D 3F 00 0D 00 C6 00
 (2.8860)  can1  8580C02   [8]  44 00 3B 00 3F 00 39 00
 (2.8870)  can1  89A0C02   [8]  C8 6C 04 00 2F DF 03 00
 (2.8870)  can1  4100209   [8]  02 04 00 00 2B 00 00 00
 (2.8880)  can1  596FF71   [8]  5A 80 FF FF FF FF F1 73
 (2.8880)  can1  4100208   [8]  2E 04 00 00 2B 00 00 00
 (2.8890)  can1  8100302   [5]  01 00 0A 00 08
 (2.8970)  can1  4100209   [8]  09 04 00 00 27 00 00 00
 (2.8980)  can1  595FF71   [8]  04 80 60 09 60 09 F1 09
 (2.8980)  can1  4100208   [8]  35 04 00 00 2B 00 00 00
 (2.8990)  can1  89A0C02   [8]  FC 25 04 00 C9 BB 03 00
 (2.9000)  can1  8030C02   [8]  30 75 26 00 01 00 00 00
 (2.9000)  can1  8580C02   [8]  40 00 39 00 3F 00 39 00
 (2.9020)  can1  585FF72   [8]  04 80 60 09 60 09 F2 09
 (2.9020)  can1  586FF72   [8]  57 80 FF FF FF FF F2 A6
 (2.9070)  can1  4100209   [8]  10 04 00 00 2B 00 00 00
 (2.9070)  can1  596FF71   [8]  57 80 FF FF FF FF F2 A6
 (2.9080)  can1  4100208   [8]  3C 04 00 00 2B 00 00 00
 (2.9140)  can1  8100302   [5]  01 00 0A 00 08
 (2.9170)  can1  4100209   [8]  16 04 00 00 27 00 00 00
 (2.9180)  can1  595FF71   [8]  04 80 60 09 60 09 F2 09
 (2.9190)  can1  4100208   [8]  43 04 00 00 27 00 00 00
 (2.9190)  can1  89A0C02   [8]  96 02 04 00 96 02 04 00
 (2.9200)  can1  8030C02   [8]  30 75 1A 00 1A 00 00 00
 (2.9200)  can1  8041001   [8]  36 02 10 3D FC A2 3B 00
 (2.9210)  can1  8580C02   [8]  3E 00 3E 00 39 00 39 00
 (2.9220)  can1  585FF72   [8]  04 80 60 09 60 09 F3 09
 (2.9220)  can1  586FF72   [8]  53 80 FF FF FF FF F3 D9
 (2.9230)  can1  18800401   [8]  08 B0 8F 21 8D 0C 90 00
 (2.9230)  can1  18840401   [8]  08 CF 8F 3E 8D 2B 90 00
 (2.9240)  can1  18C00401   [8]  08 FB 2F 7B 30 92 2F 00
 (2.9270)  can1  4100209   [8]  1D 04 00 00 27 00 00 00
 (2.9280)  can1  588FF72   [8]  D0 01 51 FF FF FF F1 01
 (2.9280)  can1  4100208   [8]  4A 04 00 00 2B 00 00 00
 (2.9290)  can1  589FF72   [8]  1A E0 02 82 02 00 F1 D1
 (2.9290)  can1  596FF71   [8]  55 80 FF FF FF FF F3 0E
 (2.9370)  can1  4100209   [8]  23 04 00 00 27 00 00 00
 (2.9380)  can1  595FF71   [8]  04 80 60 09 60 09 F3 09
 (2.9380)  can1  4100208   [8]  51 04 00 00 2B 00 00 00
 (2.9390)  can1  5807202   [8]  04 80 00 00 E0 01 0E 3C
 (2.9400)  can1  5817202   [8]  01 00 10 27 10 27 01 E3
 (2.9400)  can1  5907102   [8]  04 80 00 00 E0 01 0E 3C
 (2.9410)  can1  5917102   [8]  01 00 10 27 10 27 01 E3
 (2.9410)  can1  5827202   [8]  FA 00 00 00 00 00 0E D4
 (2.9420)  can1  5927102   [8]  FA 00 00 00 00 00 0E D4
 (2.9420)  can1  5837202   [8]  2C 41 06 00 00 00 0E E0
 (2.9430)  can1  5847270   [8]  00 00 00 00 00 00 0E 9F
 (2.9440)  can1  5937102   [8]  2C 41 06 00 00 00 0E E0
 (2.9440)  can1  585FF72   [8]  04 80 60 09 60 09 F4 09
 (2.9450)  can1  586FF72   [8]  55 80 FF FF FF FF F4 0E
 (2.9450)  can1  587FF72   [8]  01 08 11 10 FF FF F1 E9
 (2.9450)  can1  5947102   [8]  00 00 00 00 00 00 0E 9F
 (2.9460)  can1  8100302   [5]  01 00 0A 00 08
 (2.9460)  can1  8580C02   [8]  3C 00 3B 00 3F 00 39 00
 (2.9460)  can1  89A0C02   [8]  FC EA 03 00 63 D3 03 00
 (2.9460)  can1  8030C02   [8]  30 75 11 00 09 00 00 00
 (2.9470)  can1  4100209   [8]  2A 04 00 00 2B 00 00 00
 (2.9470)  can1  596FF71   [8]  53 80 FF FF FF FF F4 D9
 (2.9480)  can1  4100208   [8]  57 04 00 00 27 00 00 00
 (2.9480)  can1  597FF71   [8]  00 08 2B 10 FF FF F1 59
 (2.9490)  can1  598FF71   [8]  40 01 78 FF FF FF F1 CA
 (2.9490)  can1  599FF71   [8]  1A D0 02 81 02 00 F1 87
 (2.9570)  can1  4100209   [8]  31 04 00 00 27 00 00 00
 (2.9580)  can1  595FF71   [8]  04 80 60 09 60 09 F4 09
 (2.9580)  can1  4100208   [8]  5E 04 00 00 2B 00 00 00
 (2.9590)  can1  89A0C02   [8]  63 D3 03 00 FC EA 03 00
 (2.9600)  can1  8030C02   [8]  30 75 09 00 11 00 00 00
 (2.9600)  can1  8580C02   [8]  3B 00 3C 00 3F 00 39 00
 (2.9620)  can1  585FF72   [8]  04 80 60 09 60 09 F5 09
 (2.9620)  can1  586FF72   [8]  57 80 FF FF FF FF F5 A6
 (2.9640)  can1  8100302   [5]  01 00 0A 00 09
 (2.9670)  can1  4100209   [8]  37 04 00 00 27 00 00 00
 (2.9670)  can1  596FF71   [8]  55 80 FF FF FF FF F5 0E
 (2.9680)  can1  4100208   [8]  65 04 00 00 27 00 00 00
 (2.9720)  can1  18800401   [8]  09 FF 8F BB 8F A9 8F 00
 (2.9730)  can1  18840401   [8]  09 1F 90 DC 8F C8 8F 00
 (2.9740)  can1  18C00401   [8]  09 F5 2F 93 2F 05 30 00
 (2.9770)  can1  4100209   [8]  3E 04 00 00 27 00 00 00
 (2.9780)  can1  595FF71   [8]  04 80 60 09 60 09 F5 09
 (2.9780)  can1  4100208   [8]  6C 04 00 00 2B 00 00 00
 (2.9790)  can1  89A0C02   [8]  FC EA 03 00 96 02 04 00
 (2.9800)  can1  8030C02   [8]  30 75 11 00 1A 00 00 00
 (2.9800)  can1  8580C02   [8]  3C 00 3E 00 3F 00 39 00
 (2.9820)  can1  585FF72   [8]  04 80 60 09 60 09 F6 09
 (2.9820)  can1  586FF72   [8]  5A 80 FF FF FF FF F6 73
 (2.9830)  can1  8101201   [8]  9D 64 46 90 12 8D 87 00
 (2.9840)  can1  8010C01   [8]  21 64 00 00 00 00 00 00
 (2.9870)  can1  4100209   [8]  44 04 00 00 27 00 00 00
 (2.9880)  can1  596FF71   [8]  55 80 FF FF FF FF F6 0E
 (2.9880)  can1  4100208   [8]  72 04 00 00 27 00 00 00
 (2.9890)  can1  8100302   [5]  01 00 0A 00 09
 (2.9970)  can1  4100209   [8]  4A 04 00 00 27 00 00 00
 (2.9980)  can1  595FF71   [8]  04 80 60 09 60 09 F6 09
 (2.9980)  can1  4100208   [8]  79 04 00 00 2B 00 00 00
 (2.9990)  can1  5807202   [8]  04 80 00 00 E0 01 0F 3C
 (3.0000)  can1  5817202   [8]  01 00 10 27 10 27 02 E3
 (3.0000)  can1  5907102   [8]  04 80 00 00 E0 01 0F 3C
 (3.0010)  can1  5917102   [8]  01 00 10 27 10 27 02 E3
 (3.0010)  can1  5827202   [8]  FA 00 00 00 00 00 0F D4
 (3.0020)  can1  5927102   [8]  FA 00 00 00 00 00 0F D4
 (3.0020)  can1  5837202   [8]  2C 41 06 00 00 00 0F E0
 (3.0030)  can1  5847270   [8]  00 00 00 00 00 00 0F 9F
 (3.0040)  can1  5937102   [8]  2C 41 06 00 00 00 0F E0
 (3.0040)  can1  585FF72   [8]  04 80 60 09 60 09 F7 09
 (3.0040)  can1  586FF72   [8]  56 80 FF FF FF FF F7 F2
 (3.0050)  can1  5947102   [8]  00 00 00 00 00 00 0F 9F
 (3.0050)  can1  8580C02   [8]  3C 00 40 00 3F 00 39 00
 (3.0050)  can1  89A0C02   [8]  FC EA 03 00 FC 25 04 00
 (3.0060)  can1  8030C02   [8]  30 75 11 00 26 00 00 00
 (3.0070)  can1  4100209   [8]  51 04 00 00 27 00 00 00
 (3.0080)  can1  596FF71   [8]  50 80 FF FF FF FF F7 25
 (3.0080)  can1  4100208   [8]  80 04 00 00 27 00 00 00
 (3.0140)  can1  8100302   [5]  01 00 0A 00 09
 (3.0170)  can1  4100209   [8]  57 04 00 00 27 00 00 00
 (3.0180)  can1  595FF71   [8]  04 80 60 09 60 09 F7 09
 (3.0180)  can1  4100208   [8]  87 04 00 00 2B 00 00 00
 (3.0190)  can1  89A0C02   [8]  FC AF 03 00 C9 F6 03 00
 (3.0200)  can1  8030C02   [8]  30 75 FE FF 15 00 00 00
 (3.0210)  can1  8041001   [8]  36 02 10 3D FC A2 3B 00
 (3.0210)  can1  8580C02   [8]  39 00 3D 00 3F 00 39 00
 (3.0220)  can1  585FF72   [8]  04 80 60 09 60 09 F8 09
 (3.0220)  can1  586FF72   [8]  54 80 FF FF FF FF F8 5A
 (3.0230)  can1  18800401   [8]  0A 7F 8F A2 8F AC 8F 00
 (3.0230)  can1  18840401   [8]  0A A9 8F BF 8F CD 8F 00
 (3.0240)  can1  18C00401   [8]  0A 3C 30 96 30 58 30 00
 (3.0270)  can1  4100209   [8]  5D 04 00 00 23 00 00 00
 (3.0280)  can1  596FF71   [8]  4F 80 FF FF FF FF F8 8B
 (3.0280)  can1  4100208   [8]  8D 04 00 00 27 00 00 00
 (3.0290)  can1  588FF72   [8]  D0 01 51 FF FF FF F2 01
 (3.0290)  can1  589FF72   [8]  1A E0 02 82 02 00 F2 D1
 (3.0370)  can1  4100209   [8]  63 04 00 00 27 00 00 00
 (3.0380)  can1  595FF71   [8]  04 80 60 09 60 09 F8 09
 (3.0380)  can1  4100208   [8]  94 04 00 00 27 00 00 00
 (3.0390)  can1  8100302   [5]  01 00 0A 00 0A
 (3.0400)  can1  8580C02   [8]  38 00 3B 00 39 00 39 00
 (3.0400)  can1  89A0C02   [8]  30 A4 03 00 2F DF 03 00
 (3.0510)  can1  8030C02   [8]  30 75 FA FF 0D 00 00 00
 (3.0510)  can1  585FF72   [8]  04 80 60 09 60 09 F9 09
 (3.0520)  can1  586FF72   [8]  4D 80 FF FF FF FF F9 23
 (3.0520)  can1  587FF72   [8]  06 08 0F 10 FF FF F2 E8
 (3.0520)  can1  4100209   [8]  6A 04 00 00 27 00 00 00
 (3.0530)  can1  596FF71   [8]  51 80 FF FF FF FF F9 71
 (3.0530)  can1  4100208   [8]  9B 04 00 00 2B 00 00 00
 (3.0530)  can1  597FF71   [8]  01 08 2B 10 FF FF F2 0D
 (3.0540)  can1  598FF71   [8]  40 01 78 FF FF FF F2 CA
 (3.0540)  can1  599FF71   [8]  1A D0 02 81 02 00 F2 87
 (3.0570)  can1  4100209   [8]  70 04 00 00 27 00 00 00
 (3.0580)  can1  595FF71   [8]  04 80 60 09 60 09 F9 09
 (3.0590)  can1  4100208   [8]  A1 04 00 00 27 00 00 00
 (3.0590)  can1  5807202   [8]  04 80 00 00 E0 01 00 3C
 (3.0600)  can1  5817202   [8]  01 00 10 27 10 27 03 E3
 (3.0600)  can1  5907102   [8]  04 80 00 00 E0 01 00 3C
 (3.0610)  can1  5917102   [8]  01 00 10 27 10 27 03 E3
 (3.0610)  can1  5827202   [8]  FA 00 00 00 00 00 00 D4
 (3.0620)  can1  5927102   [8]  FA 00 00 00 00 00 00 D4
 (3.0620)  can1  5837202   [8]  2C 41 06 00 00 00 00 E0
 (3.0630)  can1  5847270   [8]  00 00 00 00 00 00 00 9F
 (3.0630)  can1  5937102   [8]  2C 41 06 00 00 00 00 E0
 (3.0640)  can1  585FF72   [8]  04 80 60 09 60 09 FA 09
 (3.0640)  can1  586FF72   [8]  4F 80 FF FF FF FF FA 8B
 (3.0650)  can1  5947102   [8]  00 00 00 00 00 00 00 9F
 (3.0650)  can1  8580C02   [8]  39 00 36 00 39 00 39 00
 (3.0650)  can1  89A0C02   [8]  C9 BB 03 00 96 8C 03 00
 (3.0660)  can1  8030C02   [8]  30 75 01 00 F1 FF 00 00
 (3.0660)  can1  8100302   [5]  01 00 0A 00 0A
 (3.0670)  can1  4100209   [8]  76 04 00 00 23 00 00 00
