 (1.3940)  can1  595FF71   [8]  00 80 60 09 60 09 F6 76
 (1.4060)  can1  4100209   [8]  3A CF 12 00 00 00 00 00
 (1.4070)  can1  596FF71   [8]  FF 7F FF FF FF FF F6 19
 (1.4080)  can1  4100208   [8]  70 94 12 00 00 00 00 00
 (1.4080)  can1  18800401   [8]  05 70 94 68 94 6C 94 00
 (1.4090)  can1  595FF71   [8]  00 80 60 09 60 09 F8 76
 (1.4090)  can1  596FF71   [8]  01 80 FF FF FF FF F8 9F
 (1.4090)  can1  4100209   [8]  3A CF 12 00 00 00 00 00
 (1.4090)  can1  4100208   [8]  70 94 12 00 00 00 00 00
 (1.4100)  can1  18800401   [8]  01 0D 94 22 94 21 94 00
 (1.4100)  can1  18840401   [8]  01 1D 94 2D 94 2C 94 00
 (1.4100)  can1  18C00401   [8]  01 A3 2D F1 2D B7 2D 00
 (1.4110)  can1  8101201   [8]  F0 67 F8 94 89 92 32 00
 (1.4110)  can1  8010C01   [8]  70 67 00 00 00 00 00 00
 (1.4110)  can1  89A0C02   [8]  CC 0B 00 00 00 00 00 00
 (1.4120)  can1  8030C02   [8]  00 00 2A 68 2A 68 92 17
 (1.4120)  can1  8580C02   [8]  00 00 00 00 00 00 00 00
 (1.4120)  can1  4100209   [8]  3A CF 12 00 00 00 00 00
 (1.4120)  can1  4100208   [8]  70 94 12 00 00 00 00 00
 (1.4130)  can1  585FF72   [8]  00 80 60 09 60 09 F9 76
 (1.4130)  can1  586FF72   [8]  02 80 FF FF FF FF F9 63
 (1.4150)  can1  8100302   [5]  00 00 0A 00 F8
 (1.4160)  can1  595FF71   [8]  00 80 60 09 60 09 F9 76
 (1.4170)  can1  596FF71   [8]  FE 7F FF FF FF FF F9 4D
 (1.4170)  can1  4100209   [8]  3A CF 12 00 00 00 00 00
 (1.4180)  can1  4100208   [8]  70 94 12 00 00 00 00 00
 (1.4210)  can1  589FF72   [8]  1A D0 02 81 02 00 F9 87
 (1.4250)  can1  5807202   [8]  00 80 00 00 E0 01 07 43
 (1.4270)  can1  5817202   [8]  01 00 10 27 10 27 0E E3
 (1.4270)  can1  5907102   [8]  00 80 00 00 E0 01 07 43
 (1.4280)  can1  5917102   [8]  01 00 10 27 10 27 0E E3
 (1.4280)  can1  5827202   [8]  FA 00 00 00 00 00 07 D4
 (1.4290)  can1  5927102   [8]  FA 00 00 00 00 00 07 D4
 (1.4290)  can1  4100209   [8]  3A CF 12 00 00 00 00 00
 (1.4300)  can1  5837202   [8]  2C 41 06 00 00 00 07 E0
 (1.4300)  can1  5847270   [8]  00 00 00 00 00 00 07 9F
 (1.4300)  can1  5937102   [8]  2C 41 06 00 00 00 07 E0
 (1.4310)  can1  4100208   [8]  70 94 12 00 00 00 00 00
 (1.4310)  can1  5947102   [8]  00 00 00 00 00 00 07 9F
 (1.4320)  can1  8580C02   [8]  FF FF 01 00 00 00 00 00
 (1.4320)  can1  89A0C02   [8]  00 00 00 00 99 17 00 00
 (1.4320)  can1  8030C02   [8]  00 00 2A 68 2A 68 92 17
 (1.4330)  can1  585FF72   [8]  00 80 60 09 60 09 FA 76
 (1.4330)  can1  586FF72   [8]  01 80 FF FF FF FF FA 9F
 (1.4360)  can1  595FF71   [8]  00 80 60 09 60 09 FA 76
 (1.4370)  can1  596FF71   [8]  FD 7F FF FF FF FF FA B1
 (1.4370)  can1  4100209   [8]  3A CF 12 00 00 00 00 00
 (1.4380)  can1  4100208   [8]  70 94 12 00 00 00 00 00
 (1.4400)  can1  8100302   [5]  00 00 0A 00 F8
 (1.4450)  can1  89A0C02   [8]  00 00 00 00 CC 0B 00 00
 (1.4460)  can1  8030C02   [8]  00 00 2A 68 2A 68 92 17
 (1.4460)  can1  8580C02   [8]  FE FF 00 00 00 00 00 00
 (1.4470)  can1  587FF72   [8]  FF 07 97 10 FF FF F9 1A
 (1.4470)  can1  588FF72   [8]  20 01 5C FF FF FF F9 18
 (1.4470)  can1  4100209   [8]  3A CF 12 00 00 00 00 00
 (1.4480)  can1  4100208   [8]  70 94 12 00 00 00 00 00
 (1.4510)  can1  585FF72   [8]  00 80 60 09 60 09 FB 76
 (1.4520)  can1  586FF72   [8]  00 80 FF FF FF FF FB CB
 (1.4520)  can1  8041001   [8]  C0 02 B0 58 E6 56 3B 00
 (1.4530)  can1  18800401   [8]  02 46 94 99 94 88 94 00
 (1.4530)  can1  18840401   [8]  02 52 94 A7 94 94 94 00
 (1.4530)  can1  18C00401   [8]  02 D5 2D B3 2D B4 2D 00
 (1.4560)  can1  595FF71   [8]  00 80 60 09 60 09 FB 76
 (1.4570)  can1  596FF71   [8]  00 80 FF FF FF FF FB CB
 (1.4570)  can1  4100209   [8]  3A CF 12 00 00 00 00 00
 (1.4570)  can1  597FF71   [8]  00 08 B6 10 FF FF F9 EA
 (1.4580)  can1  598FF71   [8]  F0 00 7D FF FF FF F9 78
 (1.4580)  can1  599FF71   [8]  1A D0 02 81 02 00 F9 87
 (1.4580)  can1  4100208   [8]  70 94 12 00 00 00 00 00
 (1.4610)  can1  1948FF71   [8]  00 C0 00 55 FF FF 9D B0
 (1.4620)  can1  1949FF71   [8]  0D 80 00 0D B0 00 9E E8
 (1.4630)  can1  194AFF71   [8]  0D 47 59 94 45 59 9F 7E
 (1.4630)  can1  194BFF71   [8]  94 F5 FF FF FF FF A0 25
 (1.4640)  can1  194CFF71   [8]  FF FF FF FF FF FF A1 9B
 (1.4650)  can1  8100302   [5]  00 00 0A 00 F8
 (1.4650)  can1  8580C02   [8]  00 00 00 00 00 00 00 00
 (1.4660)  can1  89A0C02   [8]  00 00 00 00 00 00 00 00
 (1.4670)  can1  1948FF72   [8]  00 C0 00 55 FF FF 9D B0
 (1.4670)  can1  8030C02   [8]  00 00 2A 68 2A 68 92 17
 (1.4670)  can1  1949FF72   [8]  0D 80 00 0C A0 00 9E D7
 (1.4680)  can1  4100209   [8]  3A CF 12 00 00 00 00 00
 (1.4690)  can1  194AFF72   [8]  1B 67 58 86 65 58 9F BC
 (1.4690)  can1  194BFF72   [8]  83 F5 FF FF FF FF A0 14
 (1.4690)  can1  194CFF72   [8]  FF FF FF FF FF FF A1 9B
 (1.4700)  can1  4100208   [8]  70 94 12 00 00 00 00 00
 (1.4710)  can1  585FF72   [8]  00 80 60 09 60 09 FC 76
 (1.4710)  can1  586FF72   [8]  01 80 FF FF FF FF FC 9F
 (1.4760)  can1  595FF71   [8]  00 80 60 09 60 09 FC 76
 (1.4770)  can1  596FF71   [8]  FE 7F FF FF FF FF FC 4D
 (1.4780)  can1  4100209   [8]  3A CF 12 00 00 00 00 00
 (1.4780)  can1  4100208   [8]  70 94 12 00 00 00 00 00
 (1.4850)  can1  5807202   [8]  00 80 00 00 E0 01 08 43
 (1.4860)  can1  5817202   [8]  01 00 10 27 10 27 0F E3
 (1.4860)  can1  5907102   [8]  00 80 00 00 E0 01 08 43
 (1.4860)  can1  5917102   [8]  01 00 10 27 10 27 0F E3
 (1.4860)  can1  5827202   [8]  FA 00 00 00 00 00 08 D4
 (1.4870)  can1  5927102   [8]  FA 00 00 00 00 00 08 D4
 (1.4870)  can1  4100209   [8]  3A CF 12 00 00 00 00 00
 (1.4870)  can1  5837202   [8]  2C 41 06 00 00 00 08 E0
 (1.4880)  can1  5847270   [8]  00 00 00 00 00 00 08 9F
 (1.4880)  can1  5937102   [8]  2C 41 06 00 00 00 08 E0
 (1.4890)  can1  4100208   [8]  70 94 12 00 00 00 00 00
 (1.4890)  can1  5947102   [8]  00 00 00 00 00 00 08 9F
 (1.4890)  can1  8580C02   [8]  FF FF 00 00 00 00 00 00
 (1.4900)  can1  89A0C02   [8]  00 00 00 00 CC 0B 00 00
 (1.4900)  can1  8030C02   [8]  00 00 2A 68 2A 68 92 17
 (1.4900)  can1  8100302   [5]  00 00 0A 00 F8
 (1.4910)  can1  585FF72   [8]  00 80 60 09 60 09 FD 76
 (1.4910)  can1  586FF72   [8]  FE 7F FF FF FF FF FD 4D
 (1.4960)  can1  595FF71   [8]  00 80 60 09 60 09 FD 76
 (1.4970)  can1  596FF71   [8]  FF 7F FF FF FF FF FD 19
 (1.4970)  can1  4100209   [8]  3A CF 12 00 00 00 00 00
 (1.4980)  can1  4100208   [8]  70 94 12 00 00 00 00 00
 (1.4990)  can1  404FF03   [1]  00
 (1.5000)  can1  18800401   [8]  03 81 94 79 94 80 94 00
 (1.5000)  can1  18840401   [8]  03 8D 94 84 94 90 94 00
 (1.5000)  can1  18C00401   [8]  03 9A 2D 76 2D 56 2D 00
 (1.5020)  can1  8010C01   [8]  6E 67 00 00 00 00 00 00
 (1.5020)  can1  8101201   [8]  F3 67 F7 94 89 92 36 00
 (1.5020)  can1  8250C03   [8]  63 00 7A 01 00 00 33 00
 (1.5030)  can1  8840C03   [8]  32 00 0E 00 1E 00 07 00
 (1.5030)  can1  88D0C03   [8]  2C 00 00 00 3E 00 40 00
 (1.5050)  can1  89A0C02   [8]  00 00 00 00 00 00 00 00
 (1.5050)  can1  8030C02   [8]  00 00 2A 68 2A 68 92 17
 (1.5060)  can1  8580C02   [8]  00 00 FF FF 00 00 00 00
 (1.5070)  can1  4100209   [8]  3A CF 12 00 00 00 00 00
 (1.5080)  can1  4100208   [8]  70 94 12 00 00 00 00 00
 (1.5110)  can1  585FF72   [8]  00 80 60 09 60 09 FE 76
 (1.5110)  can1  586FF72   [8]  00 80 FF FF FF FF FE CB
 (1.5150)  can1  8100302   [5]  00 00 0A 00 F8
 (1.5160)  can1  595FF71   [8]  00 80 60 09 60 09 FE 76
 (1.5170)  can1  596FF71   [8]  00 80 FF FF FF FF FE CB
 (1.5170)  can1  4100209   [8]  3A CF 12 00 00 00 00 00
 (1.5180)  can1  4100208   [8]  70 94 12 00 00 00 00 00
 (1.5210)  can1  589FF72   [8]  1A D0 02 81 02 00 FA 87
 (1.5250)  can1  89A0C02   [8]  00 00 00 00 00 00 00 00
 (1.5260)  can1  8030C02   [8]  00 00 2A 68 2A 68 92 17
 (1.5260)  can1  8580C02   [8]  00 00 00 00 00 00 00 00
 (1.5270)  can1  4100209   [8]  3A CF 12 00 00 00 00 00
 (1.5280)  can1  4100208   [8]  70 94 12 00 00 00 00 00
 (1.5300)  can1  404FF07   [1]  00
 (1.5310)  can1  585FF72   [8]  00 80 60 09 60 09 FF 76
 (1.5310)  can1  586FF72   [8]  02 80 FF FF FF FF FF 63
 (1.5360)  can1  595FF71   [8]  00 80 60 09 60 09 FF 76
 (1.5370)  can1  596FF71   [8]  01 80 FF FF FF FF FF 9F
 (1.5380)  can1  4100209   [8]  3A CF 12 00 00 00 00 00
 (1.5380)  can1  4100208   [8]  70 94 12 00 00 00 00 00
 (1.5400)  can1  8100302   [5]  00 00 0A 00 F8
 (1.5450)  can1  5807202   [8]  00 80 00 00 E0 01 09 43
 (1.5460)  can1  5817202   [8]  01 00 10 27 10 27 00 E3
 (1.5460)  can1  5907102   [8]  00 80 00 00 E0 01 09 43
 (1.5470)  can1  587FF72   [8]  02 08 9A 10 FF FF FA 1F
 (1.5480)  can1  5827202   [8]  FA 00 00 00 00 00 09 D4
 (1.5490)  can1  588FF72   [8]  20 01 5C FF FF FF FA 18
 (1.5490)  can1  4100209   [8]  3A CF 12 00 00 00 00 00
 (1.5500)  can1  5837202   [8]  2C 41 06 00 00 00 09 E0
 (1.5500)  can1  5917102   [8]  01 00 10 27 10 27 00 E3
 (1.5500)  can1  404FF01   [1]  00
 (1.5500)  can1  4100208   [8]  70 94 12 00 00 00 00 00
 (1.5510)  can1  5847270   [8]  00 00 00 00 00 00 09 9F
 (1.5510)  can1  5927102   [8]  FA 00 00 00 00 00 09 D4
 (1.5510)  can1  5937102   [8]  2C 41 06 00 00 00 09 E0
 (1.5530)  can1  5947102   [8]  00 00 00 00 00 00 09 9F
 (1.5530)  can1  8580C02   [8]  00 00 01 00 00 00 00 00
 (1.5530)  can1  89A0C02   [8]  CC 0B 00 00 99 17 00 00
 (1.5540)  can1  8030C02   [8]  00 00 2A 68 2A 68 92 17
 (1.5540)  can1  585FF72   [8]  00 80 60 09 60 09 F0 76
 (1.5540)  can1  586FF72   [8]  01 80 FF FF FF FF F0 9F
 (1.5540)  can1  8041001   [8]  C0 02 B0 58 E6 56 3B 00
 (1.5550)  can1  80F1201   [4]  30 11 00 00
 (1.5550)  can1  8120C01   [8]  90 00 00 00 00 00 00 00
 (1.5550)  can1  18800401   [8]  04 A3 94 90 94 78 92 00
 (1.5560)  can1  18840401   [8]  04 B2 94 9F 94 89 92 00
 (1.5560)  can1  18C00401   [8]  04 06 2D FF 2C 00 2E 00
 (1.5570)  can1  595FF71   [8]  00 80 60 09 60 09 F0 76
 (1.5570)  can1  596FF71   [8]  00 80 FF FF FF FF F0 CB
 (1.5580)  can1  4100209   [8]  3A CF 12 00 00 00 00 00
 (1.5580)  can1  597FF71   [8]  03 08 B4 10 FF FF FA 53
 (1.5590)  can1  598FF71   [8]  F0 00 7D FF FF FF FA 78
 (1.5590)  can1  599FF71   [8]  1A D0 02 81 02 00 FA 87
 (1.5590)  can1  4100208   [8]  70 94 12 00 00 00 00 00
 (1.5650)  can1  404FF02   [1]  00
 (1.5660)  can1  8100302   [5]  00 00 0A 00 F8
 (1.5670)  can1  89A0C02   [8]  00 00 00 00 CC 0B 00 00
 (1.5670)  can1  8580C02   [8]  00 00 00 00 00 00 00 00
 (1.5670)  can1  8030C02   [8]  00 00 2A 68 2A 68 92 17
 (1.5680)  can1  4100209   [8]  3A CF 12 00 00 00 00 00
 (1.5680)  can1  4100208   [8]  70 94 12 00 00 00 00 00
 (1.5710)  can1  585FF72   [8]  00 80 60 09 60 09 F1 76
 (1.5710)  can1  528FF72   [8]  00 00 FE FF 00 00 00 00
 (1.5720)  can1  529FF72   [8]  00 00 00 00 00 00 00 00
 (1.5720)  can1  52CFF72   [8]  00 00 EF FF EF FF 3A 00
 (1.5720)  can1  586FF72   [8]  01 80 FF FF FF FF F1 9F
 (1.5760)  can1  595FF71   [8]  00 80 60 09 60 09 F1 76
 (1.5770)  can1  528FF71   [8]  01 00 00 00 00 00 00 00
 (1.5780)  can1  4100209   [8]  3A CF 12 00 00 00 00 00
 (1.5790)  can1  529FF71   [8]  00 00 00 00 00 00 00 00
 (1.5790)  can1  52CFF71   [8]  00 00 EF FF EF FF 3A 00
 (1.5790)  can1  596FF71   [8]  01 80 FF FF FF FF F1 9F
 (1.5800)  can1  4100208   [8]  70 94 12 00 00 00 00 00
 (1.5850)  can1  89A0C02   [8]  CC 0B 00 00 CC 0B 00 00
 (1.5850)  can1  8030C02   [8]  00 00 2A 68 2A 68 92 17
 (1.5860)  can1  8580C02   [8]  00 00 00 00 00 00 00 00
 (1.5870)  can1  4100209   [8]  3A CF 12 00 00 00 00 00
 (1.5880)  can1  4100208   [8]  70 94 12 00 00 00 00 00
 (1.5900)  can1  8100302   [5]  00 00 0A 00 F8
 (1.5910)  can1  585FF72   [8]  00 80 60 09 60 09 F2 76
 (1.5910)  can1  586FF72   [8]  FE 7F FF FF FF FF F2 4D
 (1.5960)  can1  595FF71   [8]  00 80 60 09 60 09 F2 76
 (1.5970)  can1  596FF71   [8]  FD 7F FF FF FF FF F2 B1
 (1.5980)  can1  4100209   [8]  3A CF 12 00 00 00 00 00
 (1.5990)  can1  4100208   [8]  70 94 12 00 00 00 00 00
 (1.5990)  can1  18101203   [4]  72 2D D7 07
 (1.6000)  can1  18800401   [8]  05 71 94 6F 94 6C 94 00
 (1.6000)  can1  18840401   [8]  05 80 94 77 94 7C 94 00
 (1.6010)  can1  18C00401   [8]  05 E7 2D 2D 2E 2F 2E 00
 (1.6030)  can1  8101201   [8]  F4 67 F3 94 89 92 33 00
 (1.6030)  can1  8010C01   [8]  73 67 00 00 00 00 00 00
 (1.6050)  can1  5807202   [8]  00 80 00 00 E0 01 0A 43
 (1.6060)  can1  5817202   [8]  01 00 10 27 10 27 01 E3
 (1.6060)  can1  5907102   [8]  00 80 00 00 E0 01 0A 43
 (1.6070)  can1  5917102   [8]  01 00 10 27 10 27 01 E3
 (1.6080)  can1  5827202   [8]  FA 00 00 00 00 00 0A D4
 (1.6080)  can1  5927102   [8]  FA 00 00 00 00 00 0A D4
 (1.6090)  can1  4100209   [8]  3A CF 12 00 00 00 00 00
 (1.6090)  can1  5837202   [8]  2C 41 06 00 00 00 0A E0
 (1.6100)  can1  5847270   [8]  00 00 00 00 00 00 0A 9F
 (1.6100)  can1  5937102   [8]  2C 41 06 00 00 00 0A E0
 (1.6100)  can1  4100208   [8]  70 94 12 00 00 00 00 00
 (1.6100)  can1  5947102   [8]  00 00 00 00 00 00 0A 9F
 (1.6100)  can1  8580C02   [8]  FE FF FF FF 00 00 00 00
 (1.6110)  can1  89A0C02   [8]  00 00 00 00 00 00 00 00
 (1.6110)  can1  8030C02   [8]  00 00 2A 68 2A 68 92 17
 (1.6110)  can1  585FF72   [8]  00 80 60 09 60 09 F3 76
 (1.6120)  can1  586FF72   [8]  FE 7F FF FF FF FF F3 4D
 (1.6150)  can1  8100302   [5]  00 00 0A 00 F8
 (1.6160)  can1  595FF71   [8]  00 80 60 09 60 09 F3 76
 (1.6170)  can1  596FF71   [8]  00 80 FF FF FF FF F3 CB
 (1.6170)  can1  4100209   [8]  3A CF 12 00 00 00 00 00
 (1.6180)  can1  4100208   [8]  70 94 12 00 00 00 00 00
 (1.6210)  can1  589FF72   [8]  1A D0 02 81 02 00 FB 87
 (1.6250)  can1  89A0C02   [8]  00 00 00 00 00 00 00 00
 (1.6260)  can1  8030C02   [8]  00 00 2A 68 2A 68 92 17
 (1.6260)  can1  8580C02   [8]  00 00 FF FF 00 00 00 00
 (1.6270)  can1  4100209   [8]  3A CF 12 00 00 00 00 00
 (1.6280)  can1  4100208   [8]  70 94 12 00 00 00 00 00
 (1.6310)  can1  585FF72   [8]  00 80 60 09 60 09 F4 76
 (1.6320)  can1  586FF72   [8]  00 80 FF FF FF FF F4 CB
 (1.6360)  can1  595FF71   [8]  00 80 60 09 60 09 F4 76
 (1.6370)  can1  596FF71   [8]  01 80 FF FF FF FF F4 9F
 (1.6370)  can1  4100209   [8]  3A CF 12 00 00 00 00 00
 (1.6380)  can1  4100208   [8]  70 94 12 00 00 00 00 00
 (1.6400)  can1  8100302   [5]  00 00 0A 00 F8
 (1.6450)  can1  89A0C02   [8]  CC 0B 00 00 00 00 00 00
 (1.6460)  can1  8030C02   [8]  00 00 2A 68 2A 68 92 17
 (1.6470)  can1  8580C02   [8]  00 00 00 00 00 00 00 00
 (1.6470)  can1  587FF72   [8]  00 08 9A 10 FF FF FB B7
 (1.6480)  can1  588FF72   [8]  10 01 5D FF FF FF FB F7
 (1.6480)  can1  4100209   [8]  3A CF 12 00 00 00 00 00
 (1.6480)  can1  4100208   [8]  70 94 12 00 00 00 00 00
 (1.6510)  can1  585FF72   [8]  00 80 60 09 60 09 F5 76
 (1.6510)  can1  586FF72   [8]  01 80 FF FF FF FF F5 9F
 (1.6520)  can1  8041001   [8]  C0 02 B0 58 E6 56 3B 00
 (1.6520)  can1  18800401   [8]  06 6E 94 AA 94 B0 94 00
 (1.6530)  can1  18840401   [8]  06 7D 94 B7 94 BE 94 00
 (1.6530)  can1  18C00401   [8]  06 33 2E 71 2E 47 2E 00
 (1.6560)  can1  595FF71   [8]  00 80 60 09 60 09 F5 76
 (1.6570)  can1  596FF71   [8]  00 80 FF FF FF FF F5 CB
 (1.6580)  can1  4100209   [8]  3A CF 12 00 00 00 00 00
 (1.6580)  can1  597FF71   [8]  00 08 B4 10 FF FF FB AF
 (1.6590)  can1  598FF71   [8]  F0 00 7D FF FF FF FB 78
 (1.6590)  can1  599FF71   [8]  1A D0 02 81 02 00 FB 87
 (1.6590)  can1  4100208   [8]  70 94 12 00 00 00 00 00
 (1.6650)  can1  5807202   [8]  00 80 00 00 E0 01 0B 43
 (1.6660)  can1  5817202   [8]  01 00 10 27 10 27 02 E3
 (1.6660)  can1  5907102   [8]  00 80 00 00 E0 01 0B 43
 (1.6660)  can1  5917102   [8]  01 00 10 27 10 27 02 E3
 (1.6670)  can1  5827202   [8]  FA 00 00 00 00 00 0B D4
 (1.6670)  can1  5927102   [8]  FA 00 00 00 00 00 0B D4
 (1.6680)  can1  4100209   [8]  3A CF 12 00 00 00 00 00
 (1.6690)  can1  5837202   [8]  2C 41 06 00 00 00 0B E0
 (1.6700)  can1  5847270   [8]  00 00 00 00 00 00 0B 9F
 (1.6700)  can1  5937102   [8]  2C 41 06 00 00 00 0B E0
 (1.6700)  can1  4100208   [8]  70 94 12 00 00 00 00 00
 (1.6710)  can1  5947102   [8]  00 00 00 00 00 00 0B 9F
 (1.6710)  can1  8100302   [5]  00 00 0A 00 F8
 (1.6720)  can1  89A0C02   [8]  00 00 00 00 CC 0B 00 00
 (1.6720)  can1  8030C02   [8]  00 00 2A 68 2A 68 92 17
 (1.6720)  can1  8580C02   [8]  00 00 00 00 00 00 00 00
 (1.6720)  can1  585FF72   [8]  00 80 60 09 60 09 F6 76
 (1.6730)  can1  586FF72   [8]  FD 7F FF FF FF FF F6 B1
 (1.6760)  can1  595FF71   [8]  00 80 60 09 60 09 F6 76
 (1.6770)  can1  596FF71   [8]  FE 7F FF FF FF FF F6 4D
 (1.6770)  can1  4100209   [8]  3A CF 12 00 00 00 00 00
 (1.6780)  can1  4100208   [8]  70 94 12 00 00 00 00 00
 (1.6850)  can1  89A0C02   [8]  00 00 00 00 00 00 00 00
 (1.6860)  can1  8030C02   [8]  00 00 2A 68 2A 68 92 17
 (1.6860)  can1  8580C02   [8]  FF FF FE FF 00 00 00 00
 (1.6870)  can1  4100209   [8]  3A CF 12 00 00 00 00 00
 (1.6880)  can1  4100208   [8]  70 94 12 00 00 00 00 00
 (1.6900)  can1  8100302   [5]  00 00 0A 00 F8
 (1.6910)  can1  585FF72   [8]  00 80 60 09 60 09 F7 76
 (1.6910)  can1  586FF72   [8]  FF 7F FF FF FF FF F7 19
 (1.6960)  can1  595FF71   [8]  00 80 60 09 60 09 F7 76
 (1.6970)  can1  596FF71   [8]  01 80 FF FF FF FF F7 9F
 (1.6970)  can1  4100209   [8]  3A CF 12 00 00 00 00 00
 (1.6980)  can1  4100208   [8]  70 94 12 00 00 00 00 00
 (1.7000)  can1  18800401   [8]  07 A1 94 96 94 85 94 00
 (1.7010)  can1  18840401   [8]  07 AE 94 A5 94 92 94 00
 (1.7010)  can1  18C00401   [8]  07 75 2E 1E 2E 5E 2E 00
 (1.7040)  can1  8101201   [8]  F3 67 F6 94 89 92 3B 00
 (1.7040)  can1  8010C01   [8]  72 67 00 00 00 00 00 00
 (1.7050)  can1  89A0C02   [8]  CC 0B 00 00 00 00 00 00
 (1.7060)  can1  8030C02   [8]  00 00 2A 68 2A 68 92 17
 (1.7060)  can1  8580C02   [8]  00 00 00 00 00 00 00 00
 (1.7070)  can1  4100209   [8]  3A CF 12 00 00 00 00 00
 (1.7080)  can1  4100208   [8]  70 94 12 00 00 00 00 00
 (1.7110)  can1  585FF72   [8]  00 80 60 09 60 09 F8 76
 (1.7110)  can1  586FF72   [8]  FE 7F FF FF FF FF F8 4D
 (1.7150)  can1  8100302   [5]  00 00 0A 00 F8
 (1.7160)  can1  595FF71   [8]  00 80 60 09 60 09 F8 76
 (1.7170)  can1  596FF71   [8]  00 80 FF FF FF FF F8 CB
 (1.7180)  can1  4100209   [8]  3A CF 12 00 00 00 00 00
 (1.7190)  can1  1948FF71   [8]  00 C0 00 55 FF FF A2 B5
 (1.7190)  can1  1949FF71   [8]  0D 80 00 0D B0 00 A3 ED
 (1.7190)  can1  194AFF71   [8]  0D 67 58 8E 65 58 A4 BB
 (1.7190)  can1  4100208   [8]  70 94 12 00 00 00 00 00
 (1.7200)  can1  194BFF71   [8]  94 F5 FF FF FF FF A5 2A
 (1.7200)  can1  194CFF71   [8]  FF FF FF FF FF FF A6 A0
 (1.7210)  can1  589FF72   [8]  1A D0 02 81 02 00 FC 87
 (1.7210)  can1  1948FF72   [8]  00 C0 00 55 FF FF A2 B5
 (1.7210)  can1  1949FF72   [8]  0D 80 00 0D A0 00 A3 DD
 (1.7220)  can1  194AFF72   [8]  1C 67 58 94 85 58 A4 F0
 (1.7220)  can1  194BFF72   [8]  94 F5 FF FF FF FF A5 2A
 (1.7230)  can1  194CFF72   [8]  FF FF FF FF FF FF A6 A0
 (1.7250)  can1  5807202   [8]  00 80 00 00 E0 01 0C 43
 (1.7260)  can1  5817202   [8]  01 00 10 27 10 27 03 E3
 (1.7270)  can1  5907102   [8]  00 80 00 00 E0 01 0C 43
 (1.7270)  can1  5917102   [8]  01 00 10 27 10 27 03 E3
 (1.7280)  can1  5827202   [8]  FA 00 00 00 00 00 0C D4
 (1.7280)  can1  5927102   [8]  FA 00 00 00 00 00 0C D4
 (1.7290)  can1  4100209   [8]  3A CF 12 00 00 00 00 00
 (1.7290)  can1  5837202   [8]  2C 41 06 00 00 00 0C E0
 (1.7300)  can1  5847270   [8]  00 00 00 00 00 00 0C 9F
 (1.7300)  can1  5937102   [8]  2C 41 06 00 00 00 0C E0
 (1.7300)  can1  4100208   [8]  70 94 12 00 00 00 00 00
 (1.7310)  can1  5947102   [8]  00 00 00 00 00 00 0C 9F
 (1.7310)  can1  8580C02   [8]  00 00 FF FF 00 00 00 00
 (1.7320)  can1  89A0C02   [8]  00 00 00 00 00 00 00 00
 (1.7320)  can1  8030C02   [8]  00 00 2A 68 2A 68 92 17
 (1.7330)  can1  585FF72   [8]  00 80 60 09 60 09 F9 76
 (1.7330)  can1  586FF72   [8]  FE 7F FF FF FF FF F9 4D
 (1.7360)  can1  595FF71   [8]  00 80 60 09 60 09 F9 76
 (1.7370)  can1  596FF71   [8]  FE 7F FF FF FF FF F9 4D
 (1.7370)  can1  4100209   [8]  3A CF 12 00 00 00 00 00
 (1.7380)  can1  4100208   [8]  70 94 12 00 00 00 00 00
 (1.7400)  can1  8100302   [5]  00 00 0A 00 F8
 (1.7450)  can1  89A0C02   [8]  00 00 00 00 00 00 00 00
 (1.7460)  can1  8030C02   [8]  00 00 2A 68 2A 68 92 17
 (1.7460)  can1  8580C02   [8]  FF FF FF FF 00 00 00 00
 (1.7470)  can1  587FF72   [8]  03 08 9A 10 FF FF FC 4B
 (1.7470)  can1  588FF72   [8]  10 01 5D FF FF FF FC F7
 (1.7470)  can1  4100209   [8]  3A CF 12 00 00 00 00 00
 (1.7480)  can1  4100208   [8]  70 94 12 00 00 00 00 00
 (1.7510)  can1  585FF72   [8]  00 80 60 09 60 09 FA 76
 (1.7520)  can1  586FF72   [8]  FE 7F FF FF FF FF FA 4D
 (1.7520)  can1  8041001   [8]  C0 02 B0 58 E6 56 3B 00
 (1.7530)  can1  18800401   [8]  08 7D 94 9F 92 C4 94 00
 (1.7530)  can1  18840401   [8]  08 89 94 AE 92 D0 94 00
 (1.7540)  can1  18C00401   [8]  08 E9 2D 15 2E 96 2D 00
 (1.7560)  can1  595FF71   [8]  00 80 60 09 60 09 FA 76
 (1.7570)  can1  596FF71   [8]  FE 7F FF FF FF FF FA 4D
 (1.7570)  can1  4100209   [8]  3A CF 12 00 00 00 00 00
 (1.7580)  can1  597FF71   [8]  FD 07 B6 10 FF FF FC EB
 (1.7580)  can1  598FF71   [8]  00 01 7C FF FF FF FC 7D
 (1.7580)  can1  599FF71   [8]  1A D0 02 81 02 00 FC 87
 (1.7590)  can1  4100208   [8]  70 94 12 00 00 00 00 00
 (1.7650)  can1  8100302   [5]  00 00 0A 00 F8
 (1.7650)  can1  8580C02   [8]  FF FF FF FF 00 00 00 00
 (1.7660)  can1  89A0C02   [8]  00 00 00 00 00 00 00 00
 (1.7660)  can1  8030C02   [8]  00 00 2A 68 2A 68 92 17
 (1.7670)  can1  4100209   [8]  3A CF 12 00 00 00 00 00
 (1.7680)  can1  4100208   [8]  70 94 12 00 00 00 00 00
 (1.7710)  can1  585FF72   [8]  00 80 60 09 60 09 FB 76
 (1.7710)  can1  586FF72   [8]  00 80 FF FF FF FF FB CB
 (1.7760)  can1  595FF71   [8]  00 80 60 09 60 09 FB 76
 (1.7770)  can1  596FF71   [8]  FE 7F FF FF FF FF FB 4D
 (1.7780)  can1  4100209   [8]  3A CF 12 00 00 00 00 00
 (1.7780)  can1  4100208   [8]  70 94 12 00 00 00 00 00
 (1.7850)  can1  5807202   [8]  00 80 00 00 E0 01 0D 43
 (1.7860)  can1  5817202   [8]  01 00 10 27 10 27 04 E3
 (1.7870)  can1  5907102   [8]  00 80 00 00 E0 01 0D 43
 (1.7870)  can1  5917102   [8]  01 00 10 27 10 27 04 E3
 (1.7880)  can1  5827202   [8]  FA 00 00 00 00 00 0D D4
 (1.7880)  can1  5927102   [8]  FA 00 00 00 00 00 0D D4
 (1.7890)  can1  4100209   [8]  3A CF 12 00 00 00 00 00
 (1.7890)  can1  5837202   [8]  2C 41 06 00 00 00 0D E0
 (1.7900)  can1  5847270   [8]  00 00 00 00 00 00 0D 9F
 (1.7900)  can1  5937102   [8]  2C 41 06 00 00 00 0D E0
 (1.7910)  can1  4100208   [8]  70 94 12 00 00 00 00 00
 (1.7920)  can1  5947102   [8]  00 00 00 00 00 00 0D 9F
 (1.7920)  can1  8580C02   [8]  FF FF 00 00 00 00 00 00
 (1.7930)  can1  89A0C02   [8]  00 00 00 00 00 00 00 00
 (1.7930)  can1  8030C02   [8]  00 00 2A 68 2A 68 92 17
 (1.7930)  can1  8100302   [5]  00 00 0A 00 F8
 (1.7930)  can1  585FF72   [8]  00 80 60 09 60 09 FC 76
 (1.7940)  can1  586FF72   [8]  FF 7F FF FF FF FF FC 19
 (1.7960)  can1  595FF71   [8]  00 80 60 09 60 09 FC 76
 (1.7970)  can1  596FF71   [8]  00 80 FF FF FF FF FC CB
 (1.7970)  can1  4100209   [8]  3A CF 12 00 00 00 00 00
 (1.7980)  can1  4100208   [8]  70 94 12 00 00 00 00 00
 (1.8000)  can1  18800401   [8]  09 AF 94 78 94 69 94 00
 (1.8000)  can1  18840401   [8]  09 BA 94 84 94 75 94 00
 (1.8010)  can1  18C00401   [8]  09 98 2D 10 2E 1B 2E 00
 (1.8050)  can1  8101201   [8]  F4 67 F2 94 85 92 35 00
 (1.8050)  can1  8010C01   [8]  72 67 00 00 00 00 00 00
 (1.8060)  can1  8030C02   [8]  00 00 2A 68 2A 68 92 17
 (1.8060)  can1  8580C02   [8]  00 00 00 00 00 00 00 00
 (1.8070)  can1  89A0C02   [8]  00 00 00 00 00 00 00 00
 (1.8070)  can1  4100209   [8]  3A CF 12 00 00 00 00 00
 (1.8080)  can1  4100208   [8]  70 94 12 00 00 00 00 00
 (1.8110)  can1  585FF72   [8]  00 80 60 09 60 09 FD 76
 (1.8110)  can1  586FF72   [8]  00 80 FF FF FF FF FD CB
 (1.8150)  can1  8100302   [5]  00 00 0A 00 F8
 (1.8160)  can1  595FF71   [8]  00 80 60 09 60 09 FD 76
 (1.8170)  can1  596FF71   [8]  FF 7F FF FF FF FF FD 19
 (1.8170)  can1  4100209   [8]  3A CF 12 00 00 00 00 00
 (1.8180)  can1  4100208   [8]  70 94 12 00 00 00 00 00
 (1.8210)  can1  589FF72   [8]  1A D0 02 81 02 00 FD 87
 (1.8250)  can1  89A0C02   [8]  00 00 00 00 00 00 00 00
 (1.8250)  can1  8030C02   [8]  00 00 2A 68 2A 68 92 17
 (1.8260)  can1  8580C02   [8]  00 00 00 00 00 00 00 00
 (1.8270)  can1  4100209   [8]  3A CF 12 00 00 00 00 00
 (1.8280)  can1  4100208   [8]  70 94 12 00 00 00 00 00
 (1.8310)  can1  585FF72   [8]  00 80 60 09 60 09 FE 76
 (1.8320)  can1  586FF72   [8]  01 80 FF FF FF FF FE 9F
 (1.8360)  can1  595FF71   [8]  00 80 60 09 60 09 FE 76
 (1.8370)  can1  596FF71   [8]  01 80 FF FF FF FF FE 9F
 (1.8370)  can1  4100209   [8]  3A CF 12 00 00 00 00 00
 (1.8380)  can1  4100208   [8]  70 94 12 00 00 00 00 00
 (1.8400)  can1  8100302   [5]  00 00 0A 00 F8
 (1.8450)  can1  5807202   [8]  00 80 00 00 E0 01 0E 43
 (1.8460)  can1  5817202   [8]  01 00 10 27 10 27 05 E3
 (1.8460)  can1  5907102   [8]  00 80 00 00 E0 01 0E 43
 (1.8470)  can1  5917102   [8]  01 00 10 27 10 27 05 E3
 (1.8480)  can1  5827202   [8]  FA 00 00 00 00 00 0E D4
 (1.8490)  can1  587FF72   [8]  03 08 9A 10 FF FF FD 4B
 (1.8490)  can1  4100209   [8]  3A CF 12 00 00 00 00 00
 (1.8490)  can1  5837202   [8]  2C 41 06 00 00 00 0E E0
 (1.8500)  can1  588FF72   [8]  10 01 5D FF FF FF FD F7
 (1.8500)  can1  5927102   [8]  FA 00 00 00 00 00 0E D4
 (1.8510)  can1  4100208   [8]  70 94 12 00 00 00 00 00
 (1.8510)  can1  5847270   [8]  00 00 00 00 00 00 0E 9F
 (1.8520)  can1  5937102   [8]  2C 41 06 00 00 00 0E E0
 (1.8520)  can1  5947102   [8]  00 00 00 00 00 00 0E 9F
 (1.8530)  can1  8580C02   [8]  00 00 00 00 00 00 00 00
 (1.8540)  can1  89A0C02   [8]  CC 0B 00 00 CC 0B 00 00
 (1.8540)  can1  8030C02   [8]  00 00 2A 68 2A 68 92 17
 (1.8540)  can1  585FF72   [8]  00 80 60 09 60 09 FF 76
 (1.8540)  can1  586FF72   [8]  01 80 FF FF FF FF FF 9F
 (1.8550)  can1  8041001   [8]  C0 02 B0 58 E6 56 3B 00
 (1.8550)  can1  18800401   [8]  0A 66 94 61 94 6B 94 00
 (1.8550)  can1  18840401   [8]  0A 6F 94 6C 94 77 94 00
 (1.8560)  can1  18C00401   [8]  0A 4D 2E 77 2E 5C 2E 00
 (1.8560)  can1  595FF71   [8]  00 80 60 09 60 09 FF 76
 (1.8570)  can1  596FF71   [8]  FE 7F FF FF FF FF FF 4D
 (1.8570)  can1  4100209   [8]  3A CF 12 00 00 00 00 00
 (1.8580)  can1  597FF71   [8]  00 08 B6 10 FF FF FD EA
 (1.8580)  can1  598FF71   [8]  F0 00 7D FF FF FF FD 78
 (1.8590)  can1  599FF71   [8]  1A D0 02 81 02 00 FD 87
 (1.8590)  can1  4100208   [8]  70 94 12 00 00 00 00 00
 (1.8650)  can1  8100302   [5]  00 00 0A 00 F8
 (1.8660)  can1  8580C02   [8]  FF FF 00 00 00 00 00 00
 (1.8660)  can1  89A0C02   [8]  00 00 00 00 CC 0B 00 00
 (1.8660)  can1  8030C02   [8]  00 00 2A 68 2A 68 92 17
 (1.8670)  can1  4100209   [8]  3A CF 12 00 00 00 00 00
 (1.8680)  can1  4100208   [8]  70 94 12 00 00 00 00 00
 (1.8710)  can1  585FF72   [8]  00 80 60 09 60 09 F0 76
 (1.8710)  can1  586FF72   [8]  FF 7F FF FF FF FF F0 19
 (1.8760)  can1  595FF71   [8]  00 80 60 09 60 09 F0 76
 (1.8770)  can1  596FF71   [8]  02 80 FF FF FF FF F0 63
 (1.8770)  can1  4100209   [8]  3A CF 12 00 00 00 00 00
 (1.8780)  can1  4100208   [8]  70 94 12 00 00 00 00 00
 (1.8850)  can1  89A0C02   [8]  99 17 00 00 00 00 00 00
 (1.8860)  can1  8030C02   [8]  00 00 2A 68 2A 68 92 17
 (1.8860)  can1  8580C02   [8]  01 00 00 00 00 00 00 00
 (1.8870)  can1  4100209   [8]  3A CF 12 00 00 00 00 00
 (1.8880)  can1  4100208   [8]  70 94 12 00 00 00 00 00
 (1.8900)  can1  8100302   [5]  00 00 0A 00 F8
 (1.8910)  can1  585FF72   [8]  00 80 60 09 60 09 F1 76
 (1.8920)  can1  586FF72   [8]  01 80 FF FF FF FF F1 9F
 (1.8960)  can1  595FF71   [8]  00 80 60 09 60 09 F1 76
 (1.8970)  can1  596FF71   [8]  FF 7F FF FF FF FF F1 19
 (1.8970)  can1  4100209   [8]  3A CF 12 00 00 00 00 00
 (1.8980)  can1  4100208   [8]  70 94 12 00 00 00 00 00
 (1.9000)  can1  18800401   [8]  0B A1 94 9B 94 99 94 00
 (1.9000)  can1  18840401   [8]  0B AC 94 A6 94 A5 94 00
 (1.9000)  can1  18C00401   [8]  0B A5 2E 65 2E 90 2E 00
 (1.9050)  can1  5807202   [8]  00 80 00 00 E0 01 0F 43
 (1.9060)  can1  5817202   [8]  01 00 10 27 10 27 06 E3
 (1.9060)  can1  5907102   [8]  00 80 00 00 E0 01 0F 43
 (1.9070)  can1  8010C01   [8]  70 67 00 00 00 00 00 00
 (1.9080)  can1  5827202   [8]  FA 00 00 00 00 00 0F D4
 (1.9090)  can1  5917102   [8]  01 00 10 27 10 27 06 E3
 (1.9090)  can1  4100209   [8]  3A CF 12 00 00 00 00 00
 (1.9100)  can1  5837202   [8]  2C 41 06 00 00 00 0F E0
 (1.9100)  can1  5927102   [8]  FA 00 00 00 00 00 0F D4
 (1.9110)  can1  5937102   [8]  2C 41 06 00 00 00 0F E0
 (1.9110)  can1  4100208   [8]  70 94 12 00 00 00 00 00
 (1.9110)  can1  5847270   [8]  00 00 00 00 00 00 0F 9F
 (1.9120)  can1  5947102   [8]  00 00 00 00 00 00 0F 9F
 (1.9120)  can1  8101201   [8]  F2 67 F7 94 87 92 31 00
 (1.9120)  can1  8030C02   [8]  00 00 2A 68 2A 68 92 17
 (1.9130)  can1  8580C02   [8]  00 00 00 00 00 00 00 00
 (1.9130)  can1  89A0C02   [8]  00 00 00 00 CC 0B 00 00
 (1.9130)  can1  585FF72   [8]  00 80 60 09 60 09 F2 76
 (1.9140)  can1  586FF72   [8]  02 80 FF FF FF FF F2 63
 (1.9150)  can1  8100302   [5]  00 00 0A 00 F8
 (1.9160)  can1  595FF71   [8]  00 80 60 09 60 09 F2 76
 (1.9170)  can1  596FF71   [8]  00 80 FF FF FF FF F2 CB
 (1.9180)  can1  4100209   [8]  3A CF 12 00 00 00 00 00
 (1.9180)  can1  4100208   [8]  70 94 12 00 00 00 00 00
 (1.9210)  can1  589FF72   [8]  1A D0 02 81 02 00 FE 87
 (1.9250)  can1  89A0C02   [8]  00 00 00 00 99 17 00 00
 (1.9260)  can1  8030C02   [8]  00 00 2A 68 2A 68 92 17
 (1.9260)  can1  8580C02   [8]  00 00 01 00 00 00 00 00
 (1.9270)  can1  4100209   [8]  3A CF 12 00 00 00 00 00
 (1.9280)  can1  4100208   [8]  70 94 12 00 00 00 00 00
 (1.9310)  can1  585FF72   [8]  00 80 60 09 60 09 F3 76
 (1.9310)  can1  586FF72   [8]  FF 7F FF FF FF FF F3 19
 (1.9360)  can1  595FF71   [8]  00 80 60 09 60 09 F3 76
 (1.9370)  can1  596FF71   [8]  00 80 FF FF FF FF F3 CB
 (1.9380)  can1  4100209   [8]  3A CF 12 00 00 00 00 00
 (1.9380)  can1  4100208   [8]  70 94 12 00 00 00 00 00
 (1.9400)  can1  8100302   [5]  00 00 0A 00 F8
 (1.9450)  can1  89A0C02   [8]  00 00 00 00 00 00 00 00
 (1.9460)  can1  8030C02   [8]  00 00 2A 68 2A 68 92 17
 (1.9460)  can1  8580C02   [8]  00 00 00 00 00 00 00 00
 (1.9470)  can1  587FF72   [8]  FE 07 9A 10 FF FF FE 4A
 (1.9470)  can1  588FF72   [8]  10 01 5D FF FF FF FE F7
 (1.9470)  can1  4100209   [8]  3A CF 12 00 00 00 00 00
 (1.9480)  can1  4100208   [8]  70 94 12 00 00 00 00 00
 (1.9510)  can1  585FF72   [8]  00 80 60 09 60 09 F4 76
 (1.9510)  can1  586FF72   [8]  FF 7F FF FF FF FF F4 19
 (1.9520)  can1  8041001   [8]  C0 02 B0 58 E6 56 3B 00
 (1.9530)  can1  18800401   [8]  0C 90 94 85 94 81 94 00
 (1.9530)  can1  18840401   [8]  0C 9F 94 94 94 8E 94 00
 (1.9540)  can1  18C00401   [8]  0C 41 2E 4D 2E D5 2D 00
 (1.9560)  can1  595FF71   [8]  00 80 60 09 60 09 F4 76
 (1.9570)  can1  596FF71   [8]  00 80 FF FF FF FF F4 CB
 (1.9580)  can1  4100209   [8]  3A CF 12 00 00 00 00 00
 (1.9580)  can1  597FF71   [8]  FC 07 B4 10 FF FF FE FA
 (1.9580)  can1  598FF71   [8]  F0 00 7D FF FF FF FE 78
 (1.9590)  can1  599FF71   [8]  1A D0 02 81 02 00 FE 87
 (1.9590)  can1  4100208   [8]  70 94 12 00 00 00 00 00
 (1.9650)  can1  5807202   [8]  00 80 00 00 E0 01 00 43
 (1.9660)  can1  5817202   [8]  01 00 10 27 10 27 07 E3
 (1.9660)  can1  5907102   [8]  00 80 00 00 E0 01 00 43
 (1.9670)  can1  5917102   [8]  01 00 10 27 10 27 07 E3
 (1.9680)  can1  5827202   [8]  FA 00 00 00 00 00 00 D4
 (1.9680)  can1  5927102   [8]  FA 00 00 00 00 00 00 D4
 (1.9690)  can1  4100209   [8]  3A CF 12 00 00 00 00 00
 (1.9690)  can1  5837202   [8]  2C 41 06 00 00 00 00 E0
 (1.9700)  can1  5847270   [8]  00 00 00 00 00 00 00 9F
 (1.9700)  can1  5937102   [8]  2C 41 06 00 00 00 00 E0
 (1.9700)  can1  4100208   [8]  70 94 12 00 00 00 00 00
 (1.9710)  can1  5947102   [8]  00 00 00 00 00 00 00 9F
 (1.9710)  can1  8100302   [5]  00 00 0A 00 F8
 (1.9720)  can1  89A0C02   [8]  00 00 00 00 00 00 00 00
 (1.9730)  can1  8030C02   [8]  00 00 2A 68 2A 68 92 17
 (1.9730)  can1  8580C02   [8]  00 00 00 00 00 00 00 00
 (1.9740)  can1  585FF72   [8]  00 80 60 09 60 09 F5 76
 (1.9740)  can1  586FF72   [8]  FF 7F FF FF FF FF F5 19
 (1.9740)  can1  1948FF71   [8]  00 C0 00 55 FF FF A7 BA
 (1.9740)  can1  1949FF71   [8]  0D 80 00 0D 90 00 A8 D2
 (1.9750)  can1  194AFF71   [8]  0D 47 59 94 75 59 A9 B8
 (1.9750)  can1  194BFF71   [8]  94 F5 FF FF FF FF AA 2F
 (1.9760)  can1  194CFF71   [8]  FF FF FF FF FF FF AB A5
 (1.9760)  can1  595FF71   [8]  00 80 60 09 60 09 F5 76
 (1.9770)  can1  596FF71   [8]  00 80 FF FF FF FF F5 CB
 (1.9770)  can1  4100209   [8]  3A CF 12 00 00 00 00 00
 (1.9780)  can1  1948FF72   [8]  00 C0 00 55 FF FF A7 BA
 (1.9780)  can1  1949FF72   [8]  0C 80 00 0D 90 00 A8 D1
 (1.9790)  can1  194AFF72   [8]  1B 67 58 86 85 58 A9 E6
 (1.9790)  can1  4100208   [8]  70 94 12 00 00 00 00 00
 (1.9790)  can1  194BFF72   [8]  83 F5 FF FF FF FF AA 1E
 (1.9800)  can1  194CFF72   [8]  FF FF FF FF FF FF AB A5
 (1.9850)  can1  89A0C02   [8]  00 00 00 00 00 00 00 00
 (1.9860)  can1  8030C02   [8]  00 00 2A 68 2A 68 92 17
 (1.9860)  can1  8580C02   [8]  00 00 00 00 00 00 00 00
 (1.9960)  can1  4100209   [8]  3A CF 12 00 00 00 00 00
 (1.9970)  can1  4100208   [8]  70 94 12 00 00 00 00 00
 (1.9970)  can1  8100302   [5]  00 00 0A 00 F8
 (1.9980)  can1  585FF72   [8]  00 80 60 09 60 09 F6 76
 (1.9980)  can1  586FF72   [8]  00 80 FF FF FF FF F6 CB
 (1.9990)  can1  595FF71   [8]  00 80 60 09 60 09 F6 76
 (1.9990)  can1  596FF71   [8]  FE 7F FF FF FF FF F6 4D
 (1.9990)  can1  4100209   [8]  3A CF 12 00 00 00 00 00
 (1.9990)  can1  4100208   [8]  70 94 12 00 00 00 00 00
 (2.0000)  can1  18800401   [8]  0D 7B 94 AB 94 9D 94 00
 (2.0000)  can1  18840401   [8]  0D 8F 94 B9 94 AD 94 00
 (2.0010)  can1  18C00401   [8]  0D DB 2D 5B 2D 51 2D 00
 (2.0050)  can1  89A0C02   [8]  00 00 00 00 00 00 00 00
 (2.0060)  can1  8030C02   [8]  00 00 2A 68 2A 68 92 17
 (2.0060)  can1  8580C02   [8]  FF FF 00 00 00 00 00 00
 (2.0070)  can1  8101201   [8]  F5 67 F4 94 88 92 2B 00
 (2.0080)  can1  4100209   [8]  3A CF 12 00 00 00 00 00
 (2.0080)  can1  8010C01   [8]  71 67 00 00 00 00 00 00
 (2.0080)  can1  4100208   [8]  70 94 12 00 00 00 00 00
 (2.0110)  can1  585FF72   [8]  00 80 60 09 60 09 F7 76
 (2.0110)  can1  586FF72   [8]  00 80 FF FF FF FF F7 CB
 (2.0150)  can1  8100302   [5]  00 00 0A 00 F8
 (2.0160)  can1  595FF71   [8]  00 80 60 09 60 09 F7 76
 (2.0170)  can1  596FF71   [8]  FF 7F FF FF FF FF F7 19
 (2.0170)  can1  4100209   [8]  3A CF 12 00 00 00 00 00
 (2.0180)  can1  4100208   [8]  70 94 12 00 00 00 00 00
 (2.0210)  can1  589FF72   [8]  1A D0 02 81 02 00 FF 87
 (2.0250)  can1  5807202   [8]  00 80 00 00 E0 01 01 43
 (2.0260)  can1  5817202   [8]  01 00 10 27 10 27 08 E3
 (2.0270)  can1  5907102   [8]  00 80 00 00 E0 01 01 43
 (2.0270)  can1  5917102   [8]  01 00 10 27 10 27 08 E3
 (2.0280)  can1  5827202   [8]  FA 00 00 00 00 00 01 D4
 (2.0280)  can1  5927102   [8]  FA 00 00 00 00 00 01 D4
 (2.0290)  can1  4100209   [8]  3A CF 12 00 00 00 00 00
 (2.0290)  can1  5837202   [8]  2C 41 06 00 00 00 01 E0
 (2.0300)  can1  5847270   [8]  00 00 00 00 00 00 01 9F
 (2.0300)  can1  5937102   [8]  2C 41 06 00 00 00 01 E0
 (2.0310)  can1  4100208   [8]  70 94 12 00 00 00 00 00
 (2.0310)  can1  5947102   [8]  00 00 00 00 00 00 01 9F
 (2.0320)  can1  8580C02   [8]  00 00 00 00 00 00 00 00
 (2.0320)  can1  89A0C02   [8]  00 00 00 00 00 00 00 00
 (2.0320)  can1  8030C02   [8]  00 00 2A 68 2A 68 92 17
 (2.0320)  can1  585FF72   [8]  00 80 60 09 60 09 F8 76
 (2.0330)  can1  586FF72   [8]  00 80 FF FF FF FF F8 CB
 (2.0360)  can1  595FF71   [8]  00 80 60 09 60 09 F8 76
 (2.0370)  can1  596FF71   [8]  FE 7F FF FF FF FF F8 4D
 (2.0370)  can1  4100209   [8]  3A CF 12 00 00 00 00 00
 (2.0380)  can1  4100208   [8]  70 94 12 00 00 00 00 00
 (2.0400)  can1  8100302   [5]  00 00 0A 00 F8
 (2.0450)  can1  89A0C02   [8]  00 00 00 00 00 00 00 00
 (2.0460)  can1  8030C02   [8]  00 00 2A 68 2A 68 92 17
 (2.0460)  can1  8580C02   [8]  FF FF 00 00 00 00 00 00
 (2.0460)  can1  587FF72   [8]  00 08 9A 10 FF FF FF B7
 (2.0470)  can1  588FF72   [8]  10 01 5D FF FF FF FF F7
 (2.0480)  can1  4100209   [8]  3A CF 12 00 00 00 00 00
 (2.0480)  can1  4100208   [8]  70 94 12 00 00 00 00 00
 (2.0510)  can1  585FF72   [8]  00 80 60 09 60 09 F9 76
 (2.0510)  can1  586FF72   [8]  FF 7F FF FF FF FF F9 19
 (2.0520)  can1  8041001   [8]  C0 02 B0 58 E6 56 3B 00
 (2.0520)  can1  18800401   [8]  0E 6E 94 6A 94 60 94 00
 (2.0530)  can1  18840401   [8]  0E 7B 94 76 94 69 94 00
 (2.0530)  can1  18C00401   [8]  0E CE 2D E3 2D 0E 2E 00
 (2.0560)  can1  595FF71   [8]  00 80 60 09 60 09 F9 76
 (2.0570)  can1  596FF71   [8]  FF 7F FF FF FF FF F9 19
 (2.0580)  can1  4100209   [8]  3A CF 12 00 00 00 00 00
 (2.0590)  can1  597FF71   [8]  FE 07 B6 10 FF FF FF 17
 (2.0590)  can1  598FF71   [8]  F0 00 7D FF FF FF FF 78
 (2.0590)  can1  599FF71   [8]  1A D0 02 81 02 00 FF 87
 (2.0600)  can1  4100208   [8]  70 94 12 00 00 00 00 00
 (2.0650)  can1  8100302   [5]  00 00 0A 00 F8
 (2.0650)  can1  8580C02   [8]  00 00 00 00 00 00 00 00
 (2.0660)  can1  89A0C02   [8]  00 00 00 00 00 00 00 00
 (2.0660)  can1  8030C02   [8]  00 00 2A 68 2A 68 92 17
 (2.0670)  can1  4100209   [8]  3A CF 12 00 00 00 00 00
 (2.0680)  can1  4100208   [8]  70 94 12 00 00 00 00 00
 (2.0710)  can1  585FF72   [8]  00 80 60 09 60 09 FA 76
 (2.0710)  can1  528FF72   [8]  F7 FF 01 00 00 00 00 00
 (2.0720)  can1  529FF72   [8]  00 00 00 00 00 00 00 00
 (2.0730)  can1  52AFF72   [8]  0D 0D 0D 0D 0D 0D 11 00
 (2.0730)  can1  52BFF72   [8]  0D 10 0D 0D 00 FF 00 00
 (2.0730)  can1  52CFF72   [8]  00 00 EF FF EF FF 3A 00
 (2.0730)  can1  586FF72   [8]  FE 7F FF FF FF FF FA 4D
 (2.0760)  can1  595FF71   [8]  00 80 60 09 60 09 FA 76
 (2.0770)  can1  596FF71   [8]  FF 7F FF FF FF FF FA 19
 (2.0780)  can1  4100209   [8]  3A CF 12 00 00 00 00 00
 (2.0780)  can1  528FF71   [8]  00 00 FC FF 00 00 00 00
 (2.0790)  can1  529FF71   [8]  00 00 00 00 00 00 00 00
 (2.0790)  can1  52AFF71   [8]  0D 0D 0D 0D 0D 0D 0F 00
 (2.0800)  can1  4100208   [8]  70 94 12 00 00 00 00 00
 (2.0800)  can1  52BFF71   [8]  0C 0E 0C 0D 00 FF 00 00
 (2.0800)  can1  52CFF71   [8]  00 00 EF FF EF FF 3A 00
 (2.0850)  can1  5807202   [8]  00 80 00 00 E0 01 02 43
 (2.0860)  can1  5817202   [8]  01 00 10 27 10 27 09 E3
 (2.0860)  can1  5907102   [8]  00 80 00 00 E0 01 02 43
 (2.0870)  can1  5917102   [8]  01 00 10 27 10 27 09 E3
 (2.0880)  can1  5827202   [8]  FA 00 00 00 00 00 02 D4
 (2.0880)  can1  5927102   [8]  FA 00 00 00 00 00 02 D4
 (2.0880)  can1  4100209   [8]  3A CF 12 00 00 00 00 00
 (2.0890)  can1  5837202   [8]  2C 41 06 00 00 00 02 E0
 (2.0890)  can1  5847270   [8]  00 00 00 00 00 00 02 9F
 (2.0900)  can1  5937102   [8]  2C 41 06 00 00 00 02 E0
 (2.0900)  can1  4100208   [8]  70 94 12 00 00 00 00 00
 (2.0910)  can1  5947102   [8]  00 00 00 00 00 00 02 9F
 (2.0910)  can1  8580C02   [8]  00 00 FF FF 00 00 00 00
 (2.0920)  can1  89A0C02   [8]  00 00 00 00 00 00 00 00
 (2.0920)  can1  8030C02   [8]  00 00 2A 68 2A 68 92 17
 (2.0920)  can1  8100302   [5]  00 00 0A 00 F8
 (2.0920)  can1  585FF72   [8]  00 80 60 09 60 09 FB 76
 (2.0920)  can1  586FF72   [8]  00 80 FF FF FF FF FB CB
 (2.0960)  can1  595FF71   [8]  00 80 60 09 60 09 FB 76
 (2.0970)  can1  596FF71   [8]  00 80 FF FF FF FF FB CB
 (2.0980)  can1  4100209   [8]  3A CF 12 00 00 00 00 00
 (2.0980)  can1  4100208   [8]  70 94 12 00 00 00 00 00
 (2.0990)  can1  18101203   [4]  27 2D AD 06
 (2.1000)  can1  18800401   [8]  0F 33 94 70 94 A1 94 00
 (2.1000)  can1  18840401   [8]  0F 40 94 7C 94 AE 94 00
 (2.1010)  can1  18C00401   [8]  0F 26 2E 3E 2E 72 2E 00
 (2.1050)  can1  89A0C02   [8]  00 00 00 00 00 00 00 00
 (2.1050)  can1  8030C02   [8]  00 00 2A 68 2A 68 92 17
 (2.1060)  can1  8580C02   [8]  00 00 00 00 00 00 00 00
 (2.1070)  can1  4100209   [8]  3A CF 12 00 00 00 00 00
 (2.1080)  can1  8101201   [8]  F0 67 F6 94 88 92 3E 00
 (2.1080)  can1  4100208   [8]  70 94 12 00 00 00 00 00
 (2.1090)  can1  8010C01   [8]  71 67 00 00 00 00 00 00
 (2.1110)  can1  585FF72   [8]  00 80 60 09 60 09 FC 76
 (2.1120)  can1  586FF72   [8]  FD 7F FF FF FF FF FC B1
 (2.1150)  can1  8100302   [5]  00 00 0A 00 F8
 (2.1160)  can1  595FF71   [8]  00 80 60 09 60 09 FC 76
 (2.1170)  can1  596FF71   [8]  FF 7F FF FF FF FF FC 19
 (2.1170)  can1  4100209   [8]  3A CF 12 00 00 00 00 00
 (2.1180)  can1  4100208   [8]  70 94 12 00 00 00 00 00
 (2.1210)  can1  589FF72   [8]  1A D0 02 81 02 00 F0 87
 (2.1250)  can1  89A0C02   [8]  00 00 00 00 00 00 00 00
 (2.1250)  can1  8030C02   [8]  00 00 2A 68 2A 68 92 17
 (2.1260)  can1  8580C02   [8]  00 00 FE FF 00 00 00 00
 (2.1270)  can1  4100209   [8]  3A CF 12 00 00 00 00 00
 (2.1280)  can1  4100208   [8]  70 94 12 00 00 00 00 00
 (2.1310)  can1  585FF72   [8]  00 80 60 09 60 09 FD 76
 (2.1320)  can1  586FF72   [8]  00 80 FF FF FF FF FD CB
 (2.1360)  can1  595FF71   [8]  00 80 60 09 60 09 FD 76
 (2.1370)  can1  596FF71   [8]  FF 7F FF FF FF FF FD 19
 (2.1370)  can1  4100209   [8]  3A CF 12 00 00 00 00 00
 (2.1380)  can1  4100208   [8]  70 94 12 00 00 00 00 00
 (2.1400)  can1  8100302   [5]  00 00 0A 00 F8
 (2.1450)  can1  5807202   [8]  00 80 00 00 E0 01 03 43
 (2.1460)  can1  5817202   [8]  01 00 10 27 10 27 0A E3
 (2.1460)  can1  5907102   [8]  00 80 00 00 E0 01 03 43
 (2.1470)  can1  587FF72   [8]  01 08 9A 10 FF FF F0 E3
 (2.1470)  can1  5827202   [8]  FA 00 00 00 00 00 03 D4
 (2.1480)  can1  588FF72   [8]  10 01 5D FF FF FF F0 F7
 (2.1490)  can1  4100209   [8]  3A CF 12 00 00 00 00 00
 (2.1490)  can1  5837202   [8]  2C 41 06 00 00 00 03 E0
 (2.1500)  can1  5917102   [8]  01 00 10 27 10 27 0A E3
 (2.1500)  can1  5927102   [8]  FA 00 00 00 00 00 03 D4
 (2.1500)  can1  4100208   [8]  70 94 12 00 00 00 00 00
 (2.1510)  can1  5847270   [8]  00 00 00 00 00 00 03 9F
 (2.1520)  can1  5937102   [8]  2C 41 06 00 00 00 03 E0
 (2.1520)  can1  5947102   [8]  00 00 00 00 00 00 03 9F
 (2.1530)  can1  8580C02   [8]  00 00 00 00 00 00 00 00
 (2.1530)  can1  89A0C02   [8]  00 00 00 00 00 00 00 00
 (2.1530)  can1  8030C02   [8]  00 00 2A 68 2A 68 92 17
 (2.1540)  can1  585FF72   [8]  00 80 60 09 60 09 FE 76
 (2.1540)  can1  586FF72   [8]  01 80 FF FF FF FF FE 9F
 (2.1540)  can1  8041001   [8]  C0 02 B0 58 E6 56 3B 00
 (2.1550)  can1  18800401   [8]  10 97 94 94 94 88 94 00
 (2.1550)  can1  18840401   [8]  10 A4 94 A1 94 95 94 00
 (2.1550)  can1  18C00401   [8]  10 47 2E 76 2E 12 2E 00
 (2.1560)  can1  595FF71   [8]  00 80 60 09 60 09 FE 76
 (2.1570)  can1  596FF71   [8]  FE 7F FF FF FF FF FE 4D
 (2.1570)  can1  4100209   [8]  3A CF 12 00 00 00 00 00
 (2.1580)  can1  597FF71   [8]  00 08 B4 10 FF FF F0 AF
 (2.1580)  can1  598FF71   [8]  F0 00 7D FF FF FF F0 78
 (2.1590)  can1  599FF71   [8]  1A D0 02 81 02 00 F0 87
 (2.1590)  can1  4100208   [8]  70 94 12 00 00 00 00 00
 (2.1650)  can1  8100302   [5]  00 00 0A 00 F8
 (2.1650)  can1  8580C02   [8]  FF FF 00 00 00 00 00 00
 (2.1660)  can1  89A0C02   [8]  00 00 00 00 CC 0B 00 00
 (2.1660)  can1  8030C02   [8]  00 00 2A 68 2A 68 92 17
 (2.1670)  can1  4100209   [8]  3A CF 12 00 00 00 00 00
 (2.1680)  can1  4100208   [8]  70 94 12 00 00 00 00 00
 (2.1710)  can1  585FF72   [8]  00 80 60 09 60 09 FF 76
 (2.1720)  can1  586FF72   [8]  FD 7F FF FF FF FF FF B1
 (2.1760)  can1  595FF71   [8]  00 80 60 09 60 09 FF 76
 (2.1770)  can1  596FF71   [8]  FF 7F FF FF FF FF FF 19
 (2.1770)  can1  4100209   [8]  3A CF 12 00 00 00 00 00
 (2.1780)  can1  4100208   [8]  70 94 12 00 00 00 00 00
 (2.1850)  can1  89A0C02   [8]  00 00 00 00 00 00 00 00
 (2.1860)  can1  8030C02   [8]  00 00 2A 68 2A 68 92 17
 (2.1860)  can1  8580C02   [8]  00 00 FE FF 00 00 00 00
 (2.1870)  can1  4100209   [8]  3A CF 12 00 00 00 00 00
 (2.1880)  can1  4100208   [8]  70 94 12 00 00 00 00 00
 (2.1900)  can1  8100302   [5]  00 00 0A 00 F8
 (2.1910)  can1  585FF72   [8]  00 80 60 09 60 09 F0 76
 (2.1910)  can1  586FF72   [8]  00 80 FF FF FF FF F0 CB
 (2.1960)  can1  595FF71   [8]  00 80 60 09 60 09 F0 76
 (2.1970)  can1  596FF71   [8]  00 80 FF FF FF FF F0 CB
 (2.1980)  can1  4100209   [8]  3A CF 12 00 00 00 00 00
 (2.1980)  can1  4100208   [8]  70 94 12 00 00 00 00 00
 (2.2000)  can1  18800401   [8]  11 7D 94 79 94 7F 94 00
 (2.2000)  can1  18840401   [8]  11 8B 94 87 94 8F 94 00
 (2.2000)  can1  18C00401   [8]  11 47 2E C5 2D FE 2D 00
 (2.2050)  can1  5807202   [8]  00 80 00 00 E0 01 04 43
 (2.2060)  can1  5817202   [8]  01 00 10 27 10 27 0B E3
 (2.2060)  can1  5907102   [8]  00 80 00 00 E0 01 04 43
 (2.2070)  can1  5917102   [8]  01 00 10 27 10 27 0B E3
 (2.2070)  can1  5827202   [8]  FA 00 00 00 00 00 04 D4
 (2.2080)  can1  5927102   [8]  FA 00 00 00 00 00 04 D4
 (2.2090)  can1  4100209   [8]  3A CF 12 00 00 00 00 00
 (2.2090)  can1  5837202   [8]  2C 41 06 00 00 00 04 E0
 (2.2100)  can1  5847270   [8]  00 00 00 00 00 00 04 9F
 (2.2100)  can1  5937102   [8]  2C 41 06 00 00 00 04 E0
 (2.2110)  can1  4100208   [8]  70 94 12 00 00 00 00 00
 (2.2110)  can1  5947102   [8]  00 00 00 00 00 00 04 9F
 (2.2120)  can1  8580C02   [8]  00 00 00 00 00 00 00 00
 (2.2120)  can1  8010C01   [8]  72 67 00 00 00 00 00 00
 (2.2120)  can1  8030C02   [8]  00 00 2A 68 2A 68 92 17
 (2.2130)  can1  8101201   [8]  F3 67 F8 94 89 92 29 00
 (2.2130)  can1  89A0C02   [8]  00 00 00 00 00 00 00 00
 (2.2130)  can1  585FF72   [8]  00 80 60 09 60 09 F1 76
 (2.2130)  can1  586FF72   [8]  00 80 FF FF FF FF F1 CB
 (2.2150)  can1  8100302   [5]  00 00 0A 00 F8
 (2.2160)  can1  595FF71   [8]  00 80 60 09 60 09 F1 76
 (2.2170)  can1  596FF71   [8]  FE 7F FF FF FF FF F1 4D
 (2.2180)  can1  4100209   [8]  3A CF 12 00 00 00 00 00
 (2.2180)  can1  4100208   [8]  70 94 12 00 00 00 00 00
 (2.2210)  can1  589FF72   [8]  1A D0 02 81 02 00 F1 87
 (2.2250)  can1  89A0C02   [8]  00 00 00 00 00 00 00 00
 (2.2250)  can1  8030C02   [8]  00 00 2A 68 2A 68 92 17
 (2.2260)  can1  8580C02   [8]  FF FF 00 00 00 00 00 00
 (2.2260)  can1  1948FF71   [8]  00 C0 00 55 FF FF AC BF
 (2.2270)  can1  1949FF71   [8]  0D 80 00 0D 90 00 AD D7
 (2.2270)  can1  4100209   [8]  3A CF 12 00 00 00 00 00
 (2.2280)  can1  194AFF71   [8]  0A 67 58 94 45 59 AE A9
 (2.2280)  can1  194BFF71   [8]  94 F5 FF FF FF FF AF 34
 (2.2290)  can1  194CFF71   [8]  FF FF FF FF FF FF B0 AA
 (2.2290)  can1  4100208   [8]  70 94 12 00 00 00 00 00
 (2.2310)  can1  585FF72   [8]  00 80 60 09 60 09 F2 76
 (2.2320)  can1  586FF72   [8]  00 80 FF FF FF FF F2 CB
 (2.2320)  can1  1948FF72   [8]  00 C0 00 55 FF FF AC BF
 (2.2330)  can1  1949FF72   [8]  0D 80 00 0C B0 00 AD F6
 (2.2330)  can1  194AFF72   [8]  1B 87 58 91 65 58 AE F6
 (2.2330)  can1  194BFF72   [8]  8B F5 FF FF FF FF AF 2B
 (2.2340)  can1  194CFF72   [8]  FF FF FF FF FF FF B0 AA
 (2.2360)  can1  595FF71   [8]  00 80 60 09 60 09 F2 76
 (2.2370)  can1  596FF71   [8]  FF 7F FF FF FF FF F2 19
 (2.2370)  can1  4100209   [8]  3A CF 12 00 00 00 00 00
 (2.2380)  can1  4100208   [8]  70 94 12 00 00 00 00 00
 (2.2400)  can1  8100302   [5]  00 00 0A 00 F8
 (2.2450)  can1  89A0C02   [8]  00 00 00 00 00 00 00 00
 (2.2460)  can1  8030C02   [8]  00 00 2A 68 2A 68 92 17
 (2.2470)  can1  8580C02   [8]  00 00 00 00 00 00 00 00
 (2.2470)  can1  587FF72   [8]  FD 07 9A 10 FF FF F1 B6
 (2.2470)  can1  588FF72   [8]  20 01 5C FF FF FF F1 18
 (2.2480)  can1  4100209   [8]  3A CF 12 00 00 00 00 00
 (2.2480)  can1  4100208   [8]  70 94 12 00 00 00 00 00
 (2.2510)  can1  585FF72   [8]  00 80 60 09 60 09 F3 76
 (2.2510)  can1  586FF72   [8]  00 80 FF FF FF FF F3 CB
 (2.2520)  can1  8041001   [8]  C0 02 B0 58 E6 56 3B 00
 (2.2520)  can1  18800401   [8]  12 B5 94 A7 94 66 94 00
 (2.2530)  can1  18840401   [8]  12 C2 94 B3 94 73 94 00
 (2.2530)  can1  18C00401   [8]  12 94 2D 66 2D 6B 2D 00
 (2.2560)  can1  595FF71   [8]  00 80 60 09 60 09 F3 76
 (2.2570)  can1  596FF71   [8]  00 80 FF FF FF FF F3 CB
 (2.2580)  can1  4100209   [8]  3A CF 12 00 00 00 00 00
 (2.2580)  can1  597FF71   [8]  FE 07 B4 10 FF FF F1 52
 (2.2590)  can1  598FF71   [8]  F0 00 7D FF FF FF F1 78
 (2.2590)  can1  599FF71   [8]  1A D0 02 81 02 00 F1 87
 (2.2600)  can1  4100208   [8]  70 94 12 00 00 00 00 00
 (2.2650)  can1  5807202   [8]  00 80 00 00 E0 01 05 43
 (2.2660)  can1  5817202   [8]  01 00 10 27 10 27 0C E3
 (2.2660)  can1  5907102   [8]  00 80 00 00 E0 01 05 43
 (2.2670)  can1  5917102   [8]  01 00 10 27 10 27 0C E3
 (2.2670)  can1  5827202   [8]  FA 00 00 00 00 00 05 D4
 (2.2680)  can1  5927102   [8]  FA 00 00 00 00 00 05 D4
 (2.2680)  can1  4100209   [8]  3A CF 12 00 00 00 00 00
 (2.2690)  can1  5837202   [8]  2C 41 06 00 00 00 05 E0
 (2.2700)  can1  5847270   [8]  00 00 00 00 00 00 05 9F
 (2.2700)  can1  5937102   [8]  2C 41 06 00 00 00 05 E0
 (2.2700)  can1  4100208   [8]  70 94 12 00 00 00 00 00
 (2.2710)  can1  5947102   [8]  00 00 00 00 00 00 05 9F
 (2.2710)  can1  8100302   [5]  00 00 0A 00 F8
 (2.2720)  can1  89A0C02   [8]  00 00 00 00 00 00 00 00
 (2.2720)  can1  8030C02   [8]  00 00 2A 68 2A 68 92 17
 (2.2720)  can1  8580C02   [8]  00 00 00 00 00 00 00 00
 (2.2730)  can1  585FF72   [8]  00 80 60 09 60 09 F4 76
 (2.2730)  can1  586FF72   [8]  FD 7F FF FF FF FF F4 B1
 (2.2760)  can1  595FF71   [8]  00 80 60 09 60 09 F4 76
 (2.2770)  can1  596FF71   [8]  FE 7F FF FF FF FF F4 4D
 (2.2770)  can1  4100209   [8]  3A CF 12 00 00 00 00 00
 (2.2780)  can1  4100208   [8]  70 94 12 00 00 00 00 00
 (2.2850)  can1  89A0C02   [8]  00 00 00 00 00 00 00 00
 (2.2860)  can1  8030C02   [8]  00 00 2A 68 2A 68 92 17
 (2.2860)  can1  8580C02   [8]  FF FF FE FF 00 00 00 00
 (2.2870)  can1  4100209   [8]  3A CF 12 00 00 00 00 00
 (2.2880)  can1  4100208   [8]  70 94 12 00 00 00 00 00
 (2.2900)  can1  8100302   [5]  00 00 0A 00 F8
 (2.2910)  can1  585FF72   [8]  00 80 60 09 60 09 F5 76
 (2.2910)  can1  586FF72   [8]  00 80 FF FF FF FF F5 CB
 (2.2960)  can1  595FF71   [8]  00 80 60 09 60 09 F5 76
 (2.2970)  can1  596FF71   [8]  01 80 FF FF FF FF F5 9F
 (2.2970)  can1  4100209   [8]  3A CF 12 00 00 00 00 00
 (2.2980)  can1  4100208   [8]  70 94 12 00 00 00 00 00
 (2.3000)  can1  18800401   [8]  13 5B 94 6F 94 61 94 00
 (2.3000)  can1  18840401   [8]  13 68 94 74 94 6D 94 00
 (2.3010)  can1  18C00401   [8]  13 7D 2D A3 2D BF 2D 00
 (2.3050)  can1  89A0C02   [8]  CC 0B 00 00 00 00 00 00
 (2.3060)  can1  8030C02   [8]  00 00 2A 68 2A 68 92 17
 (2.3070)  can1  8580C02   [8]  00 00 00 00 00 00 00 00
 (2.3070)  can1  4100209   [8]  3A CF 12 00 00 00 00 00
 (2.3080)  can1  4100208   [8]  70 94 12 00 00 00 00 00
 (2.3100)  can1  8101201   [8]  F1 67 F8 94 89 92 43 00
 (2.3100)  can1  8010C01   [8]  6E 67 00 00 00 00 00 00
 (2.3110)  can1  585FF72   [8]  00 80 60 09 60 09 F6 76
 (2.3120)  can1  586FF72   [8]  01 80 FF FF FF FF F6 9F
 (2.3150)  can1  8100302   [5]  00 00 0A 00 F8
 (2.3160)  can1  595FF71   [8]  00 80 60 09 60 09 F6 76
 (2.3170)  can1  596FF71   [8]  FF 7F FF FF FF FF F6 19
 (2.3170)  can1  4100209   [8]  3A CF 12 00 00 00 00 00
 (2.3180)  can1  4100208   [8]  70 94 12 00 00 00 00 00
 (2.3210)  can1  589FF72   [8]  1A D0 02 81 02 00 F2 87
 (2.3250)  can1  5807202   [8]  00 80 00 00 E0 01 06 43
 (2.3260)  can1  5817202   [8]  01 00 10 27 10 27 0D E3
 (2.3270)  can1  5907102   [8]  00 80 00 00 E0 01 06 43
 (2.3270)  can1  5917102   [8]  01 00 10 27 10 27 0D E3
 (2.3280)  can1  5827202   [8]  FA 00 00 00 00 00 06 D4
 (2.3290)  can1  5927102   [8]  FA 00 00 00 00 00 06 D4
 (2.3300)  can1  4100209   [8]  3A CF 12 00 00 00 00 00
 (2.3300)  can1  5837202   [8]  2C 41 06 00 00 00 06 E0
 (2.3300)  can1  5847270   [8]  00 00 00 00 00 00 06 9F
 (2.3310)  can1  5937102   [8]  2C 41 06 00 00 00 06 E0
 (2.3310)  can1  4100208   [8]  70 94 12 00 00 00 00 00
 (2.3310)  can1  5947102   [8]  00 00 00 00 00 00 06 9F
 (2.3320)  can1  8580C02   [8]  00 00 00 00 00 00 00 00
 (2.3320)  can1  89A0C02   [8]  00 00 00 00 CC 0B 00 00
 (2.3320)  can1  8030C02   [8]  00 00 2A 68 2A 68 92 17
 (2.3320)  can1  585FF72   [8]  00 80 60 09 60 09 F7 76
 (2.3330)  can1  586FF72   [8]  FD 7F FF FF FF FF F7 B1
 (2.3360)  can1  595FF71   [8]  00 80 60 09 60 09 F7 76
 (2.3370)  can1  596FF71   [8]  00 80 FF FF FF FF F7 CB
 (2.3370)  can1  4100209   [8]  3A CF 12 00 00 00 00 00
 (2.3380)  can1  4100208   [8]  70 94 12 00 00 00 00 00
 (2.3400)  can1  8100302   [5]  00 00 0A 00 F8
 (2.3450)  can1  89A0C02   [8]  00 00 00 00 00 00 00 00
 (2.3460)  can1  8030C02   [8]  00 00 2A 68 2A 68 92 17
 (2.3460)  can1  8580C02   [8]  00 00 FE FF 00 00 00 00
 (2.3470)  can1  587FF72   [8]  00 08 9A 10 FF FF F2 B7
 (2.3470)  can1  588FF72   [8]  10 01 5D FF FF FF F2 F7
 (2.3480)  can1  4100209   [8]  3A CF 12 00 00 00 00 00
 (2.3490)  can1  4100208   [8]  70 94 12 00 00 00 00 00
 (2.3510)  can1  585FF72   [8]  00 80 60 09 60 09 F8 76
 (2.3510)  can1  586FF72   [8]  FE 7F FF FF FF FF F8 4D
 (2.3520)  can1  8041001   [8]  C0 02 B0 58 E6 56 3B 00
 (2.3520)  can1  18800401   [8]  14 66 94 94 94 86 94 00
 (2.3530)  can1  18840401   [8]  14 75 94 A0 94 96 94 00
 (2.3530)  can1  18C00401   [8]  14 B2 2D D2 2D B0 2D 00
 (2.3560)  can1  595FF71   [8]  00 80 60 09 60 09 F8 76
 (2.3570)  can1  596FF71   [8]  01 80 FF FF FF FF F8 9F
 (2.3570)  can1  4100209   [8]  3A CF 12 00 00 00 00 00
 (2.3580)  can1  597FF71   [8]  01 08 B6 10 FF FF F2 BE
 (2.3580)  can1  598FF71   [8]  F0 00 7D FF FF FF F2 78
 (2.3590)  can1  599FF71   [8]  1A D0 02 81 02 00 F2 87
 (2.3590)  can1  4100208   [8]  70 94 12 00 00 00 00 00
 (2.3650)  can1  8100302   [5]  00 00 0A 00 F8
 (2.3660)  can1  8580C02   [8]  00 00 FF FF 00 00 00 00
 (2.3660)  can1  89A0C02   [8]  CC 0B 00 00 00 00 00 00
 (2.3670)  can1  8030C02   [8]  00 00 2A 68 2A 68 92 17
 (2.3670)  can1  4100209   [8]  3A CF 12 00 00 00 00 00
 (2.3680)  can1  4100208   [8]  70 94 12 00 00 00 00 00
 (2.3710)  can1  585FF72   [8]  00 80 60 09 60 09 F9 76
 (2.3710)  can1  586FF72   [8]  01 80 FF FF FF FF F9 9F
 (2.3760)  can1  595FF71   [8]  00 80 60 09 60 09 F9 76
 (2.3770)  can1  596FF71   [8]  01 80 FF FF FF FF F9 9F
 (2.3770)  can1  4100209   [8]  3A CF 12 00 00 00 00 00
 (2.3780)  can1  4100208   [8]  70 94 12 00 00 00 00 00
 (2.3850)  can1  5807202   [8]  00 80 00 00 E0 01 07 43
 (2.3860)  can1  5817202   [8]  01 00 10 27 10 27 0E E3
 (2.3870)  can1  5907102   [8]  00 80 00 00 E0 01 07 43
 (2.3880)  can1  5917102   [8]  01 00 10 27 10 27 0E E3
 (2.3880)  can1  5827202   [8]  FA 00 00 00 00 00 07 D4
 (2.3890)  can1  5927102   [8]  FA 00 00 00 00 00 07 D4
 (2.3890)  can1  4100209   [8]  3A CF 12 00 00 00 00 00
 (2.3900)  can1  5837202   [8]  2C 41 06 00 00 00 07 E0
 (2.3900)  can1  5847270   [8]  00 00 00 00 00 00 07 9F
 (2.3900)  can1  5937102   [8]  2C 41 06 00 00 00 07 E0
 (2.3910)  can1  4100208   [8]  70 94 12 00 00 00 00 00
 (2.3920)  can1  5947102   [8]  00 00 00 00 00 00 07 9F
 (2.3920)  can1  8580C02   [8]  00 00 00 00 00 00 00 00
 (2.3920)  can1  89A0C02   [8]  CC 0B 00 00 CC 0B 00 00
 (2.3930)  can1  8030C02   [8]  00 00 2A 68 2A 68 92 17
 (2.3930)  can1  8100302   [5]  00 00 0A 00 F8
 (2.3930)  can1  585FF72   [8]  00 80 60 09 60 09 FA 76
 (2.3940)  can1  586FF72   [8]  01 80 FF FF FF FF FA 9F
 (2.3970)  can1  595FF71   [8]  00 80 60 09 60 09 FA 76
 (2.3970)  can1  596FF71   [8]  00 80 FF FF FF FF FA CB
 (2.3980)  can1  4100209   [8]  3A CF 12 00 00 00 00 00
 (2.3980)  can1  4100208   [8]  70 94 12 00 00 00 00 00
 (2.4000)  can1  18800401   [8]  15 94 94 87 94 7C 94 00
 (2.4000)  can1  18840401   [8]  15 A0 94 94 94 89 94 00
 (2.4010)  can1  18C00401   [8]  15 DC 2D 87 2D B2 2D 00
 (2.4050)  can1  89A0C02   [8]  00 00 00 00 CC 0B 00 00
 (2.4060)  can1  8030C02   [8]  00 00 2A 68 2A 68 92 17
 (2.4060)  can1  8580C02   [8]  00 00 00 00 00 00 00 00
 (2.4070)  can1  4100209   [8]  3A CF 12 00 00 00 00 00
 (2.4080)  can1  4100208   [8]  70 94 12 00 00 00 00 00
 (2.4110)  can1  8101201   [8]  F4 67 F6 94 88 92 2D 00
 (2.4120)  can1  585FF72   [8]  00 80 60 09 60 09 FB 76
 (2.4120)  can1  586FF72   [8]  FF 7F FF FF FF FF FB 19
 (2.4130)  can1  8010C01   [8]  74 67 00 00 00 00 00 00
 (2.4150)  can1  8100302   [5]  00 00 0A 00 F8
 (2.4160)  can1  595FF71   [8]  00 80 60 09 60 09 FB 76
 (2.4170)  can1  596FF71   [8]  00 80 FF FF FF FF FB CB
 (2.4170)  can1  4100209   [8]  3A CF 12 00 00 00 00 00
 (2.4180)  can1  4100208   [8]  70 94 12 00 00 00 00 00
 (2.4210)  can1  589FF72   [8]  1A D0 02 81 02 00 F3 87
 (2.4250)  can1  89A0C02   [8]  00 00 00 00 00 00 00 00
 (2.4260)  can1  8030C02   [8]  00 00 2A 68 2A 68 92 17
 (2.4260)  can1  8580C02   [8]  00 00 00 00 00 00 00 00
 (2.4270)  can1  4100209   [8]  3A CF 12 00 00 00 00 00
 (2.4280)  can1  4100208   [8]  70 94 12 00 00 00 00 00
 (2.4310)  can1  585FF72   [8]  00 80 60 09 60 09 FC 76
 (2.4310)  can1  586FF72   [8]  FE 7F FF FF FF FF FC 4D
 (2.4360)  can1  595FF71   [8]  00 80 60 09 60 09 FC 76
 (2.4370)  can1  596FF71   [8]  00 80 FF FF FF FF FC CB
 (2.4380)  can1  4100209   [8]  3A CF 12 00 00 00 00 00
 (2.4380)  can1  4100208   [8]  70 94 12 00 00 00 00 00
 (2.4400)  can1  8100302   [5]  00 00 0A 00 F8
 (2.4450)  can1  5807202   [8]  00 80 00 00 E0 01 08 43
 (2.4460)  can1  5817202   [8]  01 00 10 27 10 27 0F E3
 (2.4460)  can1  5907102   [8]  00 80 00 00 E0 01 08 43
 (2.4470)  can1  587FF72   [8]  00 08 9A 10 FF FF F3 B7
 (2.4480)  can1  5827202   [8]  FA 00 00 00 00 00 08 D4
 (2.4490)  can1  588FF72   [8]  10 01 5D FF FF FF F3 F7
 (2.4490)  can1  4100209   [8]  3A CF 12 00 00 00 00 00
 (2.4500)  can1  5837202   [8]  2C 41 06 00 00 00 08 E0
 (2.4500)  can1  5917102   [8]  01 00 10 27 10 27 0F E3
 (2.4500)  can1  5927102   [8]  FA 00 00 00 00 00 08 D4
 (2.4510)  can1  4100208   [8]  70 94 12 00 00 00 00 00
 (2.4520)  can1  5847270   [8]  00 00 00 00 00 00 08 9F
 (2.4520)  can1  5937102   [8]  2C 41 06 00 00 00 08 E0
 (2.4530)  can1  5947102   [8]  00 00 00 00 00 00 08 9F
 (2.4530)  can1  8580C02   [8]  00 00 FF FF 00 00 00 00
 (2.4540)  can1  89A0C02   [8]  00 00 00 00 00 00 00 00
 (2.4540)  can1  8030C02   [8]  00 00 2A 68 2A 68 92 17
 (2.4540)  can1  585FF72   [8]  00 80 60 09 60 09 FD 76
 (2.4540)  can1  586FF72   [8]  00 80 FF FF FF FF FD CB
 (2.4550)  can1  8041001   [8]  C0 02 B0 58 E6 56 3B 00
 (2.4550)  can1  18800401   [8]  16 7A 94 7E 94 AA 94 00
 (2.4550)  can1  18840401   [8]  16 87 94 91 94 B8 94 00
 (2.4560)  can1  18C00401   [8]  16 5C 2D 6D 2D 01 2D 00
 (2.4560)  can1  595FF71   [8]  00 80 60 09 60 09 FD 76
 (2.4570)  can1  596FF71   [8]  01 80 FF FF FF FF FD 9F
 (2.4580)  can1  4100209   [8]  3A CF 12 00 00 00 00 00
 (2.4580)  can1  597FF71   [8]  00 08 B4 10 FF FF F3 AF
 (2.4590)  can1  598FF71   [8]  F0 00 7D FF FF FF F3 78
 (2.4590)  can1  599FF71   [8]  1A D0 02 81 02 00 F3 87
 (2.4590)  can1  4100208   [8]  70 94 12 00 00 00 00 00
 (2.4650)  can1  8100302   [5]  00 00 0A 00 F8
 (2.4650)  can1  8580C02   [8]  00 00 00 00 00 00 00 00
 (2.4660)  can1  89A0C02   [8]  CC 0B 00 00 00 00 00 00
 (2.4660)  can1  8030C02   [8]  00 00 2A 68 2A 68 92 17
 (2.4670)  can1  4100209   [8]  3A CF 12 00 00 00 00 00
 (2.4680)  can1  4100208   [8]  70 94 12 00 00 00 00 00
 (2.4710)  can1  585FF72   [8]  00 80 60 09 60 09 FE 76
 (2.4710)  can1  586FF72   [8]  FD 7F FF FF FF FF FE B1
 (2.4760)  can1  595FF71   [8]  00 80 60 09 60 09 FE 76
 (2.4770)  can1  596FF71   [8]  FE 7F FF FF FF FF FE 4D
 (2.4780)  can1  4100209   [8]  3A CF 12 00 00 00 00 00
 (2.4780)  can1  4100208   [8]  70 94 12 00 00 00 00 00
 (2.4820)  can1  1948FF71   [8]  00 C0 00 55 FF FF B1 C4
 (2.4820)  can1  1949FF71   [8]  0D 80 00 0D B0 00 B2 FC
 (2.4830)  can1  194AFF71   [8]  0C 47 59 94 45 59 B3 91
 (2.4830)  can1  194BFF71   [8]  99 F5 FF FF FF FF B4 3E
 (2.4830)  can1  194CFF71   [8]  FF FF FF FF FF FF B5 AF
 (2.4850)  can1  89A0C02   [8]  00 00 00 00 00 00 00 00
 (2.4860)  can1  8030C02   [8]  00 00 2A 68 2A 68 92 17
 (2.4870)  can1  8580C02   [8]  FF FF FE FF 00 00 00 00
 (2.4870)  can1  1948FF72   [8]  00 C0 00 55 FF FF B1 C4
 (2.4880)  can1  1949FF72   [8]  0D 80 00 0C 90 00 B2 DB
 (2.4880)  can1  194AFF72   [8]  1D B7 58 86 65 58 B3 22
 (2.4890)  can1  4100209   [8]  3A CF 12 00 00 00 00 00
 (2.4890)  can1  194BFF72   [8]  86 F5 FF FF FF FF B4 2B
 (2.4890)  can1  194CFF72   [8]  FF FF FF FF FF FF B5 AF
 (2.4900)  can1  4100208   [8]  70 94 12 00 00 00 00 00
 (2.4900)  can1  8100302   [5]  00 00 0A 00 F8
 (2.4910)  can1  585FF72   [8]  00 80 60 09 60 09 FF 76
 (2.4910)  can1  586FF72   [8]  FF 7F FF FF FF FF FF 19
 (2.4960)  can1  595FF71   [8]  00 80 60 09 60 09 FF 76
 (2.4970)  can1  596FF71   [8]  00 80 FF FF FF FF FF CB
 (2.4980)  can1  4100209   [8]  3A CF 12 00 00 00 00 00
 (2.4990)  can1  4100208   [8]  70 94 12 00 00 00 00 00
 (2.4990)  can1  404FF03   [1]  00
 (2.5000)  can1  18800401   [8]  17 A1 94 00 00 00 00 00
 (2.5000)  can1  18840401   [8]  17 AD 94 00 00 00 00 00
 (2.5010)  can1  18C00401   [8]  17 F0 2C 10 27 10 27 00
 (2.5020)  can1  8250C03   [8]  48 00 29 01 00 00 35 00
 (2.5020)  can1  8840C03   [8]  30 00 19 00 21 00 07 00
 (2.5020)  can1  88D0C03   [8]  0E 00 00 00 45 00 53 00
 (2.5050)  can1  5807202   [8]  00 80 00 00 E0 01 09 43
 (2.5060)  can1  5817202   [8]  01 00 10 27 10 27 00 E3
 (2.5060)  can1  5907102   [8]  00 80 00 00 E0 01 09 43
 (2.5070)  can1  5917102   [8]  01 00 10 27 10 27 00 E3
 (2.5080)  can1  5827202   [8]  FA 00 00 00 00 00 09 D4
 (2.5080)  can1  5927102   [8]  FA 00 00 00 00 00 09 D4
 (2.5090)  can1  4100209   [8]  3A CF 12 00 00 00 00 00
 (2.5090)  can1  5837202   [8]  2C 41 06 00 00 00 09 E0
 (2.5100)  can1  5847270   [8]  00 00 00 00 00 00 09 9F
 (2.5100)  can1  5937102   [8]  2C 41 06 00 00 00 09 E0
 (2.5100)  can1  4100208   [8]  70 94 12 00 00 00 00 00
 (2.5110)  can1  5947102   [8]  00 00 00 00 00 00 09 9F
 (2.5120)  can1  8580C02   [8]  00 00 00 00 00 00 00 00
 (2.5120)  can1  89A0C02   [8]  00 00 00 00 00 00 00 00
 (2.5120)  can1  8030C02   [8]  00 00 2A 68 2A 68 92 17
 (2.5130)  can1  585FF72   [8]  00 80 60 09 60 09 F0 76
 (2.5130)  can1  586FF72   [8]  FF 7F FF FF FF FF F0 19
 (2.5130)  can1  8101201   [8]  F2 67 F6 94 89 92 3D 00
 (2.5130)  can1  8010C01   [8]  71 67 00 00 00 00 00 00
 (2.5150)  can1  8100302   [5]  00 00 0A 00 F8
 (2.5160)  can1  595FF71   [8]  00 80 60 09 60 09 F0 76
 (2.5170)  can1  596FF71   [8]  FF 7F FF FF FF FF F0 19
 (2.5180)  can1  4100209   [8]  3A CF 12 00 00 00 00 00
 (2.5180)  can1  4100208   [8]  70 94 12 00 00 00 00 00
 (2.5210)  can1  589FF72   [8]  1A D0 02 81 02 00 F4 87
 (2.5250)  can1  89A0C02   [8]  00 00 00 00 00 00 00 00
 (2.5260)  can1  8030C02   [8]  00 00 2A 68 2A 68 92 17
 (2.5260)  can1  8580C02   [8]  00 00 00 00 00 00 00 00
 (2.5270)  can1  4100209   [8]  3A CF 12 00 00 00 00 00
 (2.5280)  can1  4100208   [8]  70 94 12 00 00 00 00 00
 (2.5300)  can1  404FF07   [1]  00
 (2.5310)  can1  585FF72   [8]  00 80 60 09 60 09 F1 76
 (2.5310)  can1  586FF72   [8]  FF 7F FF FF FF FF F1 19
 (2.5360)  can1  595FF71   [8]  00 80 60 09 60 09 F1 76
 (2.5370)  can1  596FF71   [8]  FC 7F FF FF FF FF F1 E5
 (2.5380)  can1  4100209   [8]  3A CF 12 00 00 00 00 00
 (2.5380)  can1  4100208   [8]  70 94 12 00 00 00 00 00
 (2.5400)  can1  8100302   [5]  00 00 0A 00 F8
 (2.5450)  can1  89A0C02   [8]  00 00 00 00 00 00 00 00
 (2.5460)  can1  8030C02   [8]  00 00 2A 68 2A 68 92 17
 (2.5460)  can1  8580C02   [8]  FE FF 00 00 00 00 00 00
 (2.5470)  can1  587FF72   [8]  00 08 9A 10 FF FF F4 B7
 (2.5470)  can1  588FF72   [8]  10 01 5D FF FF FF F4 F7
 (2.5470)  can1  4100209   [8]  3A CF 12 00 00 00 00 00
 (2.5480)  can1  404FF01   [1]  00
 (2.5480)  can1  4100208   [8]  70 94 12 00 00 00 00 00
 (2.5510)  can1  585FF72   [8]  00 80 60 09 60 09 F2 76
 (2.5520)  can1  586FF72   [8]  FF 7F FF FF FF FF F2 19
 (2.5530)  can1  8041001   [8]  C0 02 B0 58 E6 56 3B 00
 (2.5530)  can1  80F1201   [4]  90 10 00 00
 (2.5540)  can1  8120C01   [8]  90 00 00 00 00 00 00 00
 (2.5540)  can1  18800401   [8]  00 F5 94 1C 94 18 94 00
 (2.5540)  can1  18840401   [8]  00 05 95 2C 94 20 94 00
 (2.5540)  can1  18C00401   [8]  00 96 2D 77 2D CE 2D 00
 (2.5560)  can1  595FF71   [8]  00 80 60 09 60 09 F2 76
 (2.5570)  can1  596FF71   [8]  FE 7F FF FF FF FF F2 4D
 (2.5570)  can1  4100209   [8]  3A CF 12 00 00 00 00 00
 (2.5580)  can1  597FF71   [8]  00 08 B6 10 FF FF F4 EA
 (2.5580)  can1  598FF71   [8]  F0 00 7D FF FF FF F4 78
 (2.5590)  can1  599FF71   [8]  1A D0 02 81 02 00 F4 87
 (2.5590)  can1  4100208   [8]  70 94 12 00 00 00 00 00
 (2.5650)  can1  5807202   [8]  00 80 00 00 E0 01 0A 43
 (2.5660)  can1  5817202   [8]  01 00 10 27 10 27 01 E3
 (2.5670)  can1  5907102   [8]  00 80 00 00 E0 01 0A 43
 (2.5680)  can1  5917102   [8]  01 00 10 27 10 27 01 E3
 (2.5680)  can1  5827202   [8]  FA 00 00 00 00 00 0A D4
 (2.5690)  can1  5927102   [8]  FA 00 00 00 00 00 0A D4
 (2.5690)  can1  4100209   [8]  3A CF 12 00 00 00 00 00
 (2.5700)  can1  5837202   [8]  2C 41 06 00 00 00 0A E0
 (2.5710)  can1  5847270   [8]  00 00 00 00 00 00 0A 9F
 (2.5710)  can1  5937102   [8]  2C 41 06 00 00 00 0A E0
 (2.5720)  can1  4100208   [8]  70 94 12 00 00 00 00 00
 (2.5720)  can1  404FF02   [1]  00
 (2.5720)  can1  5947102   [8]  00 00 00 00 00 00 0A 9F
 (2.5730)  can1  8100302   [5]  00 00 0A 00 F8
 (2.5730)  can1  89A0C02   [8]  00 00 00 00 00 00 00 00
 (2.5730)  can1  8030C02   [8]  00 00 2A 68 2A 68 92 17
 (2.5740)  can1  8580C02   [8]  FF FF 00 00 00 00 00 00
 (2.5740)  can1  585FF72   [8]  00 80 60 09 60 09 F3 76
 (2.5740)  can1  586FF72   [8]  01 80 FF FF FF FF F3 9F
 (2.5750)  can1  528FF72   [8]  FC FF 00 00 00 00 00 00
 (2.5750)  can1  529FF72   [8]  00 00 00 00 00 00 00 00
 (2.5750)  can1  52CFF72   [8]  00 00 EF FF EF FF 3A 00
 (2.5760)  can1  595FF71   [8]  00 80 60 09 60 09 F3 76
 (2.5770)  can1  528FF71   [8]  00 00 FC FF 00 00 00 00
 (2.5770)  can1  4100209   [8]  3A CF 12 00 00 00 00 00
 (2.5780)  can1  529FF71   [8]  00 00 00 00 00 00 00 00
 (2.5790)  can1  52CFF71   [8]  00 00 EF FF EF FF 3A 00
 (2.5790)  can1  596FF71   [8]  01 80 FF FF FF FF F3 9F
 (2.5800)  can1  4100208   [8]  70 94 12 00 00 00 00 00
 (2.5850)  can1  89A0C02   [8]  CC 0B 00 00 CC 0B 00 00
 (2.5860)  can1  8030C02   [8]  00 00 2A 68 2A 68 92 17
 (2.5860)  can1  8580C02   [8]  00 00 00 00 00 00 00 00
 (2.5950)  can1  4100209   [8]  3A CF 12 00 00 00 00 00
 (2.5960)  can1  4100208   [8]  70 94 12 00 00 00 00 00
 (2.5960)  can1  8100302   [5]  00 00 0A 00 F8
 (2.5970)  can1  585FF72   [8]  00 80 60 09 60 09 F4 76
 (2.5970)  can1  586FF72   [8]  00 80 FF FF FF FF F4 CB
 (2.5980)  can1  595FF71   [8]  00 80 60 09 60 09 F4 76
 (2.5980)  can1  596FF71   [8]  FF 7F FF FF FF FF F4 19
 (2.5980)  can1  4100209   [8]  3A CF 12 00 00 00 00 00
 (2.5990)  can1  4100208   [8]  70 94 12 00 00 00 00 00
 (2.5990)  can1  18101203   [4]  31 2D 0C 08
 (2.6000)  can1  18800401   [8]  01 12 94 21 94 1D 94 00
 (2.6010)  can1  18840401   [8]  01 22 94 2F 94 2D 94 00
 (2.6010)  can1  18C00401   [8]  01 A3 2D F2 2D B5 2D 00
 (2.6050)  can1  89A0C02   [8]  00 00 00 00 00 00 00 00
 (2.6050)  can1  8030C02   [8]  00 00 2A 68 2A 68 92 17
 (2.6060)  can1  8580C02   [8]  00 00 00 00 00 00 00 00
 (2.6070)  can1  4100209   [8]  3A CF 12 00 00 00 00 00
 (2.6080)  can1  4100208   [8]  70 94 12 00 00 00 00 00
 (2.6110)  can1  585FF72   [8]  00 80 60 09 60 09 F5 76
 (2.6110)  can1  586FF72   [8]  01 80 FF FF FF FF F5 9F
 (2.6130)  can1  8101201   [8]  F2 67 F5 94 8A 92 2D 00
 (2.6130)  can1  8010C01   [8]  73 67 00 00 00 00 00 00
 (2.6150)  can1  8100302   [5]  00 00 0A 00 F8
 (2.6160)  can1  595FF71   [8]  00 80 60 09 60 09 F5 76
 (2.6170)  can1  596FF71   [8]  FF 7F FF FF FF FF F5 19
 (2.6180)  can1  4100209   [8]  3A CF 12 00 00 00 00 00
 (2.6180)  can1  4100208   [8]  70 94 12 00 00 00 00 00
 (2.6210)  can1  589FF72   [8]  1A D0 02 81 02 00 F5 87
 (2.6250)  can1  5807202   [8]  00 80 00 00 E0 01 0B 43
 (2.6260)  can1  5817202   [8]  01 00 10 27 10 27 02 E3
 (2.6260)  can1  5907102   [8]  00 80 00 00 E0 01 0B 43
 (2.6260)  can1  5917102   [8]  01 00 10 27 10 27 02 E3
 (2.6270)  can1  5827202   [8]  FA 00 00 00 00 00 0B D4
 (2.6270)  can1  5927102   [8]  FA 00 00 00 00 00 0B D4
 (2.6280)  can1  4100209   [8]  3A CF 12 00 00 00 00 00
 (2.6280)  can1  5837202   [8]  2C 41 06 00 00 00 0B E0
 (2.6280)  can1  5847270   [8]  00 00 00 00 00 00 0B 9F
 (2.6290)  can1  5937102   [8]  2C 41 06 00 00 00 0B E0
 (2.6290)  can1  4100208   [8]  70 94 12 00 00 00 00 00
 (2.6300)  can1  5947102   [8]  00 00 00 00 00 00 0B 9F
 (2.6300)  can1  8580C02   [8]  00 00 00 00 00 00 00 00
 (2.6300)  can1  89A0C02   [8]  00 00 00 00 CC 0B 00 00
 (2.6300)  can1  8030C02   [8]  00 00 2A 68 2A 68 92 17
 (2.6310)  can1  585FF72   [8]  00 80 60 09 60 09 F6 76
 (2.6310)  can1  586FF72   [8]  01 80 FF FF FF FF F6 9F
 (2.6370)  can1  4100209   [8]  3A CF 12 00 00 00 00 00
 (2.6380)  can1  4100208   [8]  70 94 12 00 00 00 00 00
 (2.6400)  can1  8100302   [5]  00 00 0A 00 F8
 (2.6410)  can1  595FF71   [8]  00 80 60 09 60 09 F6 76
 (2.6420)  can1  596FF71   [8]  FC 7F FF FF FF FF F6 E5
 (2.6450)  can1  89A0C02   [8]  00 00 00 00 CC 0B 00 00
 (2.6450)  can1  8030C02   [8]  00 00 2A 68 2A 68 92 17
 (2.6460)  can1  8580C02   [8]  FE FF 00 00 00 00 00 00
 (2.6470)  can1  587FF72   [8]  FD 07 9C 10 FF FF F5 79
 (2.6470)  can1  588FF72   [8]  10 01 5D FF FF FF F5 F7
 (2.6480)  can1  4100209   [8]  3A CF 12 00 00 00 00 00
 (2.6480)  can1  4100208   [8]  70 94 12 00 00 00 00 00
 (2.6510)  can1  585FF72   [8]  00 80 60 09 60 09 F7 76
 (2.6510)  can1  586FF72   [8]  FD 7F FF FF FF FF F7 B1
 (2.6510)  can1  8041001   [8]  C0 02 B0 58 E6 56 3B 00
 (2.6520)  can1  18800401   [8]  02 4A 94 99 94 86 94 00
 (2.6520)  can1  18840401   [8]  02 55 94 A9 94 96 94 00
 (2.6530)  can1  18C00401   [8]  02 D5 2D B2 2D B5 2D 00
 (2.6570)  can1  4100209   [8]  3A CF 12 00 00 00 00 00
 (2.6580)  can1  4100208   [8]  70 94 12 00 00 00 00 00
 (2.6610)  can1  595FF71   [8]  00 80 60 09 60 09 F7 76
 (2.6620)  can1  596FF71   [8]  00 80 FF FF FF FF F7 CB
 (2.6630)  can1  597FF71   [8]  01 08 B4 10 FF FF F5 FB
 (2.6630)  can1  598FF71   [8]  F0 00 7D FF FF FF F5 78
 (2.6630)  can1  599FF71   [8]  1A D0 02 81 02 00 F5 87
 (2.6650)  can1  8100302   [5]  00 00 0A 00 F8
 (2.6650)  can1  8580C02   [8]  00 00 FE FF 00 00 00 00
 (2.6660)  can1  89A0C02   [8]  00 00 00 00 00 00 00 00
 (2.6660)  can1  8030C02   [8]  00 00 2A 68 2A 68 92 17
 (2.6670)  can1  4100209   [8]  3A CF 12 00 00 00 00 00
 (2.6680)  can1  4100208   [8]  70 94 12 00 00 00 00 00
 (2.6710)  can1  585FF72   [8]  00 80 60 09 60 09 F8 76
 (2.6710)  can1  586FF72   [8]  FF 7F FF FF FF FF F8 19
 (2.6770)  can1  4100209   [8]  3A CF 12 00 00 00 00 00
 (2.6780)  can1  4100208   [8]  70 94 12 00 00 00 00 00
 (2.6810)  can1  595FF71   [8]  00 80 60 09 60 09 F8 76
 (2.6820)  can1  596FF71   [8]  00 80 FF FF FF FF F8 CB
 (2.6850)  can1  5807202   [8]  00 80 00 00 E0 01 0C 43
 (2.6860)  can1  5817202   [8]  01 00 10 27 10 27 03 E3
 (2.6860)  can1  5907102   [8]  00 80 00 00 E0 01 0C 43
 (2.6860)  can1  5917102   [8]  01 00 10 27 10 27 03 E3
 (2.6870)  can1  5827202   [8]  FA 00 00 00 00 00 0C D4
 (2.6870)  can1  5927102   [8]  FA 00 00 00 00 00 0C D4
 (2.6870)  can1  4100209   [8]  3A CF 12 00 00 00 00 00
 (2.6880)  can1  5837202   [8]  2C 41 06 00 00 00 0C E0
 (2.6880)  can1  5847270   [8]  00 00 00 00 00 00 0C 9F
 (2.6890)  can1  5937102   [8]  2C 41 06 00 00 00 0C E0
 (2.6890)  can1  4100208   [8]  70 94 12 00 00 00 00 00
 (2.6900)  can1  5947102   [8]  00 00 00 00 00 00 0C 9F
 (2.6900)  can1  8580C02   [8]  00 00 00 00 00 00 00 00
 (2.6900)  can1  89A0C02   [8]  00 00 00 00 00 00 00 00
 (2.6900)  can1  8030C02   [8]  00 00 2A 68 2A 68 92 17
 (2.6910)  can1  8100302   [5]  00 00 0A 00 F8
 (2.6910)  can1  585FF72   [8]  00 80 60 09 60 09 F9 76
 (2.6910)  can1  586FF72   [8]  00 80 FF FF FF FF F9 CB
 (2.6970)  can1  4100209   [8]  3A CF 12 00 00 00 00 00
 (2.6980)  can1  4100208   [8]  70 94 12 00 00 00 00 00
 (2.7000)  can1  18800401   [8]  03 80 94 77 94 7A 94 00
 (2.7000)  can1  18840401   [8]  03 8F 94 86 94 90 94 00
 (2.7000)  can1  18C00401   [8]  03 98 2D 76 2D 57 2D 00
 (2.7020)  can1  595FF71   [8]  00 80 60 09 60 09 F9 76
 (2.7020)  can1  596FF71   [8]  FE 7F FF FF FF FF F9 4D
 (2.7050)  can1  89A0C02   [8]  00 00 00 00 00 00 00 00
 (2.7060)  can1  8030C02   [8]  00 00 2A 68 2A 68 92 17
 (2.7060)  can1  8580C02   [8]  FF FF 00 00 00 00 00 00
 (2.7070)  can1  4100209   [8]  3A CF 12 00 00 00 00 00
 (2.7080)  can1  4100208   [8]  70 94 12 00 00 00 00 00
 (2.7110)  can1  585FF72   [8]  00 80 60 09 60 09 FA 76
 (2.7110)  can1  586FF72   [8]  FE 7F FF FF FF FF FA 4D
 (2.7140)  can1  8101201   [8]  EF 67 F9 94 8A 92 47 00
 (2.7140)  can1  8010C01   [8]  70 67 00 00 00 00 00 00
 (2.7150)  can1  8100302   [5]  00 00 0A 00 F8
 (2.7170)  can1  4100209   [8]  3A CF 12 00 00 00 00 00
 (2.7180)  can1  4100208   [8]  70 94 12 00 00 00 00 00
 (2.7250)  can1  89A0C02   [8]  00 00 00 00 00 00 00 00
 (2.7250)  can1  8030C02   [8]  00 00 2A 68 2A 68 92 17
 (2.7260)  can1  8580C02   [8]  FF FF FF FF 00 00 00 00
 (2.7270)  can1  589FF72   [8]  1A D0 02 81 02 00 F6 87
 (2.7270)  can1  595FF71   [8]  00 80 60 09 60 09 FA 76
 (2.7270)  can1  596FF71   [8]  FD 7F FF FF FF FF FA B1
 (2.7280)  can1  4100209   [8]  3A CF 12 00 00 00 00 00
 (2.7280)  can1  4100208   [8]  70 94 12 00 00 00 00 00
 (2.7310)  can1  585FF72   [8]  00 80 60 09 60 09 FB 76
 (2.7310)  can1  586FF72   [8]  FF 7F FF FF FF FF FB 19
 (2.7360)  can1  1948FF71   [8]  00 C0 00 55 FF FF B6 C9
 (2.7370)  can1  1949FF71   [8]  0D 80 00 0D A0 00 B7 F1
 (2.7370)  can1  194AFF71   [8]  09 67 58 8B E5 58 B8 48
 (2.7380)  can1  4100209   [8]  3A CF 12 00 00 00 00 00
 (2.7380)  can1  194BFF71   [8]  91 F5 FF FF FF FF B9 3B
 (2.7380)  can1  194CFF71   [8]  FF FF FF FF FF FF BA B4
 (2.7380)  can1  4100208   [8]  70 94 12 00 00 00 00 00
 (2.7400)  can1  8100302   [5]  00 00 0A 00 F8
 (2.7410)  can1  1948FF72   [8]  00 C0 00 55 FF FF B6 C9
 (2.7410)  can1  1949FF72   [8]  0D 80 00 0D 90 00 B7 E1
 (2.7420)  can1  194AFF72   [8]  1C 47 59 94 B5 58 B8 15
 (2.7420)  can1  194BFF72   [8]  8E F5 FF FF FF FF B9 38
 (2.7420)  can1  194CFF72   [8]  FF FF FF FF FF FF BA B4
 (2.7450)  can1  5807202   [8]  00 80 00 00 E0 01 0D 43
 (2.7460)  can1  5817202   [8]  01 00 10 27 10 27 04 E3
 (2.7460)  can1  5907102   [8]  00 80 00 00 E0 01 0D 43
 (2.7460)  can1  587FF72   [8]  00 08 97 10 FF FF F6 B3
 (2.7470)  can1  5827202   [8]  FA 00 00 00 00 00 0D D4
 (2.7470)  can1  588FF72   [8]  10 01 5D FF FF FF F6 F7
 (2.7480)  can1  4100209   [8]  3A CF 12 00 00 00 00 00
 (2.7480)  can1  5837202   [8]  2C 41 06 00 00 00 0D E0
 (2.7490)  can1  5917102   [8]  01 00 10 27 10 27 04 E3
 (2.7490)  can1  5927102   [8]  FA 00 00 00 00 00 0D D4
 (2.7500)  can1  4100208   [8]  70 94 12 00 00 00 00 00
 (2.7500)  can1  5847270   [8]  00 00 00 00 00 00 0D 9F
 (2.7500)  can1  5937102   [8]  2C 41 06 00 00 00 0D E0
 (2.7510)  can1  5947102   [8]  00 00 00 00 00 00 0D 9F
 (2.7510)  can1  595FF71   [8]  00 80 60 09 60 09 FB 76
 (2.7510)  can1  596FF71   [8]  01 80 FF FF FF FF FB 9F
 (2.7520)  can1  8580C02   [8]  FE FF 00 00 00 00 00 00
 (2.7520)  can1  89A0C02   [8]  00 00 00 00 00 00 00 00
 (2.7520)  can1  8030C02   [8]  00 00 2A 68 2A 68 92 17
 (2.7530)  can1  585FF72   [8]  00 80 60 09 60 09 FC 76
 (2.7530)  can1  586FF72   [8]  01 80 FF FF FF FF FC 9F
 (2.7530)  can1  8041001   [8]  C0 02 B0 58 E6 56 3B 00
 (2.7540)  can1  18800401   [8]  04 A2 94 91 94 7B 92 00
 (2.7540)  can1  18840401   [8]  04 B2 94 9F 94 89 92 00
 (2.7540)  can1  18C00401   [8]  04 06 2D FF 2C 00 2E 00
 (2.7570)  can1  4100209   [8]  3A CF 12 00 00 00 00 00
 (2.7580)  can1  4100208   [8]  70 94 12 00 00 00 00 00
 (2.7610)  can1  597FF71   [8]  00 08 B6 10 FF FF F6 EA
 (2.7620)  can1  598FF71   [8]  F0 00 7D FF FF FF F6 78
 (2.7620)  can1  599FF71   [8]  1A D0 02 81 02 00 F6 87
 (2.7650)  can1  8100302   [5]  00 00 0A 00 F8
 (2.7650)  can1  8580C02   [8]  00 00 00 00 00 00 00 00
 (2.7660)  can1  89A0C02   [8]  CC 0B 00 00 CC 0B 00 00
 (2.7660)  can1  8030C02   [8]  00 00 2A 68 2A 68 92 17
 (2.7660)  can1  595FF71   [8]  00 80 60 09 60 09 FC 76
 (2.7670)  can1  596FF71   [8]  02 80 FF FF FF FF FC 63
 (2.7670)  can1  4100209   [8]  3A CF 12 00 00 00 00 00
 (2.7680)  can1  4100208   [8]  70 94 12 00 00 00 00 00
 (2.7710)  can1  585FF72   [8]  00 80 60 09 60 09 FD 76
 (2.7710)  can1  586FF72   [8]  00 80 FF FF FF FF FD CB
 (2.7770)  can1  4100209   [8]  3A CF 12 00 00 00 00 00
 (2.7780)  can1  4100208   [8]  70 94 12 00 00 00 00 00
 (2.7850)  can1  89A0C02   [8]  99 17 00 00 00 00 00 00
 (2.7860)  can1  8030C02   [8]  00 00 2A 68 2A 68 92 17
 (2.7860)  can1  8580C02   [8]  01 00 00 00 00 00 00 00
 (2.7870)  can1  595FF71   [8]  00 80 60 09 60 09 FD 76
 (2.7870)  can1  596FF71   [8]  01 80 FF FF FF FF FD 9F
 (2.7870)  can1  4100209   [8]  3A CF 12 00 00 00 00 00
 (2.7880)  can1  4100208   [8]  70 94 12 00 00 00 00 00
 (2.7900)  can1  8100302   [5]  00 00 0A 00 F8
 (2.7960)  can1  585FF72   [8]  00 80 60 09 60 09 FE 76
 (2.7970)  can1  586FF72   [8]  00 80 FF FF FF FF FE CB
 (2.7970)  can1  4100209   [8]  3A CF 12 00 00 00 00 00
 (2.7980)  can1  4100208   [8]  70 94 12 00 00 00 00 00
 (2.8000)  can1  18800401   [8]  05 71 94 65 94 6A 94 00
 (2.8000)  can1  18840401   [8]  05 80 94 79 94 7A 94 00
 (2.8010)  can1  18C00401   [8]  05 E7 2D 2D 2E 30 2E 00
 (2.8050)  can1  5807202   [8]  00 80 00 00 E0 01 0E 43
 (2.8060)  can1  5817202   [8]  01 00 10 27 10 27 05 E3
 (2.8060)  can1  5907102   [8]  00 80 00 00 E0 01 0E 43
 (2.8070)  can1  5917102   [8]  01 00 10 27 10 27 05 E3
 (2.8080)  can1  5827202   [8]  FA 00 00 00 00 00 0E D4
 (2.8080)  can1  5927102   [8]  FA 00 00 00 00 00 0E D4
 (2.8090)  can1  4100209   [8]  3A CF 12 00 00 00 00 00
 (2.8100)  can1  5837202   [8]  2C 41 06 00 00 00 0E E0
 (2.8100)  can1  5847270   [8]  00 00 00 00 00 00 0E 9F
 (2.8100)  can1  5937102   [8]  2C 41 06 00 00 00 0E E0
 (2.8110)  can1  4100208   [8]  70 94 12 00 00 00 00 00
 (2.8110)  can1  5947102   [8]  00 00 00 00 00 00 0E 9F
 (2.8110)  can1  595FF71   [8]  00 80 60 09 60 09 FE 76
 (2.8110)  can1  596FF71   [8]  FE 7F FF FF FF FF FE 4D
 (2.8120)  can1  8030C02   [8]  00 00 2A 68 2A 68 92 17
 (2.8120)  can1  8580C02   [8]  00 00 00 00 00 00 00 00
 (2.8120)  can1  89A0C02   [8]  CC 0B 00 00 00 00 00 00
 (2.8150)  can1  8101201   [8]  F3 67 F7 94 89 92 31 00
 (2.8150)  can1  8010C01   [8]  75 67 00 00 00 00 00 00
 (2.8150)  can1  8100302   [5]  00 00 0A 00 F8
 (2.8160)  can1  585FF72   [8]  00 80 60 09 60 09 FF 76
 (2.8170)  can1  586FF72   [8]  FD 7F FF FF FF FF FF B1
 (2.8180)  can1  4100209   [8]  3A CF 12 00 00 00 00 00
 (2.8180)  can1  4100208   [8]  70 94 12 00 00 00 00 00
 (2.8250)  can1  89A0C02   [8]  00 00 00 00 00 00 00 00
 (2.8250)  can1  8030C02   [8]  00 00 2A 68 2A 68 92 17
 (2.8260)  can1  8580C02   [8]  FF FF FE FF 00 00 00 00
 (2.8260)  can1  589FF72   [8]  1A D0 02 81 02 00 F7 87
 (2.8260)  can1  595FF71   [8]  00 80 60 09 60 09 FF 76
 (2.8270)  can1  596FF71   [8]  FF 7F FF FF FF FF FF 19
 (2.8270)  can1  4100209   [8]  3A CF 12 00 00 00 00 00
 (2.8280)  can1  4100208   [8]  70 94 12 00 00 00 00 00
 (2.8360)  can1  585FF72   [8]  00 80 60 09 60 09 F0 76
 (2.8360)  can1  586FF72   [8]  FE 7F FF FF FF FF F0 4D
 (2.8370)  can1  4100209   [8]  3A CF 12 00 00 00 00 00
 (2.8380)  can1  4100208   [8]  70 94 12 00 00 00 00 00
 (2.8400)  can1  8100302   [5]  00 00 0A 00 F8
 (2.8450)  can1  89A0C02   [8]  00 00 00 00 00 00 00 00
 (2.8460)  can1  8030C02   [8]  00 00 2A 68 2A 68 92 17
 (2.8460)  can1  8580C02   [8]  00 00 FF FF 00 00 00 00
 (2.8470)  can1  595FF71   [8]  00 80 60 09 60 09 F0 76
 (2.8470)  can1  596FF71   [8]  FE 7F FF FF FF FF F0 4D
 (2.8470)  can1  4100209   [8]  3A CF 12 00 00 00 00 00
 (2.8480)  can1  4100208   [8]  70 94 12 00 00 00 00 00
 (2.8510)  can1  587FF72   [8]  00 08 9A 10 FF FF F7 B7
 (2.8520)  can1  588FF72   [8]  10 01 5D FF FF FF F7 F7
 (2.8520)  can1  8041001   [8]  C0 02 B0 58 E6 56 3B 00
 (2.8530)  can1  18800401   [8]  06 75 94 AB 94 B3 94 00
 (2.8530)  can1  18840401   [8]  06 7E 94 B7 94 BF 94 00
 (2.8540)  can1  18C00401   [8]  06 33 2E 70 2E 47 2E 00
 (2.8560)  can1  585FF72   [8]  00 80 60 09 60 09 F1 76
 (2.8570)  can1  586FF72   [8]  01 80 FF FF FF FF F1 9F
 (2.8570)  can1  4100209   [8]  3A CF 12 00 00 00 00 00
 (2.8580)  can1  4100208   [8]  70 94 12 00 00 00 00 00
 (2.8620)  can1  599FF71   [8]  1A D0 02 81 02 00 F7 87
 (2.8650)  can1  5807202   [8]  00 80 00 00 E0 01 0F 43
 (2.8660)  can1  5817202   [8]  01 00 10 27 10 27 06 E3
 (2.8660)  can1  5907102   [8]  00 80 00 00 E0 01 0F 43
 (2.8670)  can1  5917102   [8]  01 00 10 27 10 27 06 E3
 (2.8680)  can1  5827202   [8]  FA 00 00 00 00 00 0F D4
 (2.8690)  can1  5927102   [8]  FA 00 00 00 00 00 0F D4
 (2.8690)  can1  4100209   [8]  3A CF 12 00 00 00 00 00
 (2.8700)  can1  5837202   [8]  2C 41 06 00 00 00 0F E0
 (2.8710)  can1  5847270   [8]  00 00 00 00 00 00 0F 9F
 (2.8710)  can1  5937102   [8]  2C 41 06 00 00 00 0F E0
 (2.8710)  can1  4100208   [8]  70 94 12 00 00 00 00 00
 (2.8720)  can1  5947102   [8]  00 00 00 00 00 00 0F 9F
 (2.8720)  can1  595FF71   [8]  00 80 60 09 60 09 F1 76
 (2.8720)  can1  596FF71   [8]  FE 7F FF FF FF FF F1 4D
 (2.8730)  can1  597FF71   [8]  03 08 B6 10 FF FF F7 16
 (2.8730)  can1  598FF71   [8]  F0 00 7D FF FF FF F7 78
 (2.8730)  can1  8100302   [5]  00 00 0A 00 F8
 (2.8730)  can1  8580C02   [8]  FF FF 00 00 00 00 00 00
 (2.8740)  can1  8030C02   [8]  00 00 2A 68 2A 68 92 17
 (2.8740)  can1  89A0C02   [8]  00 00 00 00 CC 0B 00 00
 (2.8760)  can1  585FF72   [8]  00 80 60 09 60 09 F2 76
 (2.8760)  can1  586FF72   [8]  FF 7F FF FF FF FF F2 19
 (2.8770)  can1  4100209   [8]  3A CF 12 00 00 00 00 00
 (2.8780)  can1  4100208   [8]  70 94 12 00 00 00 00 00
 (2.8850)  can1  89A0C02   [8]  00 00 00 00 00 00 00 00
 (2.8860)  can1  8030C02   [8]  00 00 2A 68 2A 68 92 17
 (2.8860)  can1  8580C02   [8]  FF FF 00 00 00 00 00 00
 (2.8860)  can1  595FF71   [8]  00 80 60 09 60 09 F2 76
 (2.8870)  can1  596FF71   [8]  FD 7F FF FF FF FF F2 B1
 (2.8870)  can1  4100209   [8]  3A CF 12 00 00 00 00 00
 (2.8880)  can1  4100208   [8]  70 94 12 00 00 00 00 00
 (2.8900)  can1  8100302   [5]  00 00 0A 00 F8
 (2.8970)  can1  4100209   [8]  3A CF 12 00 00 00 00 00
 (2.8980)  can1  4100208   [8]  70 94 12 00 00 00 00 00
 (2.9000)  can1  18800401   [8]  07 9F 94 96 94 85 94 00
 (2.9000)  can1  18840401   [8]  07 AD 94 A4 94 92 94 00
 (2.9010)  can1  18C00401   [8]  07 75 2E 1E 2E 5E 2E 00
 (2.9020)  can1  585FF72   [8]  00 80 60 09 60 09 F3 76
 (2.9020)  can1  586FF72   [8]  01 80 FF FF FF FF F3 9F
 (2.9050)  can1  89A0C02   [8]  00 00 00 00 CC 0B 00 00
 (2.9060)  can1  8030C02   [8]  00 00 2A 68 2A 68 92 17
 (2.9060)  can1  8580C02   [8]  FE FF 00 00 00 00 00 00
 (2.9070)  can1  595FF71   [8]  00 80 60 09 60 09 F3 76
 (2.9070)  can1  596FF71   [8]  FE 7F FF FF FF FF F3 4D
 (2.9080)  can1  4100209   [8]  3A CF 12 00 00 00 00 00
 (2.9080)  can1  4100208   [8]  70 94 12 00 00 00 00 00
 (2.9150)  can1  8100302   [5]  00 00 0A 00 F8
 (2.9160)  can1  8101201   [8]  F1 67 FA 94 8A 92 2C 00
 (2.9160)  can1  8010C01   [8]  70 67 00 00 00 00 00 00
 (2.9170)  can1  4100209   [8]  3A CF 12 00 00 00 00 00
 (2.9180)  can1  4100208   [8]  70 94 12 00 00 00 00 00
 (2.9210)  can1  585FF72   [8]  00 80 60 09 60 09 F4 76
 (2.9210)  can1  586FF72   [8]  00 80 FF FF FF FF F4 CB
 (2.9250)  can1  5807202   [8]  00 80 00 00 E0 01 00 43
 (2.9260)  can1  5817202   [8]  01 00 10 27 10 27 07 E3
 (2.9260)  can1  5907102   [8]  00 80 00 00 E0 01 00 43
 (2.9270)  can1  5917102   [8]  01 00 10 27 10 27 07 E3
 (2.9280)  can1  5827202   [8]  FA 00 00 00 00 00 00 D4
 (2.9280)  can1  5927102   [8]  FA 00 00 00 00 00 00 D4
 (2.9290)  can1  4100209   [8]  3A CF 12 00 00 00 00 00
 (2.9300)  can1  5837202   [8]  2C 41 06 00 00 00 00 E0
 (2.9300)  can1  5847270   [8]  00 00 00 00 00 00 00 9F
 (2.9310)  can1  5937102   [8]  2C 41 06 00 00 00 00 E0
 (2.9310)  can1  4100208   [8]  70 94 12 00 00 00 00 00
 (2.9310)  can1  5947102   [8]  00 00 00 00 00 00 00 9F
 (2.9320)  can1  595FF71   [8]  00 80 60 09 60 09 F4 76
 (2.9320)  can1  596FF71   [8]  01 80 FF FF FF FF F4 9F
 (2.9320)  can1  8030C02   [8]  00 00 2A 68 2A 68 92 17
 (2.9330)  can1  8580C02   [8]  FF FF 00 00 00 00 00 00
 (2.9330)  can1  89A0C02   [8]  00 00 00 00 00 00 00 00
 (2.9330)  can1  589FF72   [8]  1A D0 02 81 02 00 F8 87
 (2.9370)  can1  4100209   [8]  3A CF 12 00 00 00 00 00
 (2.9380)  can1  4100208   [8]  70 94 12 00 00 00 00 00
 (2.9400)  can1  8100302   [5]  00 00 0A 00 F8
 (2.9410)  can1  585FF72   [8]  00 80 60 09 60 09 F5 76
 (2.9410)  can1  586FF72   [8]  FE 7F FF FF FF FF F5 4D
 (2.9450)  can1  89A0C02   [8]  CC 0B 00 00 00 00 00 00
 (2.9460)  can1  8030C02   [8]  00 00 2A 68 2A 68 92 17
 (2.9470)  can1  8580C02   [8]  00 00 FF FF 00 00 00 00
 (2.9470)  can1  595FF71   [8]  00 80 60 09 60 09 F5 76
 (2.9480)  can1  596FF71   [8]  02 80 FF FF FF FF F5 63
 (2.9480)  can1  4100209   [8]  3A CF 12 00 00 00 00 00
 (2.9480)  can1  4100208   [8]  70 94 12 00 00 00 00 00
 (2.9510)  can1  587FF72   [8]  00 08 9A 10 FF FF F8 B7
 (2.9510)  can1  588FF72   [8]  10 01 5D FF FF FF F8 F7
 (2.9520)  can1  8041001   [8]  C0 02 B0 58 E6 56 3B 00
 (2.9520)  can1  18800401   [8]  08 7E 94 9B 92 C3 94 00
 (2.9530)  can1  18840401   [8]  08 8A 94 AC 92 D1 94 00
 (2.9530)  can1  18C00401   [8]  08 E9 2D 15 2E 95 2D 00
 (2.9570)  can1  4100209   [8]  3A CF 12 00 00 00 00 00
 (2.9580)  can1  4100208   [8]  70 94 12 00 00 00 00 00
 (2.9610)  can1  585FF72   [8]  00 80 60 09 60 09 F6 76
 (2.9620)  can1  586FF72   [8]  FF 7F FF FF FF FF F6 19
 (2.9620)  can1  599FF71   [8]  1A D0 02 81 02 00 F8 87
 (2.9650)  can1  8100302   [5]  00 00 0A 00 F8
 (2.9650)  can1  8580C02   [8]  01 00 00 00 00 00 00 00
 (2.9660)  can1  89A0C02   [8]  99 17 00 00 00 00 00 00
 (2.9660)  can1  8030C02   [8]  00 00 2A 68 2A 68 92 17
 (2.9670)  can1  595FF71   [8]  00 80 60 09 60 09 F6 76
 (2.9680)  can1  596FF71   [8]  00 80 FF FF FF FF F6 CB
 (2.9680)  can1  4100209   [8]  3A CF 12 00 00 00 00 00
 (2.9680)  can1  597FF71   [8]  03 08 B4 10 FF FF F8 53
 (2.9690)  can1  598FF71   [8]  F0 00 7D FF FF FF F8 78
 (2.9690)  can1  4100208   [8]  70 94 12 00 00 00 00 00
 (2.9770)  can1  4100209   [8]  3A CF 12 00 00 00 00 00
 (2.9780)  can1  4100208   [8]  70 94 12 00 00 00 00 00
 (2.9810)  can1  585FF72   [8]  00 80 60 09 60 09 F7 76
 (2.9820)  can1  586FF72   [8]  FE 7F FF FF FF FF F7 4D
 (2.9850)  can1  5807202   [8]  00 80 00 00 E0 01 01 43
 (2.9860)  can1  5817202   [8]  01 00 10 27 10 27 08 E3
 (2.9860)  can1  5907102   [8]  00 80 00 00 E0 01 01 43
 (2.9870)  can1  5917102   [8]  01 00 10 27 10 27 08 E3
 (2.9870)  can1  5827202   [8]  FA 00 00 00 00 00 01 D4
 (2.9880)  can1  5927102   [8]  FA 00 00 00 00 00 01 D4
 (2.9890)  can1  4100209   [8]  3A CF 12 00 00 00 00 00
 (2.9890)  can1  5837202   [8]  2C 41 06 00 00 00 01 E0
 (2.9900)  can1  5847270   [8]  00 00 00 00 00 00 01 9F
 (2.9900)  can1  5937102   [8]  2C 41 06 00 00 00 01 E0
 (2.9910)  can1  4100208   [8]  70 94 12 00 00 00 00 00
 (2.9910)  can1  5947102   [8]  00 00 00 00 00 00 01 9F
 (2.9910)  can1  595FF71   [8]  00 80 60 09 60 09 F7 76
 (2.9920)  can1  596FF71   [8]  01 80 FF FF FF FF F7 9F
 (2.9920)  can1  8030C02   [8]  00 00 2A 68 2A 68 92 17
 (2.9930)  can1  8580C02   [8]  00 00 FF FF 00 00 00 00
 (2.9930)  can1  89A0C02   [8]  00 00 00 00 00 00 00 00
 (2.9930)  can1  8100302   [5]  00 00 0A 00 F8
 (2.9940)  can1  1948FF71   [8]  00 C0 00 55 FF FF BB CE
 (2.9940)  can1  1949FF71   [8]  0D 80 00 0D B0 00 BC 06
 (2.9950)  can1  194AFF71   [8]  0A 47 59 94 45 59 BD 99
 (2.9950)  can1  194BFF71   [8]  97 F5 FF FF FF FF BE 46
 (2.9950)  can1  194CFF71   [8]  FF FF FF FF FF FF BF B9
 (2.9960)  can1  1948FF72   [8]  00 C0 00 55 FF FF BB CE
 (2.9970)  can1  1949FF72   [8]  0D 80 00 0D A0 00 BC F6
 (2.9980)  can1  194AFF72   [8]  1B 67 58 86 65 58 BD DA
 (2.9980)  can1  4100209   [8]  3A CF 12 00 00 00 00 00
 (2.9990)  can1  194BFF72   [8]  86 F5 FF FF FF FF BE 35
 (2.9990)  can1  194CFF72   [8]  FF FF FF FF FF FF BF B9
 (2.9990)  can1  4100208   [8]  70 94 12 00 00 00 00 00
 (3.0000)  can1  18800401   [8]  09 AE 94 75 94 69 94 00
 (3.0000)  can1  18840401   [8]  09 BB 94 85 94 77 94 00
 (3.0010)  can1  18C00401   [8]  09 99 2D 0F 2E 1B 2E 00
 (3.0010)  can1  585FF72   [8]  00 80 60 09 60 09 F8 76
 (3.0020)  can1  586FF72   [8]  FF 7F FF FF FF FF F8 19
 (3.0050)  can1  89A0C02   [8]  CC 0B 00 00 00 00 00 00
 (3.0060)  can1  8030C02   [8]  00 00 2A 68 2A 68 92 17
 (3.0060)  can1  8580C02   [8]  00 00 00 00 00 00 00 00
 (3.0060)  can1  595FF71   [8]  00 80 60 09 60 09 F8 76
 (3.0070)  can1  596FF71   [8]  FE 7F FF FF FF FF F8 4D
 (3.0070)  can1  4100209   [8]  3A CF 12 00 00 00 00 00
 (3.0080)  can1  4100208   [8]  70 94 12 00 00 00 00 00
 (3.0150)  can1  8100302   [5]  00 00 0A 00 F8
 (3.0170)  can1  8101201   [8]  F3 67 F3 94 87 92 30 00
 (3.0170)  can1  4100209   [8]  3A CF 12 00 00 00 00 00
 (3.0180)  can1  8010C01   [8]  72 67 00 00 00 00 00 00
 (3.0180)  can1  4100208   [8]  70 94 12 00 00 00 00 00
 (3.0210)  can1  585FF72   [8]  00 80 60 09 60 09 F9 76
 (3.0210)  can1  586FF72   [8]  01 80 FF FF FF FF F9 9F
 (3.0250)  can1  89A0C02   [8]  00 00 00 00 CC 0B 00 00
 (3.0260)  can1  8030C02   [8]  00 00 2A 68 2A 68 92 17
 (3.0260)  can1  8580C02   [8]  FF FF 00 00 00 00 00 00
 (3.0260)  can1  595FF71   [8]  00 80 60 09 60 09 F9 76
 (3.0270)  can1  596FF71   [8]  00 80 FF FF FF FF F9 CB
 (3.0280)  can1  4100209   [8]  3A CF 12 00 00 00 00 00
 (3.0280)  can1  4100208   [8]  70 94 12 00 00 00 00 00
 (3.0310)  can1  589FF72   [8]  1A D0 02 81 02 00 F9 87
 (3.0370)  can1  4100209   [8]  3A CF 12 00 00 00 00 00
 (3.0380)  can1  4100208   [8]  70 94 12 00 00 00 00 00
 (3.0400)  can1  8100302   [5]  00 00 0A 00 F8
 (3.0410)  can1  585FF72   [8]  00 80 60 09 60 09 FA 76
 (3.0410)  can1  586FF72   [8]  00 80 FF FF FF FF FA CB
 (3.0450)  can1  5807202   [8]  00 80 00 00 E0 01 02 43
 (3.0460)  can1  5817202   [8]  01 00 10 27 10 27 09 E3
 (3.0460)  can1  5907102   [8]  00 80 00 00 E0 01 02 43
 (3.0470)  can1  5917102   [8]  01 00 10 27 10 27 09 E3
 (3.0480)  can1  5827202   [8]  FA 00 00 00 00 00 02 D4
 (3.0490)  can1  5927102   [8]  FA 00 00 00 00 00 02 D4
 (3.0490)  can1  4100209   [8]  3A CF 12 00 00 00 00 00
 (3.0490)  can1  5837202   [8]  2C 41 06 00 00 00 02 E0
 (3.0500)  can1  5847270   [8]  00 00 00 00 00 00 02 9F
 (3.0500)  can1  5937102   [8]  2C 41 06 00 00 00 02 E0
 (3.0510)  can1  4100208   [8]  70 94 12 00 00 00 00 00
 (3.0510)  can1  5947102   [8]  00 00 00 00 00 00 02 9F
 (3.0510)  can1  595FF71   [8]  00 80 60 09 60 09 FA 76
 (3.0520)  can1  596FF71   [8]  02 80 FF FF FF FF FA 63
 (3.0520)  can1  8030C02   [8]  00 00 2A 68 2A 68 92 17
 (3.0530)  can1  8580C02   [8]  00 00 00 00 00 00 00 00
 (3.0530)  can1  89A0C02   [8]  00 00 00 00 00 00 00 00
 (3.0530)  can1  587FF72   [8]  00 08 97 10 FF FF F9 B3
 (3.0540)  can1  588FF72   [8]  10 01 5D FF FF FF F9 F7
 (3.0540)  can1  8041001   [8]  C0 02 B0 58 E6 56 3B 00
 (3.0540)  can1  18800401   [8]  0A 54 94 5E 94 69 94 00
 (3.0550)  can1  18840401   [8]  0A 66 94 6C 94 77 94 00
 (3.0550)  can1  18C00401   [8]  0A 4D 2E 77 2E 5C 2E 00
 (3.0570)  can1  4100209   [8]  3A CF 12 00 00 00 00 00
 (3.0580)  can1  4100208   [8]  70 94 12 00 00 00 00 00
 (3.0610)  can1  585FF72   [8]  00 80 60 09 60 09 FB 76
 (3.0610)  can1  586FF72   [8]  FE 7F FF FF FF FF FB 4D
 (3.0620)  can1  599FF71   [8]  1A D0 02 81 02 00 F9 87
 (3.0650)  can1  8100302   [5]  00 00 0A 00 F8
 (3.0650)  can1  8580C02   [8]  01 00 FF FF 00 00 00 00
 (3.0660)  can1  89A0C02   [8]  99 17 00 00 00 00 00 00
 (3.0670)  can1  8030C02   [8]  00 00 2A 68 2A 68 92 17
 (3.0680)  can1  595FF71   [8]  00 80 60 09 60 09 FB 76
 (3.0680)  can1  596FF71   [8]  01 80 FF FF FF FF FB 9F
 (3.0690)  can1  4100209   [8]  3A CF 12 00 00 00 00 00
 (3.0690)  can1  597FF71   [8]  00 08 B4 10 FF FF F9 AF
 (3.0690)  can1  598FF71   [8]  F0 00 7D FF FF FF F9 78
 (3.0690)  can1  4100208   [8]  70 94 12 00 00 00 00 00
 (3.0710)  can1  528FF72   [8]  00 00 02 00 00 00 00 00
 (3.0710)  can1  529FF72   [8]  00 00 00 00 00 00 00 00
 (3.0720)  can1  52AFF72   [8]  0D 0D 0D 0D 0D 0D 11 00
 (3.0720)  can1  52BFF72   [8]  0D 10 0D 0D 00 FF 00 00
 (3.0720)  can1  52CFF72   [8]  00 00 EF FF EF FF 3A 00
 (3.0760)  can1  528FF71   [8]  01 00 00 00 00 00 00 00
 (3.0770)  can1  529FF71   [8]  00 00 00 00 00 00 00 00
 (3.0770)  can1  52AFF71   [8]  0D 0D 0D 0D 0D 0D 0F 00
 (3.0780)  can1  4100209   [8]  3A CF 12 00 00 00 00 00
 (3.0790)  can1  52BFF71   [8]  0C 0E 0C 0D 00 FF 00 00
 (3.0790)  can1  52CFF71   [8]  00 00 EF FF EF FF 3A 00
 (3.0790)  can1  4100208   [8]  70 94 12 00 00 00 00 00
 (3.0810)  can1  585FF72   [8]  00 80 60 09 60 09 FC 76
 (3.0810)  can1  586FF72   [8]  FF 7F FF FF FF FF FC 19
 (3.0850)  can1  89A0C02   [8]  CC 0B 00 00 00 00 00 00
 (3.0860)  can1  8030C02   [8]  00 00 2A 68 2A 68 92 17
 (3.0860)  can1  8580C02   [8]  00 00 00 00 00 00 00 00
 (3.0870)  can1  595FF71   [8]  00 80 60 09 60 09 FC 76
 (3.0870)  can1  596FF71   [8]  01 80 FF FF FF FF FC 9F
 (3.0870)  can1  4100209   [8]  3A CF 12 00 00 00 00 00
 (3.0880)  can1  4100208   [8]  70 94 12 00 00 00 00 00
 (3.0900)  can1  8100302   [5]  00 00 0A 00 F8
 (3.0970)  can1  4100209   [8]  3A CF 12 00 00 00 00 00
 (3.0980)  can1  4100208   [8]  70 94 12 00 00 00 00 00
 (3.0990)  can1  18101203   [4]  45 2D A9 06
 (3.1000)  can1  18800401   [8]  0B 9E 94 9A 94 98 94 00
 (3.1010)  can1  18840401   [8]  0B AB 94 A7 94 A5 94 00
 (3.1020)  can1  18C00401   [8]  0B A5 2E 65 2E 90 2E 00
 (3.1020)  can1  585FF72   [8]  00 80 60 09 60 09 FD 76
 (3.1020)  can1  586FF72   [8]  01 80 FF FF FF FF FD 9F
 (3.1050)  can1  5807202   [8]  00 80 00 00 E0 01 03 43
 (3.1060)  can1  5817202   [8]  01 00 10 27 10 27 0A E3
 (3.1070)  can1  5907102   [8]  00 80 00 00 E0 01 03 43
 (3.1070)  can1  5917102   [8]  01 00 10 27 10 27 0A E3
 (3.1080)  can1  5827202   [8]  FA 00 00 00 00 00 03 D4
 (3.1090)  can1  5927102   [8]  FA 00 00 00 00 00 03 D4
 (3.1100)  can1  4100209   [8]  3A CF 12 00 00 00 00 00
 (3.1100)  can1  5837202   [8]  2C 41 06 00 00 00 03 E0
 (3.1100)  can1  5847270   [8]  00 00 00 00 00 00 03 9F
 (3.1110)  can1  5937102   [8]  2C 41 06 00 00 00 03 E0
 (3.1110)  can1  4100208   [8]  70 94 12 00 00 00 00 00
 (3.1110)  can1  5947102   [8]  00 00 00 00 00 00 03 9F
 (3.1120)  can1  595FF71   [8]  00 80 60 09 60 09 FD 76
 (3.1120)  can1  596FF71   [8]  00 80 FF FF FF FF FD CB
 (3.1120)  can1  8030C02   [8]  00 00 2A 68 2A 68 92 17
 (3.1120)  can1  8580C02   [8]  00 00 00 00 00 00 00 00
 (3.1130)  can1  89A0C02   [8]  CC 0B 00 00 CC 0B 00 00
 (3.1150)  can1  8100302   [5]  00 00 0A 00 F8
 (3.1170)  can1  4100209   [8]  3A CF 12 00 00 00 00 00
 (3.1180)  can1  4100208   [8]  70 94 12 00 00 00 00 00
 (3.1180)  can1  8010C01   [8]  70 67 00 00 00 00 00 00
 (3.1190)  can1  8101201   [8]  F1 67 F3 94 87 92 2D 00
 (3.1210)  can1  585FF72   [8]  00 80 60 09 60 09 FE 76
 (3.1220)  can1  586FF72   [8]  00 80 FF FF FF FF FE CB
 (3.1250)  can1  89A0C02   [8]  00 00 00 00 00 00 00 00
 (3.1260)  can1  8030C02   [8]  00 00 2A 68 2A 68 92 17
 (3.1260)  can1  8580C02   [8]  00 00 00 00 00 00 00 00
 (3.1270)  can1  595FF71   [8]  00 80 60 09 60 09 FE 76
 (3.1270)  can1  596FF71   [8]  FD 7F FF FF FF FF FE B1
 (3.1270)  can1  4100209   [8]  3A CF 12 00 00 00 00 00
 (3.1280)  can1  4100208   [8]  70 94 12 00 00 00 00 00
 (3.1310)  can1  589FF72   [8]  1A D0 02 81 02 00 FA 87
 (3.1370)  can1  4100209   [8]  3A CF 12 00 00 00 00 00
 (3.1380)  can1  4100208   [8]  70 94 12 00 00 00 00 00
 (3.1400)  can1  8100302   [5]  00 00 0A 00 F8
 (3.1410)  can1  585FF72   [8]  00 80 60 09 60 09 FF 76
 (3.1410)  can1  586FF72   [8]  FF 7F FF FF FF FF FF 19
 (3.1450)  can1  89A0C02   [8]  00 00 00 00 00 00 00 00
 (3.1460)  can1  8030C02   [8]  00 00 2A 68 2A 68 92 17
 (3.1460)  can1  8580C02   [8]  FE FF 00 00 00 00 00 00
 (3.1470)  can1  595FF71   [8]  00 80 60 09 60 09 FF 76
 (3.1470)  can1  596FF71   [8]  00 80 FF FF FF FF FF CB
 (3.1480)  can1  4100209   [8]  3A CF 12 00 00 00 00 00
 (3.1480)  can1  4100208   [8]  70 94 12 00 00 00 00 00
 (3.1510)  can1  587FF72   [8]  FD 07 97 10 FF FF FA B2
 (3.1510)  can1  588FF72   [8]  10 01 5D FF FF FF FA F7
 (3.1520)  can1  8041001   [8]  C0 02 B0 58 E6 56 3B 00
 (3.1520)  can1  18800401   [8]  0C 90 94 85 94 81 94 00
 (3.1530)  can1  18840401   [8]  0C 9D 94 92 94 8E 94 00
 (3.1530)  can1  18C00401   [8]  0C 40 2E 4D 2E D5 2D 00
 (3.1570)  can1  4100209   [8]  3A CF 12 00 00 00 00 00
 (3.1580)  can1  4100208   [8]  70 94 12 00 00 00 00 00
 (3.1610)  can1  585FF72   [8]  00 80 60 09 60 09 F0 76
 (3.1620)  can1  586FF72   [8]  02 80 FF FF FF FF F0 63
 (3.1620)  can1  599FF71   [8]  1A D0 02 81 02 00 FA 87
 (3.1650)  can1  5807202   [8]  00 80 00 00 E0 01 04 43
 (3.1660)  can1  5817202   [8]  01 00 10 27 10 27 0B E3
 (3.1660)  can1  5907102   [8]  00 80 00 00 E0 01 04 43
 (3.1670)  can1  5917102   [8]  01 00 10 27 10 27 0B E3
 (3.1670)  can1  5827202   [8]  FA 00 00 00 00 00 04 D4
 (3.1680)  can1  5927102   [8]  FA 00 00 00 00 00 04 D4
 (3.1690)  can1  4100209   [8]  3A CF 12 00 00 00 00 00
 (3.1700)  can1  5837202   [8]  2C 41 06 00 00 00 04 E0
 (3.1710)  can1  5847270   [8]  00 00 00 00 00 00 04 9F
 (3.1710)  can1  5937102   [8]  2C 41 06 00 00 00 04 E0
 (3.1710)  can1  4100208   [8]  70 94 12 00 00 00 00 00
 (3.1720)  can1  5947102   [8]  00 00 00 00 00 00 04 9F
 (3.1720)  can1  595FF71   [8]  00 80 60 09 60 09 F0 76
 (3.1720)  can1  596FF71   [8]  01 80 FF FF FF FF F0 9F
 (3.1720)  can1  597FF71   [8]  FD 07 B4 10 FF FF FA AE
 (3.1730)  can1  598FF71   [8]  F0 00 7D FF FF FF FA 78
 (3.1730)  can1  8100302   [5]  00 00 0A 00 F8
 (3.1730)  can1  8580C02   [8]  00 00 01 00 00 00 00 00
 (3.1740)  can1  8030C02   [8]  00 00 2A 68 2A 68 92 17
 (3.1740)  can1  89A0C02   [8]  00 00 00 00 99 17 00 00
 (3.1770)  can1  4100209   [8]  3A CF 12 00 00 00 00 00
 (3.1780)  can1  4100208   [8]  70 94 12 00 00 00 00 00
 (3.1810)  can1  585FF72   [8]  00 80 60 09 60 09 F1 76
 (3.1820)  can1  586FF72   [8]  FF 7F FF FF FF FF F1 19
 (3.1850)  can1  89A0C02   [8]  CC 0B 00 00 00 00 00 00
 (3.1860)  can1  8030C02   [8]  00 00 2A 68 2A 68 92 17
 (3.1860)  can1  8580C02   [8]  00 00 00 00 00 00 00 00
 (3.1870)  can1  595FF71   [8]  00 80 60 09 60 09 F1 76
 (3.1870)  can1  596FF71   [8]  FE 7F FF FF FF FF F1 4D
 (3.1870)  can1  4100209   [8]  3A CF 12 00 00 00 00 00
 (3.1880)  can1  4100208   [8]  70 94 12 00 00 00 00 00
 (3.1900)  can1  8100302   [5]  00 00 0A 00 F8
 (3.1970)  can1  4100209   [8]  3A CF 12 00 00 00 00 00
 (3.1980)  can1  4100208   [8]  70 94 12 00 00 00 00 00
 (3.2000)  can1  18800401   [8]  0D 85 94 AA 94 9E 94 00
 (3.2000)  can1  18840401   [8]  0D 92 94 B7 94 AB 94 00
 (3.2000)  can1  18C00401   [8]  0D DC 2D 5B 2D 51 2D 00
 (3.2010)  can1  585FF72   [8]  00 80 60 09 60 09 F2 76
 (3.2020)  can1  586FF72   [8]  FF 7F FF FF FF FF F2 19
 (3.2050)  can1  89A0C02   [8]  00 00 00 00 00 00 00 00
 (3.2060)  can1  8030C02   [8]  00 00 2A 68 2A 68 92 17
 (3.2150)  can1  8580C02   [8]  FF FF 00 00 00 00 00 00
 (3.2160)  can1  595FF71   [8]  00 80 60 09 60 09 F2 76
 (3.2160)  can1  596FF71   [8]  00 80 FF FF FF FF F2 CB
 (3.2160)  can1  4100209   [8]  3A CF 12 00 00 00 00 00
 (3.2170)  can1  4100208   [8]  70 94 12 00 00 00 00 00
 (3.2170)  can1  8100302   [5]  00 00 0A 00 F8
 (3.2180)  can1  4100209   [8]  3A CF 12 00 00 00 00 00
 (3.2180)  can1  4100208   [8]  70 94 12 00 00 00 00 00
 (3.2190)  can1  8101201   [8]  F1 67 F5 94 86 92 2F 00
 (3.2190)  can1  8010C01   [8]  71 67 00 00 00 00 00 00
 (3.2210)  can1  585FF72   [8]  00 80 60 09 60 09 F3 76
 (3.2220)  can1  586FF72   [8]  FF 7F FF FF FF FF F3 19
 (3.2250)  can1  5807202   [8]  04 80 00 00 E0 01 05 3C
 (3.2260)  can1  5817202   [8]  01 00 10 27 10 27 0C E3
 (3.2260)  can1  5907102   [8]  04 80 00 00 E0 01 05 3C
 (3.2270)  can1  5917102   [8]  01 00 10 27 10 27 0C E3
 (3.2270)  can1  5827202   [8]  FA 00 00 00 00 00 05 D4
 (3.2280)  can1  5927102   [8]  FA 00 00 00 00 00 05 D4
 (3.2290)  can1  4100209   [8]  3A CF 12 00 00 00 00 00
 (3.2290)  can1  5837202   [8]  2C 41 06 00 00 00 05 E0
 (3.2300)  can1  5847270   [8]  00 00 00 00 00 00 05 9F
 (3.2300)  can1  5937102   [8]  2C 41 06 00 00 00 05 E0
 (3.2300)  can1  4100208   [8]  70 94 12 00 00 00 00 00
 (3.2310)  can1  5947102   [8]  00 00 00 00 00 00 05 9F
 (3.2310)  can1  595FF71   [8]  00 80 60 09 60 09 F3 76
 (3.2320)  can1  596FF71   [8]  FF 7F FF FF FF FF F3 19
 (3.2320)  can1  8030C02   [8]  00 00 2A 68 2A 68 92 17
 (3.2320)  can1  8580C02   [8]  00 00 00 00 00 00 00 00
 (3.2330)  can1  89A0C02   [8]  00 00 00 00 00 00 00 00
 (3.2330)  can1  589FF72   [8]  1A D0 02 81 02 00 FB 87
